! TOUCHSTONE file generated by CST MICROWAVE STUDIO
! Date and time: Wed Oct 26 17:57:11 2022
! Project name: L.cst
! Parameters = {Di=1.27; Epsilon_r=1.56; InnerDiameter=1.27; Length=2; Lf=10; Lg=60; OuterConductorThickness=0.2921; OuterDiameter=3.6; Wf=3; Wp=41.2; de=1.5; df=6.8; g=0.8; gx=4.66215; gy=3.8369; h=2.34; hf=1.524; px=12.2327; py=12.5811; w=9.7; wx=7.57052; wy=8.74418}
! Header version: 2018
! Port assignment regex: !\s*Touchstone port\s*([0-9]+)\s*=\s*(CST MWS port|CST DS port)\s*([0-9]+|Zmin|Zmax)\s*\(\"(.*)\"\)(\s*mode\s*([0-9]+))?.*
! Touchstone port assignment:
! Touchstone port 1 = CST MWS port 1 ("")
# GHz S DB R 50
4.5                    -0.382733         95.6425
4.52                   -0.392888         94.1973
4.54                   -0.403444         92.7381
4.56                   -0.414433         91.2651
4.58                   -0.425877         89.7782
4.6                    -0.437788         88.2776
4.62                   -0.450174         86.7631
4.64                   -0.463032         85.2349
4.66                    -0.47636         83.6927
4.68                   -0.490145         82.1366
4.7                    -0.504379         80.5663
4.72                   -0.519048         78.9819
4.74                   -0.534137         77.3829
4.76                   -0.549632         75.7694
4.78                   -0.565524         74.1409
4.8                    -0.581799         72.4973
4.82                   -0.598448         70.8383
4.84                   -0.615464         69.1635
4.86                   -0.632843         67.4727
4.88                   -0.650581         65.7657
4.9                    -0.668679          64.042
4.92                   -0.687139         62.3013
4.94                   -0.705964         60.5435
4.96                   -0.725163         58.7681
4.98                   -0.744742          56.975
5                      -0.764713         55.1639
5.02                   -0.785084         53.3345
5.04                   -0.805869         51.4866
5.06                    -0.82708           49.62
5.08                    -0.84873         47.7346
5.1                    -0.870831         45.8301
5.12                   -0.893395         43.9065
5.14                   -0.916434         41.9636
5.16                   -0.939961         40.0014
5.18                   -0.963982         38.0199
5.2                    -0.988509         36.0189
5.22                    -1.01355         33.9985
5.24                     -1.0391         31.9587
5.26                    -1.06518         29.8996
5.28                    -1.09178         27.8212
5.3                     -1.11889         25.7237
5.32                    -1.14653         23.6071
5.34                    -1.17469         21.4717
5.36                    -1.20335         19.3177
5.38                    -1.23251         17.1451
5.4                     -1.26216         14.9543
5.42                    -1.29228         12.7456
5.44                    -1.32287         10.5191
5.46                     -1.3539         8.27531
5.48                    -1.38535         6.01446
5.5                     -1.41721         3.73695
5.52                    -1.44946         1.44315
5.54                    -1.48207        -0.86652
5.56                    -1.51501        -3.19162
5.58                    -1.54826        -5.53168
5.6                      -1.5818        -7.88622
5.62                     -1.6156        -10.2547
5.64                    -1.64962        -12.6367
5.66                    -1.68385        -15.0315
5.68                    -1.71824        -17.4386
5.7                     -1.75278        -19.8574
5.72                    -1.78743        -22.2873
5.74                    -1.82217        -24.7276
5.76                    -1.85695        -27.1777
5.78                    -1.89176        -29.6369
5.8                     -1.92656        -32.1045
5.82                    -1.96132        -34.5799
5.84                    -1.99603        -37.0623
5.86                    -2.03063         -39.551
5.88                    -2.06511        -42.0454
5.9                     -2.09944        -44.5446
5.92                    -2.13359        -47.0481
5.94                    -2.16754         -49.555
5.96                    -2.20125        -52.0648
5.98                     -2.2347        -54.5767
6                       -2.26785        -57.0901
6.02                    -2.30069        -59.6044
6.04                    -2.33319         -62.119
6.06                    -2.36532        -64.6333
6.08                    -2.39705        -67.1469
6.1                     -2.42837        -69.6593
6.12                    -2.45924        -72.1702
6.14                    -2.48964        -74.6791
6.16                    -2.51955        -77.1858
6.18                    -2.54895        -79.6902
6.2                     -2.57782        -82.1922
6.22                    -2.60615        -84.6917
6.24                    -2.63393        -87.1889
6.26                    -2.66115         -89.684
6.28                    -2.68782        -92.1773
6.3                     -2.71394        -94.6692
6.32                    -2.73952        -97.1603
6.34                    -2.76461        -99.6514
6.36                    -2.78923        -102.143
6.38                    -2.81344        -104.637
6.4                     -2.83732        -107.133
6.42                    -2.86094        -109.633
6.44                    -2.88442        -112.138
6.46                    -2.90789         -114.65
6.48                    -2.93151        -117.171
6.5                     -2.95545        -119.701
