! TOUCHSTONE file generated by CST MICROWAVE STUDIO
! Date and time: Fri Oct 28 03:13:46 2022
! Project name: L.cst
! Parameters = {Di=1.27; Epsilon_r=1.56; InnerDiameter=1.27; Length=2; Lf=10; Lg=60; OuterConductorThickness=0.2921; OuterDiameter=3.6; Wf=3; Wp=41.2; de=1.5; df=6.8; g=0.8; gx=3.24155; gy=1.29365; h=2.34; hf=1.524; px=9.76507; py=9.0558; w=9.7; wx=6.52352; wy=7.76215}
! Header version: 2018
! Port assignment regex: !\s*Touchstone port\s*([0-9]+)\s*=\s*(CST MWS port|CST DS port)\s*([0-9]+|Zmin|Zmax)\s*\(\"(.*)\"\)(\s*mode\s*([0-9]+))?.*
! Touchstone port assignment:
! Touchstone port 1 = CST MWS port 1 ("")
# GHz S DB R 50
4.5                    -0.484962         77.8009
4.52                   -0.500801         76.0827
4.54                   -0.517993         74.3439
4.56                   -0.536418         72.5845
4.58                   -0.555946         70.8047
4.6                    -0.576444         69.0043
4.62                   -0.597784         67.1829
4.64                   -0.619846           65.34
4.66                   -0.642517         63.4747
4.68                   -0.665701         61.5864
4.7                    -0.689313          59.674
4.72                   -0.713286         57.7365
4.74                   -0.737569          55.773
4.76                   -0.762125         53.7824
4.78                    -0.78693         51.7635
4.8                    -0.811978         49.7154
4.82                   -0.837271         47.6369
4.84                   -0.862822         45.5272
4.86                   -0.888652         43.3854
4.88                   -0.914787         41.2106
4.9                     -0.94126         39.0021
4.92                   -0.968103         36.7593
4.94                   -0.995348         34.4815
4.96                    -1.02303         32.1684
4.98                    -1.05117         29.8196
5                       -1.07979         27.4348
5.02                    -1.10892         25.0138
5.04                    -1.13856         22.5566
5.06                    -1.16871         20.0633
5.08                    -1.19937         17.5339
5.1                     -1.23051         14.9687
5.12                    -1.26211         12.3681
5.14                    -1.29414         9.73237
5.16                    -1.32655         7.06211
5.18                    -1.35928          4.3579
5.2                     -1.39227         1.62044
5.22                    -1.42544        -1.14947
5.24                    -1.45872        -3.95096
5.26                    -1.49201        -6.78298
5.28                    -1.52523        -9.64461
5.3                     -1.55827        -12.5346
5.32                    -1.59104        -15.4518
5.34                    -1.62342        -18.3947
5.36                    -1.65532         -21.362
5.38                    -1.68663        -24.3521
5.4                     -1.71724        -27.3634
5.42                    -1.74706        -30.3943
5.44                    -1.77598         -33.443
5.46                    -1.80391        -36.5076
5.48                    -1.83077        -39.5863
5.5                     -1.85649        -42.6769
5.52                    -1.88099        -45.7776
5.54                    -1.90422        -48.8862
5.56                    -1.92613        -52.0005
5.58                    -1.94667        -55.1185
5.6                     -1.96583        -58.2379
5.62                    -1.98359        -61.3566
5.64                    -1.99994        -64.4723
5.66                    -2.01489        -67.5829
5.68                    -2.02846        -70.6861
5.7                     -2.04068        -73.7799
5.72                    -2.05157         -76.862
5.74                     -2.0612        -79.9305
5.76                     -2.0696        -82.9834
5.78                    -2.07683        -86.0186
5.8                     -2.08296        -89.0345
5.82                    -2.08805        -92.0291
5.84                    -2.09217        -95.0008
5.86                    -2.09538        -97.9481
5.88                    -2.09774        -100.869
5.9                     -2.09933        -103.763
5.92                    -2.10019        -106.629
5.94                    -2.10039        -109.464
5.96                    -2.09998        -112.269
5.98                    -2.09899        -115.043
6                       -2.09746        -117.784
6.02                    -2.09544        -120.493
6.04                    -2.09294        -123.168
6.06                    -2.08998         -125.81
6.08                    -2.08658        -128.418
6.1                     -2.08274        -130.992
6.12                    -2.07848        -133.534
6.14                    -2.07381        -136.042
6.16                    -2.06874        -138.518
6.18                    -2.06327        -140.962
6.2                     -2.05743        -143.375
6.22                    -2.05125        -145.757
6.24                    -2.04477        -148.111
6.26                    -2.03804        -150.437
6.28                    -2.03113        -152.736
6.3                     -2.02414         -155.01
6.32                    -2.01718         -157.26
6.34                    -2.01039        -159.487
6.36                    -2.00393        -161.692
6.38                    -1.99799        -163.878
6.4                     -1.99278        -166.044
6.42                    -1.98854        -168.192
6.44                    -1.98552        -170.322
6.46                      -1.984        -172.435
6.48                    -1.98428        -174.531
6.5                     -1.98664         -176.61
