! TOUCHSTONE file generated by CST MICROWAVE STUDIO
! Date and time: Thu Oct 27 04:07:33 2022
! Project name: L.cst
! Parameters = {Di=1.27; Epsilon_r=1.56; InnerDiameter=1.27; Length=2; Lf=10; Lg=60; OuterConductorThickness=0.2921; OuterDiameter=3.6; Wf=3; Wp=41.2; de=1.5; df=6.8; g=0.8; gx=2.41429; gy=1.21487; h=2.34; hf=1.524; px=8.23054; py=12.5352; w=9.7; wx=5.81626; wy=11.3204}
! Header version: 2018
! Port assignment regex: !\s*Touchstone port\s*([0-9]+)\s*=\s*(CST MWS port|CST DS port)\s*([0-9]+|Zmin|Zmax)\s*\(\"(.*)\"\)(\s*mode\s*([0-9]+))?.*
! Touchstone port assignment:
! Touchstone port 1 = CST MWS port 1 ("")
# GHz S DB R 50
4.5                    -0.536068           70.63
4.52                   -0.557886         68.9648
4.54                   -0.572383         67.2829
4.56                   -0.582688         65.5401
4.58                   -0.595507         63.7305
4.6                    -0.614652         61.8857
4.62                   -0.638113         60.0402
4.64                   -0.660655         58.1999
4.66                   -0.678911         56.3396
4.68                   -0.694143         54.4288
4.7                    -0.710518         52.4585
4.72                   -0.731027         50.4456
4.74                   -0.754973         48.4133
4.76                   -0.779039         46.3691
4.78                   -0.800544         44.2981
4.8                    -0.819766         42.1782
4.82                   -0.839367          39.999
4.84                   -0.861749         37.7688
4.86                   -0.886927         35.5035
4.88                    -0.91274         33.2104
4.9                    -0.936966         30.8809
4.92                   -0.959297         28.4979
4.94                   -0.981415           26.05
4.96                    -1.00528         23.5394
4.98                     -1.0313         20.9767
5                       -1.05808         18.3685
5.02                     -1.0837         15.7092
5.04                    -1.10747         12.9845
5.06                    -1.13038         10.1815
5.08                    -1.15407         7.29732
5.1                     -1.17928         4.33725
5.12                    -1.20522         1.30592
5.14                    -1.23034        -1.80105
5.16                     -1.2538        -4.99714
5.18                    -1.27625        -8.29734
5.2                      -1.2993        -11.7099
5.22                    -1.32425        -15.2345
5.24                    -1.35121        -18.8685
5.26                    -1.37937        -22.6147
5.28                    -1.40816        -26.4843
5.3                     -1.43818        -30.4915
5.32                    -1.47115        -34.6462
5.34                    -1.50884        -38.9499
5.36                    -1.55201        -43.3986
5.38                    -1.60017        -47.9913
5.4                     -1.65238        -52.7351
5.42                    -1.70846        -57.6448
5.44                    -1.76946        -62.7361
5.46                    -1.83719        -68.0197
5.48                    -1.91326        -73.5011
5.5                     -1.99849         -79.186
5.52                    -2.09335        -85.0873
5.54                     -2.1992        -91.2273
5.56                    -2.31945        -97.6329
5.58                    -2.45981        -104.327
5.6                     -2.62771        -111.323
5.62                    -2.83145        -118.623
5.64                    -3.08016        -126.222
5.66                    -3.38457        -134.112
5.68                    -3.75835        -142.274
5.7                     -4.21894        -150.664
5.72                    -4.78718        -159.199
5.74                    -5.48571        -167.738
5.76                     -6.3365        -176.065
5.78                    -7.35822          176.12
5.8                     -8.56257         169.224
5.82                    -9.94779         163.803
5.84                    -11.4819         160.617
5.86                    -13.0616         160.643
5.88                    -14.4375         164.739
5.9                     -15.1984         172.402
5.92                    -15.0587        -179.351
5.94                    -14.2043         -173.98
5.96                    -13.0528        -172.477
5.98                    -11.8862        -174.121
6                       -10.8138        -177.891
6.02                    -9.85409          176.96
6.04                    -8.99318         170.872
6.06                     -8.2134         164.063
6.08                    -7.50423         156.637
6.1                     -6.86252         148.662
6.12                    -6.28738         140.207
6.14                    -5.77459         131.341
6.16                    -5.31459         122.101
6.18                    -4.89491         112.463
6.2                      -4.5058         102.323
6.22                    -4.14594         91.5175
6.24                    -3.82489         79.8493
6.26                    -3.56162         67.1196
6.28                    -3.38051         53.1327
6.3                     -3.30711          37.684
6.32                    -3.36384          20.531
6.34                     -3.5639         1.36639
6.36                    -3.89949        -20.1954
6.38                    -4.32064        -44.5693
6.4                     -4.70975        -71.9854
6.42                    -4.88695        -102.018
6.44                    -4.70448        -133.181
6.46                    -4.18115        -163.407
6.48                    -3.49291         168.822
6.5                     -2.82853         144.048
