! TOUCHSTONE file generated by CST MICROWAVE STUDIO
! Date and time: Thu Oct 27 22:15:13 2022
! Project name: L.cst
! Parameters = {Di=1.27; Epsilon_r=1.56; InnerDiameter=1.27; Length=2; Lf=10; Lg=60; OuterConductorThickness=0.2921; OuterDiameter=3.6; Wf=3; Wp=41.2; de=1.5; df=6.8; g=0.8; gx=1.24012; gy=3.19924; h=2.34; hf=1.524; px=14.7808; py=8.80377; w=9.7; wx=13.5407; wy=5.60453}
! Header version: 2018
! Port assignment regex: !\s*Touchstone port\s*([0-9]+)\s*=\s*(CST MWS port|CST DS port)\s*([0-9]+|Zmin|Zmax)\s*\(\"(.*)\"\)(\s*mode\s*([0-9]+))?.*
! Touchstone port assignment:
! Touchstone port 1 = CST MWS port 1 ("")
# GHz S DB R 50
4.5                      -9.7762         97.3762
4.52                    -9.71055         100.598
4.54                    -9.51249          103.82
4.56                    -9.20801         106.012
4.58                    -8.90719         107.758
4.6                     -8.52781         108.938
4.62                    -8.17568         109.304
4.64                    -7.83206          109.46
4.66                    -7.48024         108.989
4.68                    -7.18595         108.183
4.7                     -6.89065         107.178
4.72                    -6.62926         105.717
4.74                    -6.40754         104.172
4.76                    -6.19004         102.359
4.78                     -6.0199         100.289
4.8                     -5.86836         98.1553
4.82                    -5.73717         95.7147
4.84                    -5.64989         93.1363
4.86                    -5.57525         90.3908
4.88                    -5.53951         87.3345
4.9                     -5.54215         84.1368
4.92                    -5.57072         80.6184
4.94                    -5.65847         76.7641
4.96                     -5.7932         72.6243
4.98                    -5.99084         67.9607
5                       -6.28442         62.8113
5.02                    -6.67423          57.033
5.04                    -7.21617         50.3424
5.06                     -7.9648         42.6588
5.08                    -8.98383         33.4782
5.1                     -10.4316         22.0977
5.12                    -12.4951         7.31832
5.14                    -15.4065        -14.6129
5.16                    -18.8247        -53.3236
5.18                    -19.0337        -109.414
5.2                     -16.0646        -147.234
5.22                    -13.7426        -166.979
5.24                    -12.3721        -175.591
5.26                    -10.9117        -174.492
5.28                    -8.12092        -172.305
5.3                     -4.95226         179.918
5.32                    -2.84355         165.796
5.34                     -1.7833         151.861
5.36                    -1.28834          140.33
5.38                     -1.0476         130.944
5.4                    -0.931628         123.148
5.42                   -0.869594         116.519
5.44                   -0.835348          110.65
5.46                   -0.825007         105.378
5.48                   -0.819387         100.542
5.5                    -0.826519         95.9544
5.52                    -0.84949         91.6018
5.54                   -0.897398         87.2988
5.56                    -1.05649         83.4934
5.58                    -1.06528         81.2002
5.6                     -0.91418         77.2828
5.62                   -0.900804         73.0064
5.64                    -0.91709          68.775
5.66                   -0.955035         64.3536
5.68                    -1.01367         59.7268
5.7                     -1.08217          54.608
5.72                    -1.19545          48.709
5.74                    -1.35966         41.6843
5.76                    -1.61808         32.4608
5.78                    -2.10702         19.2217
5.8                     -3.09082        -2.82096
5.82                    -5.19042        -49.0032
5.84                    -5.49871         -144.21
5.86                    -2.20552         143.922
5.88                   -0.934277         109.904
5.9                    -0.528038         91.4746
5.92                     -0.4062         79.6651
5.94                   -0.370686         71.4543
5.96                    -0.32578         64.8682
5.98                   -0.357954         59.2881
6                      -0.351027         54.8639
6.02                   -0.315255         49.9813
6.04                   -0.512002         45.4607
6.06                    -1.88202          47.714
6.08                   -0.359589         42.7268
6.1                    -0.292598         37.7737
6.12                   -0.390273         34.6523
6.14                   -0.324921         31.7451
6.16                   -0.347335          28.375
6.18                    -0.36963         25.7916
6.2                    -0.325058         22.8339
6.22                   -0.365305         19.9332
6.24                   -0.347317         17.4343
6.26                   -0.332139         14.4693
6.28                   -0.364963         11.8898
6.3                    -0.326579         9.29574
6.32                    -0.34196         6.42699
6.34                   -0.349042         4.02952
6.36                   -0.313874         1.27866
6.38                   -0.347861         -1.3878
6.4                    -0.323047        -3.77623
6.42                   -0.312683        -6.62617
6.44                    -0.34203        -9.05199
6.46                   -0.296601        -11.5944
6.48                   -0.320393        -14.3898
6.5                     -0.32038        -16.6542
