! TOUCHSTONE file generated by CST MICROWAVE STUDIO
! Date and time: Sat Oct 29 19:58:35 2022
! Project name: L.cst
! Parameters = {Di=1.27; Epsilon_r=1.56; InnerDiameter=1.27; Length=2; Lf=10; Lg=60; OuterConductorThickness=0.2921; OuterDiameter=3.6; Wf=3; Wp=41.2; de=1.5; df=6.8; g=0.8; gx=3.74766; gy=2.53288; h=2.34; hf=1.524; px=12.8512; py=8.34592; w=9.7; wx=9.10356; wy=5.81304}
! Header version: 2018
! Port assignment regex: !\s*Touchstone port\s*([0-9]+)\s*=\s*(CST MWS port|CST DS port)\s*([0-9]+|Zmin|Zmax)\s*\(\"(.*)\"\)(\s*mode\s*([0-9]+))?.*
! Touchstone port assignment:
! Touchstone port 1 = CST MWS port 1 ("")
# GHz S DB R 50
4.5                    -0.653429         83.7413
4.52                   -0.686508         81.9678
4.54                     -0.7209         80.1774
4.56                   -0.756416         78.3688
4.58                   -0.792902         76.5408
4.6                    -0.830242         74.6917
4.62                   -0.868356         72.8201
4.64                   -0.907199         70.9241
4.66                   -0.946759         69.0022
4.68                   -0.987056         67.0527
4.7                     -1.02813         65.0739
4.72                    -1.07006         63.0644
4.74                    -1.11292         61.0228
4.76                    -1.15682         58.9477
4.78                    -1.20187         56.8381
4.8                     -1.24818         54.6928
4.82                    -1.29588          52.511
4.84                    -1.34508         50.2919
4.86                     -1.3959         48.0349
4.88                    -1.44845         45.7395
4.9                     -1.50283         43.4052
4.92                    -1.55912         41.0317
4.94                    -1.61739          38.619
4.96                     -1.6777         36.1668
4.98                     -1.7401         33.6753
5                        -1.8046         31.1444
5.02                    -1.87122         28.5744
5.04                    -1.93994         25.9655
5.06                    -2.01073          23.318
5.08                    -2.08354         20.6322
5.1                     -2.15831         17.9086
5.12                    -2.23495         15.1478
5.14                    -2.31336         12.3502
5.16                    -2.39342         9.51658
5.18                    -2.47499         6.64761
5.2                     -2.55793         3.74412
5.22                    -2.64206        0.806978
5.24                    -2.72721        -2.16282
5.26                     -2.8132        -5.16412
5.28                    -2.89981        -8.19589
5.3                     -2.98684        -11.2568
5.32                    -3.07408        -14.3453
5.34                     -3.1613        -17.4601
5.36                    -3.24829        -20.5993
5.38                     -3.3348        -23.7613
5.4                     -3.42063        -26.9441
5.42                    -3.50555        -30.1456
5.44                    -3.58935        -33.3638
5.46                    -3.67182        -36.5963
5.48                    -3.75277        -39.8407
5.5                       -3.832        -43.0944
5.52                    -3.90936        -46.3548
5.54                    -3.98469        -49.6193
5.56                    -4.05786         -52.885
5.58                    -4.12874        -56.1489
5.6                     -4.19724        -59.4083
5.62                    -4.26328        -62.6602
5.64                    -4.32682        -65.9017
5.66                     -4.3878        -69.1298
5.68                    -4.44623        -72.3416
5.7                     -4.50208        -75.5343
5.72                     -4.5554         -78.705
5.74                    -4.60622        -81.8513
5.76                    -4.65457        -84.9704
5.78                    -4.70054        -88.0601
5.8                     -4.74418        -91.1179
5.82                    -4.78559        -94.1419
5.84                    -4.82485          -97.13
5.86                    -4.86206        -100.081
5.88                     -4.8973        -102.992
5.9                     -4.93067        -105.863
5.92                    -4.96228        -108.692
5.94                    -4.99222        -111.479
5.96                    -5.02058        -114.223
5.98                    -5.04745        -116.923
6                       -5.07294        -119.579
6.02                    -5.09713        -122.192
6.04                    -5.12013         -124.76
6.06                    -5.14202        -127.286
6.08                    -5.16292        -129.769
6.1                     -5.18295        -132.209
6.12                    -5.20221        -134.609
6.14                    -5.22086         -136.97
6.16                    -5.23905        -139.291
6.18                    -5.25696        -141.576
6.2                     -5.27479        -143.825
6.22                    -5.29276        -146.039
6.24                    -5.31114        -148.221
6.26                    -5.33021        -150.371
6.28                    -5.35028         -152.49
6.3                     -5.37171        -154.581
6.32                    -5.39488        -156.643
6.34                    -5.42019        -158.677
6.36                    -5.44809        -160.683
6.38                    -5.47901        -162.661
6.4                     -5.51343        -164.611
6.42                    -5.55183        -166.531
6.44                    -5.59466         -168.42
6.46                    -5.64238        -170.274
6.48                    -5.69539        -172.091
6.5                     -5.75405        -173.866
