! TOUCHSTONE file generated by CST MICROWAVE STUDIO
! Date and time: Thu Oct 27 07:19:43 2022
! Project name: L.cst
! Parameters = {Di=1.27; Epsilon_r=1.56; InnerDiameter=1.27; Length=2; Lf=10; Lg=60; OuterConductorThickness=0.2921; OuterDiameter=3.6; Wf=3; Wp=41.2; de=1.5; df=6.8; g=0.8; gx=2.48532; gy=3.015; h=2.34; hf=1.524; px=13.8468; py=10.9286; w=9.7; wx=11.3614; wy=7.91356}
! Header version: 2018
! Port assignment regex: !\s*Touchstone port\s*([0-9]+)\s*=\s*(CST MWS port|CST DS port)\s*([0-9]+|Zmin|Zmax)\s*\(\"(.*)\"\)(\s*mode\s*([0-9]+))?.*
! Touchstone port assignment:
! Touchstone port 1 = CST MWS port 1 ("")
# GHz S DB R 50
4.5                      -1.6577         73.9342
4.52                    -1.76727         71.8164
4.54                    -1.87542         69.8153
4.56                    -1.97779         67.6572
4.58                    -2.10807         65.4764
4.6                     -2.23231         63.3581
4.62                     -2.3611         61.0834
4.64                    -2.51379         58.8282
4.66                    -2.65997         56.5839
4.68                    -2.81911         54.2025
4.7                     -2.99759          51.865
4.72                    -3.17171         49.4951
4.74                    -3.36506         47.0163
4.76                    -3.57371         44.5899
4.78                    -3.78229         42.0995
4.8                     -4.01447         39.5344
4.82                    -4.25863         37.0197
4.84                    -4.50807         34.4201
4.86                    -4.78399         31.7801
4.88                    -5.06978         29.1812
4.9                     -5.36699          26.488
4.92                    -5.69221         23.7887
4.94                    -6.02619         21.1161
4.96                    -6.37798         18.3483
4.98                    -6.75835         15.6057
5                       -7.14764         12.8713
5.02                    -7.56138           10.05
5.04                    -8.00323         7.28155
5.06                    -8.45517         4.49787
5.08                    -8.93829          1.6413
5.1                     -9.44823        -1.14163
5.12                    -9.97086        -3.96987
5.14                    -10.5314        -6.85129
5.16                    -11.1162        -9.64902
5.18                    -11.7175         -12.535
5.2                      -12.363        -15.4573
5.22                    -13.0291        -18.3097
5.24                     -13.717        -21.3156
5.26                    -14.4538        -24.3526
5.28                    -15.2039        -27.3849
5.3                     -15.9816        -30.6947
5.32                    -16.8089        -34.0873
5.34                    -17.6358        -37.6562
5.36                    -18.4922        -41.7581
5.38                    -19.3844        -46.1503
5.4                     -20.2415        -51.1588
5.42                    -21.1035        -57.2518
5.44                    -21.9383        -64.1634
5.46                    -22.6268         -72.461
5.48                    -23.1852        -82.5568
5.5                     -23.5157        -93.7732
5.52                    -23.4639        -106.197
5.54                     -23.103        -119.474
5.56                    -22.4633        -132.261
5.58                    -21.5553        -144.524
5.6                     -20.5771        -156.425
5.62                    -19.6254        -167.421
5.64                     -18.702        -177.903
5.66                    -17.9296         171.757
5.68                    -17.3516         162.044
5.7                     -16.9219         152.803
5.72                    -16.7099         143.808
5.74                    -16.7329         135.643
5.76                     -16.921         128.222
5.78                    -17.3521         121.295
5.8                     -18.0674         115.686
5.82                    -19.0053         111.483
5.84                    -20.3459         108.903
5.86                    -22.1765         110.845
5.88                    -24.1956         120.314
5.9                     -25.6537         142.328
5.92                    -24.0274         169.968
5.94                    -20.7544        -177.133
5.96                    -17.6847        -173.344
5.98                    -14.9005         -175.26
6                       -12.6401         179.296
6.02                    -10.7157         173.058
6.04                     -8.8435         164.992
6.06                    -7.31046         153.712
6.08                    -6.43096         141.442
6.1                     -5.99461         131.142
6.12                     -5.5383         122.499
6.14                    -5.05154         113.036
6.16                    -4.81103         102.871
6.18                    -4.75754         93.3384
6.2                     -4.75358         83.7451
6.22                    -4.94785         73.5554
6.24                    -5.35901         63.7556
6.26                    -5.85669         53.6233
6.28                     -6.6887         41.8693
6.3                     -8.13092         29.4616
6.32                     -10.354          15.294
6.34                    -14.9788        -5.91851
6.36                    -30.8354         -108.26
6.38                    -14.2109         149.462
6.4                     -8.66129         126.159
6.42                    -5.78147         106.165
6.44                    -4.43341         87.6398
6.46                    -4.00604         73.8395
6.48                     -3.4888         63.1442
6.5                     -3.21507         50.1147
