! TOUCHSTONE file generated by CST MICROWAVE STUDIO
! Date and time: Fri Oct 28 08:32:47 2022
! Project name: L.cst
! Parameters = {Di=1.27; Epsilon_r=1.56; InnerDiameter=1.27; Length=2; Lf=10; Lg=60; OuterConductorThickness=0.2921; OuterDiameter=3.6; Wf=3; Wp=41.2; de=1.5; df=6.8; g=0.8; gx=4.95222; gy=2.29025; h=2.34; hf=1.524; px=8.59053; py=8.98075; w=9.7; wx=3.63831; wy=6.69051}
! Header version: 2018
! Port assignment regex: !\s*Touchstone port\s*([0-9]+)\s*=\s*(CST MWS port|CST DS port)\s*([0-9]+|Zmin|Zmax)\s*\(\"(.*)\"\)(\s*mode\s*([0-9]+))?.*
! Touchstone port assignment:
! Touchstone port 1 = CST MWS port 1 ("")
# GHz S DB R 50
4.5                    -0.286815          91.649
4.52                   -0.293735         90.2194
4.54                   -0.300831         88.7783
4.56                   -0.308115         87.3255
4.58                   -0.315592         85.8611
4.6                    -0.323266          84.385
4.62                   -0.331136         82.8971
4.64                   -0.339199         81.3972
4.66                   -0.347452         79.8854
4.68                   -0.355889         78.3615
4.7                    -0.364502         76.8254
4.72                   -0.373285         75.2769
4.74                   -0.382229          73.716
4.76                   -0.391329         72.1425
4.78                   -0.400577         70.5563
4.8                    -0.409967         68.9571
4.82                   -0.419492         67.3449
4.84                   -0.429149         65.7195
4.86                   -0.438933         64.0807
4.88                    -0.44884         62.4285
4.9                    -0.458868         60.7628
4.92                   -0.469017         59.0832
4.94                   -0.479283         57.3899
4.96                   -0.489668         55.6826
4.98                    -0.50017         53.9614
5                       -0.51079          52.226
5.02                   -0.521529         50.4765
5.04                   -0.532386         48.7128
5.06                   -0.543362          46.935
5.08                   -0.554458         45.1429
5.1                    -0.565672         43.3367
5.12                   -0.577004         41.5163
5.14                   -0.588453         39.6818
5.16                   -0.600018         37.8334
5.18                   -0.611695          35.971
5.2                    -0.623481         34.0947
5.22                   -0.635373         32.2049
5.24                   -0.647364         30.3015
5.26                    -0.65945         28.3848
5.28                   -0.671623         26.4549
5.3                    -0.683878         24.5121
5.32                   -0.696202         22.5566
5.34                   -0.708589         20.5887
5.36                   -0.721029         18.6086
5.38                    -0.73351         16.6167
5.4                    -0.746021         14.6132
5.42                   -0.758549         12.5985
5.44                   -0.771083          10.573
5.46                   -0.783608         8.53696
5.48                   -0.796111         6.49084
5.5                    -0.808579         4.43504
5.52                   -0.820997         2.36999
5.54                    -0.83335        0.296129
5.56                   -0.845624        -1.78608
5.58                   -0.857805        -3.87615
5.6                    -0.869877        -5.97359
5.62                   -0.881828         -8.0779
5.64                   -0.893641        -10.1885
5.66                   -0.905304         -12.305
5.68                   -0.916802        -14.4267
5.7                    -0.928123         -16.553
5.72                   -0.939252        -18.6835
5.74                   -0.950177        -20.8175
5.76                   -0.960886        -22.9543
5.78                   -0.971367        -25.0935
5.8                    -0.981608        -27.2345
5.82                   -0.991598        -29.3765
5.84                    -1.00132         -31.519
5.86                    -1.01078        -33.6613
5.88                    -1.01995        -35.8029
5.9                     -1.02882        -37.9431
5.92                     -1.0374        -40.0813
5.94                    -1.04565        -42.2169
5.96                    -1.05359        -44.3492
5.98                    -1.06119        -46.4778
6                       -1.06844         -48.602
6.02                    -1.07535        -50.7212
6.04                    -1.08189        -52.8349
6.06                    -1.08806        -54.9426
6.08                    -1.09384        -57.0437
6.1                     -1.09924        -59.1377
6.12                    -1.10424        -61.2243
6.14                    -1.10883        -63.3029
6.16                      -1.113        -65.3732
6.18                    -1.11675        -67.4348
6.2                     -1.12007        -69.4872
6.22                    -1.12296        -71.5303
6.24                    -1.12541        -73.5637
6.26                    -1.12742        -75.5871
6.28                      -1.129        -77.6005
6.3                     -1.13014        -79.6035
6.32                    -1.13086        -81.5961
6.34                    -1.13116        -83.5781
6.36                    -1.13106        -85.5494
6.38                    -1.13058          -87.51
6.4                     -1.12973        -89.4598
6.42                    -1.12855        -91.3987
6.44                    -1.12707        -93.3268
6.46                    -1.12533        -95.2439
6.48                    -1.12336        -97.1502
6.5                     -1.12121        -99.0455
