! TOUCHSTONE file generated by CST MICROWAVE STUDIO
! Date and time: Thu Oct 27 15:31:49 2022
! Project name: L.cst
! Parameters = {Di=1.27; Epsilon_r=1.56; InnerDiameter=1.27; Length=2; Lf=10; Lg=60; OuterConductorThickness=0.2921; OuterDiameter=3.6; Wf=3; Wp=41.2; de=1.5; df=6.8; g=0.8; gx=3.79157; gy=1.94234; h=2.34; hf=1.524; px=14.5543; py=13.1514; w=9.7; wx=10.7627; wy=11.2091}
! Header version: 2018
! Port assignment regex: !\s*Touchstone port\s*([0-9]+)\s*=\s*(CST MWS port|CST DS port)\s*([0-9]+|Zmin|Zmax)\s*\(\"(.*)\"\)(\s*mode\s*([0-9]+))?.*
! Touchstone port assignment:
! Touchstone port 1 = CST MWS port 1 ("")
# GHz S DB R 50
4.5                     -1.68334         68.8039
4.52                    -1.76981           66.49
4.54                    -1.88118         63.9125
4.56                     -2.0207         61.4304
4.58                    -2.14011         58.9335
4.6                     -2.27062         56.1714
4.62                    -2.43546         53.3985
4.64                    -2.59334         50.6544
4.66                    -2.75327         47.6731
4.68                    -2.94843         44.5841
4.7                     -3.15085         41.5261
4.72                    -3.35151         38.2731
4.74                    -3.58464         34.8314
4.76                     -3.8385         31.3855
4.78                    -4.09199         27.7855
4.8                     -4.37302          23.934
4.82                    -4.68604         20.0091
4.84                    -5.00456         15.9555
4.86                    -5.34452         11.6031
4.88                    -5.72369         7.07551
4.9                     -6.11719         2.41095
4.92                    -6.52502         -2.5914
4.94                    -6.97223        -7.90428
4.96                    -7.44178        -13.4174
4.98                    -7.91576        -19.3107
5                        -8.4162        -25.6779
5.02                    -8.93749        -32.3787
5.04                    -9.44443        -39.5045
5.06                     -9.9411        -47.2442
5.08                    -10.4314        -55.4692
5.1                     -10.8707        -64.0889
5.12                    -11.2346        -73.2502
5.14                    -11.5343        -82.8368
5.16                    -11.7438        -92.5187
5.18                    -11.8301        -102.238
5.2                     -11.8181        -111.937
5.22                      -11.73        -121.266
5.24                    -11.5527        -130.059
5.26                    -11.3077        -138.427
5.28                    -11.0405        -146.265
5.3                     -10.7508        -153.423
5.32                    -10.4352        -160.063
5.34                    -10.1278         -166.28
5.36                    -9.83629        -171.948
5.38                    -9.54064         -177.15
5.4                     -9.25583         177.938
5.42                    -8.99694         173.398
5.44                    -8.74161          169.24
5.46                    -8.48871         165.279
5.48                    -8.25807         161.528
5.5                     -8.03431         158.065
5.52                    -7.80525         154.735
5.54                    -7.59143         151.481
5.56                     -7.3883         148.417
5.58                    -7.17733         145.442
5.6                     -6.97574         142.446
5.62                    -6.79037         139.545
5.64                    -6.60066         136.712
5.66                    -6.41718         133.803
5.68                    -6.25675         130.913
5.7                      -6.1008         128.095
5.72                    -5.95037         125.204
5.74                    -5.82809         122.301
5.76                    -5.71872         119.519
5.78                    -5.60951         116.733
5.8                     -5.52173         113.941
5.82                     -5.4444          111.31
5.84                    -5.35111         108.732
5.86                    -5.25933         106.096
5.88                    -5.16808         103.557
5.9                      -5.0441         101.027
5.92                    -4.90106         98.2892
5.94                    -4.75262          95.449
5.96                    -4.56657         92.4554
5.98                    -4.35262         89.0049
6                       -4.14076           85.12
6.02                    -3.90963         80.7686
6.04                    -3.67301         75.5765
6.06                    -3.48672         69.4959
6.08                    -3.34742          62.587
6.1                     -3.25573         54.4328
6.12                    -3.27068         44.5836
6.14                    -3.45842         32.3936
6.16                    -4.03883         16.6525
6.18                    -5.50685        -2.79969
6.2                     -8.39053        -23.4246
6.22                     -12.642        -40.6179
6.24                     -16.694        -60.6322
6.26                    -18.3092        -116.804
6.28                    -14.7009         175.858
6.3                     -12.3404         131.592
6.32                    -13.9429         105.367
6.34                    -17.0338         126.842
6.36                     -11.871         144.234
6.38                    -8.75814         133.552
6.4                      -7.0751         126.184
6.42                    -5.04434         117.874
6.44                     -3.6285         103.703
6.46                    -3.17241         90.9164
6.48                    -2.49331         80.1183
6.5                     -1.90194         61.5212
