! TOUCHSTONE file generated by CST MICROWAVE STUDIO
! Date and time: Fri Oct 28 05:09:39 2022
! Project name: L.cst
! Parameters = {Di=1.27; Epsilon_r=1.56; InnerDiameter=1.27; Length=2; Lf=10; Lg=60; OuterConductorThickness=0.2921; OuterDiameter=3.6; Wf=3; Wp=41.2; de=1.5; df=6.8; g=0.8; gx=1.30317; gy=3.87845; h=2.34; hf=1.524; px=9.57187; py=8.42854; w=9.7; wx=8.2687; wy=4.5501}
! Header version: 2018
! Port assignment regex: !\s*Touchstone port\s*([0-9]+)\s*=\s*(CST MWS port|CST DS port)\s*([0-9]+|Zmin|Zmax)\s*\(\"(.*)\"\)(\s*mode\s*([0-9]+))?.*
! Touchstone port assignment:
! Touchstone port 1 = CST MWS port 1 ("")
# GHz S DB R 50
4.5                    -0.502292         90.6248
4.52                   -0.518814         89.1136
4.54                   -0.535962         87.5899
4.56                   -0.553739         86.0538
4.58                   -0.572139         84.5051
4.6                    -0.591161          82.944
4.62                   -0.610797         81.3701
4.64                   -0.631039         79.7836
4.66                   -0.651881         78.1843
4.68                   -0.673318         76.5719
4.7                    -0.695346         74.9463
4.72                   -0.717963         73.3074
4.74                    -0.74117         71.6548
4.76                   -0.764969         69.9886
4.78                   -0.789367         68.3084
4.8                    -0.814371         66.6141
4.82                   -0.839994         64.9054
4.84                   -0.866247         63.1822
4.86                   -0.893145         61.4444
4.88                   -0.920706         59.6918
4.9                    -0.948946         57.9243
4.92                   -0.977886         56.1418
4.94                    -1.00754         54.3442
4.96                    -1.03794         52.5314
4.98                     -1.0691         50.7035
5                       -1.10104         48.8604
5.02                    -1.13378         47.0023
5.04                    -1.16734          45.129
5.06                    -1.20173         43.2408
5.08                    -1.23698         41.3377
5.1                     -1.27309         39.4198
5.12                    -1.31009         37.4874
5.14                    -1.34798         35.5406
5.16                    -1.38677         33.5797
5.18                    -1.42647         31.6048
5.2                     -1.46709         29.6163
5.22                    -1.50863         27.6145
5.24                    -1.55109         25.5996
5.26                    -1.59446          23.572
5.28                    -1.63876         21.5321
5.3                     -1.68396         19.4803
5.32                    -1.73007         17.4169
5.34                    -1.77708         15.3424
5.36                    -1.82498         13.2574
5.38                    -1.87374         11.1621
5.4                     -1.92337         9.05724
5.42                    -1.97384         6.94325
5.44                    -2.02514         4.82068
5.46                    -2.07725         2.69011
5.48                    -2.13014        0.552138
5.5                     -2.18381        -1.59263
5.52                    -2.23822        -3.74356
5.54                    -2.29336            -5.9
5.56                     -2.3492        -8.06126
5.58                    -2.40571        -10.2267
5.6                     -2.46288        -12.3955
5.62                    -2.52067         -14.567
5.64                    -2.57907        -16.7404
5.66                    -2.63804         -18.915
5.68                    -2.69756          -21.09
5.7                     -2.75761        -23.2645
5.72                    -2.81814        -25.4378
5.74                    -2.87915        -27.6091
5.76                    -2.94059        -29.7773
5.78                    -3.00245        -31.9419
5.8                     -3.06469        -34.1018
5.82                    -3.12729        -36.2562
5.84                    -3.19021        -38.4043
5.86                    -3.25344        -40.5452
5.88                    -3.31693         -42.678
5.9                     -3.38066        -44.8018
5.92                    -3.44461        -46.9159
5.94                    -3.50874        -49.0193
5.96                    -3.57301        -51.1111
5.98                    -3.63742        -53.1907
6                       -3.70192        -55.2571
6.02                    -3.76649        -57.3096
6.04                     -3.8311        -59.3474
6.06                    -3.89572        -61.3697
6.08                    -3.96033        -63.3759
6.1                      -4.0249        -65.3652
6.12                    -4.08941        -67.3369
6.14                    -4.15385        -69.2905
6.16                    -4.21819        -71.2252
6.18                    -4.28242        -73.1405
6.2                     -4.34653        -75.0358
6.22                    -4.41051        -76.9105
6.24                    -4.47436        -78.7641
6.26                    -4.53809        -80.5959
6.28                    -4.60169        -82.4056
6.3                     -4.66519        -84.1925
6.32                    -4.72859        -85.9561
6.34                    -4.79192        -87.6958
6.36                     -4.8552        -89.4108
6.38                    -4.91845        -91.1006
6.4                      -4.9817        -92.7643
6.42                    -5.04498        -94.4011
6.44                    -5.10829          -96.01
6.46                    -5.17166        -97.5901
6.48                    -5.23509        -99.1402
6.5                     -5.29856        -100.659
