! TOUCHSTONE file generated by CST MICROWAVE STUDIO
! Date and time: Thu Oct 27 19:12:08 2022
! Project name: L.cst
! Parameters = {Di=1.27; Epsilon_r=1.56; InnerDiameter=1.27; Length=2; Lf=10; Lg=60; OuterConductorThickness=0.2921; OuterDiameter=3.6; Wf=3; Wp=41.2; de=1.5; df=6.8; g=0.8; gx=2.72729; gy=4.41387; h=2.34; hf=1.524; px=10.3563; py=11.9572; w=9.7; wx=7.62905; wy=7.54337}
! Header version: 2018
! Port assignment regex: !\s*Touchstone port\s*([0-9]+)\s*=\s*(CST MWS port|CST DS port)\s*([0-9]+|Zmin|Zmax)\s*\(\"(.*)\"\)(\s*mode\s*([0-9]+))?.*
! Touchstone port assignment:
! Touchstone port 1 = CST MWS port 1 ("")
# GHz S DB R 50
4.5                    -0.380127         95.4465
4.52                   -0.390736         94.0251
4.54                   -0.401631         92.5931
4.56                   -0.412823         91.1506
4.58                   -0.424322         89.6974
4.6                    -0.436132         88.2335
4.62                   -0.448254         86.7589
4.64                   -0.460693         85.2734
4.66                   -0.473445          83.777
4.68                   -0.486511         82.2696
4.7                    -0.499888         80.7511
4.72                   -0.513574         79.2214
4.74                   -0.527565         77.6804
4.76                   -0.541862          76.128
4.78                   -0.556463          74.564
4.8                    -0.571367         72.9884
4.82                   -0.586573         71.4009
4.84                   -0.602085         69.8016
4.86                     -0.6179         68.1903
4.88                   -0.634025         66.5669
4.9                     -0.65046         64.9312
4.92                   -0.667212         63.2833
4.94                   -0.684284         61.6229
4.96                    -0.70168         59.9501
4.98                   -0.719407         58.2648
5                       -0.73747          56.567
5.02                   -0.755875         54.8565
5.04                   -0.774627         53.1335
5.06                   -0.793732         51.3979
5.08                   -0.813196         49.6497
5.1                    -0.833023         47.8889
5.12                   -0.853218         46.1157
5.14                   -0.873785         44.3301
5.16                   -0.894727         42.5321
5.18                   -0.916046         40.7219
5.2                    -0.937743         38.8995
5.22                    -0.95982         37.0653
5.24                   -0.982276         35.2191
5.26                    -1.00511         33.3614
5.28                    -1.02832         31.4922
5.3                      -1.0519         29.6117
5.32                    -1.07585         27.7202
5.34                    -1.10017         25.8179
5.36                    -1.12484         23.9051
5.38                    -1.14986          21.982
5.4                     -1.17522         20.0489
5.42                    -1.20092         18.1062
5.44                    -1.22693         16.1541
5.46                    -1.25326         14.1931
5.48                    -1.27989         12.2233
5.5                     -1.30681         10.2453
5.52                      -1.334         8.25946
5.54                    -1.36146         6.26609
5.56                    -1.38916         4.26563
5.58                    -1.41709         2.25853
5.6                     -1.44524        0.245217
5.62                    -1.47358        -1.77384
5.64                    -1.50211        -3.79817
5.66                    -1.53081         -5.8273
5.68                    -1.55966        -7.86074
5.7                     -1.58863        -9.89797
5.72                    -1.61772        -11.9385
5.74                     -1.6469        -13.9818
5.76                    -1.67615        -16.0272
5.78                    -1.70545        -18.0744
5.8                     -1.73478        -20.1227
5.82                    -1.76413        -22.1717
5.84                    -1.79347        -24.2207
5.86                    -1.82277        -26.2692
5.88                    -1.85202        -28.3166
5.9                      -1.8812        -30.3624
5.92                    -1.91027        -32.4061
5.94                    -1.93922        -34.4471
5.96                    -1.96802        -36.4849
5.98                    -1.99665         -38.519
6                       -2.02508        -40.5488
6.02                    -2.05329        -42.5739
6.04                    -2.08125        -44.5938
6.06                    -2.10894        -46.6081
6.08                    -2.13633        -48.6164
6.1                      -2.1634        -50.6181
6.12                    -2.19012        -52.6131
6.14                    -2.21648        -54.6008
6.16                    -2.24244        -56.5811
6.18                      -2.268        -58.5536
6.2                     -2.29313         -60.518
6.22                    -2.31782        -62.4742
6.24                    -2.34206         -64.422
6.26                    -2.36584        -66.3612
6.28                    -2.38915        -68.2918
6.3                       -2.412        -70.2136
6.32                    -2.43439        -72.1266
6.34                    -2.45633        -74.0307
6.36                    -2.47783        -75.9261
6.38                    -2.49893        -77.8125
6.4                     -2.51964        -79.6902
6.42                    -2.54002        -81.5591
6.44                    -2.56009        -83.4193
6.46                    -2.57991        -85.2707
6.48                    -2.59953        -87.1134
6.5                     -2.61902        -88.9473
