! TOUCHSTONE file generated by CST MICROWAVE STUDIO
! Date and time: Fri Oct 28 12:04:35 2022
! Project name: L.cst
! Parameters = {Di=1.27; Epsilon_r=1.56; InnerDiameter=1.27; Length=2; Lf=10; Lg=60; OuterConductorThickness=0.2921; OuterDiameter=3.6; Wf=3; Wp=41.2; de=1.5; df=6.8; g=0.8; gx=3.98021; gy=4.98764; h=2.34; hf=1.524; px=13.7105; py=12.648; w=9.7; wx=9.73028; wy=7.66039}
! Header version: 2018
! Port assignment regex: !\s*Touchstone port\s*([0-9]+)\s*=\s*(CST MWS port|CST DS port)\s*([0-9]+|Zmin|Zmax)\s*\(\"(.*)\"\)(\s*mode\s*([0-9]+))?.*
! Touchstone port assignment:
! Touchstone port 1 = CST MWS port 1 ("")
# GHz S DB R 50
4.5                    -0.451183         96.3704
4.52                   -0.467848         94.9011
4.54                   -0.484819         93.4215
4.56                   -0.502089         91.9313
4.58                   -0.519659         90.4299
4.6                     -0.53754         88.9168
4.62                    -0.55575         87.3916
4.64                   -0.574313         85.8539
4.66                   -0.593259         84.3033
4.68                   -0.612623         82.7394
4.7                     -0.63244         81.1619
4.72                    -0.65275         79.5704
4.74                   -0.673592         77.9648
4.76                   -0.695009         76.3449
4.78                   -0.717041         74.7103
4.8                    -0.739728          73.061
4.82                   -0.763111         71.3968
4.84                   -0.787227         69.7176
4.86                   -0.812115         68.0232
4.88                   -0.837808         66.3136
4.9                    -0.864343         64.5888
4.92                   -0.891752         62.8487
4.94                   -0.920066         61.0932
4.96                   -0.949313         59.3223
4.98                   -0.979525         57.5359
5                       -1.01073         55.7342
5.02                    -1.04295         53.9171
5.04                    -1.07621         52.0845
5.06                    -1.11054         50.2366
5.08                    -1.14596         48.3733
5.1                     -1.18249         46.4946
5.12                    -1.22017         44.6007
5.14                    -1.25901         42.6915
5.16                    -1.29904         40.7671
5.18                    -1.34028         38.8277
5.2                     -1.38276         36.8732
5.22                    -1.42651         34.9038
5.24                    -1.47154         32.9197
5.26                     -1.5179         30.9209
5.28                    -1.56561         28.9077
5.3                     -1.61469         26.8801
5.32                    -1.66519         24.8384
5.34                    -1.71712         22.7828
5.36                    -1.77054         20.7137
5.38                    -1.82546         18.6311
5.4                     -1.88194         16.5356
5.42                       -1.94         14.4274
5.44                    -1.99968          12.307
5.46                    -2.06104         10.1747
5.48                     -2.1241         8.03103
5.5                     -2.18892         5.87649
5.52                    -2.25553         3.71165
5.54                    -2.32398         1.53711
5.56                    -2.39432       -0.646472
5.58                    -2.46659        -2.83838
5.6                     -2.54084        -5.03784
5.62                    -2.61711        -7.24402
5.64                    -2.69546        -9.45603
5.66                    -2.77592        -11.6729
5.68                    -2.85854        -13.8936
5.7                     -2.94335        -16.1171
5.72                     -3.0304        -18.3422
5.74                    -3.11972        -20.5675
5.76                    -3.21132        -22.7919
5.78                    -3.30525        -25.0139
5.8                      -3.4015         -27.232
5.82                    -3.50008        -29.4448
5.84                      -3.601        -31.6505
5.86                    -3.70422        -33.8475
5.88                    -3.80972         -36.034
5.9                     -3.91744        -38.2081
5.92                    -4.02732        -40.3681
5.94                    -4.13927        -42.5119
5.96                    -4.25317        -44.6376
5.98                    -4.36888        -46.7432
6                       -4.48624        -48.8268
6.02                    -4.60503        -50.8865
6.04                    -4.72503        -52.9204
6.06                    -4.84596        -54.9268
6.08                    -4.96751        -56.9041
6.1                     -5.08933        -58.8508
6.12                    -5.21104         -60.766
6.14                    -5.33221        -62.6487
6.16                    -5.45238        -64.4985
6.18                    -5.57109        -66.3155
6.2                     -5.68781        -68.1003
6.22                    -5.80203        -69.8539
6.24                    -5.91326        -71.5783
6.26                    -6.02098         -73.276
6.28                    -6.12475        -74.9503
6.3                     -6.22418        -76.6054
6.32                    -6.31895        -78.2462
6.34                    -6.40884        -79.8783
6.36                     -6.4938        -81.5081
6.38                    -6.57389        -83.1428
6.4                     -6.64939        -84.7899
6.42                    -6.72078        -86.4572
6.44                    -6.78873        -88.1529
6.46                     -6.8542        -89.8852
6.48                    -6.91835        -91.6619
6.5                     -6.98265        -93.4907
