! TOUCHSTONE file generated by CST MICROWAVE STUDIO
! Date and time: Sat Oct 29 23:26:16 2022
! Project name: L.cst
! Parameters = {Di=1.27; Epsilon_r=1.56; InnerDiameter=1.27; Length=2; Lf=10; Lg=60; OuterConductorThickness=0.2921; OuterDiameter=3.6; Wf=3; Wp=41.2; de=1.5; df=6.8; g=0.8; gx=2.75727; gy=4.54608; h=2.34; hf=1.524; px=12.0195; py=12.5945; w=9.7; wx=9.26225; wy=8.04838}
! Header version: 2018
! Port assignment regex: !\s*Touchstone port\s*([0-9]+)\s*=\s*(CST MWS port|CST DS port)\s*([0-9]+|Zmin|Zmax)\s*\(\"(.*)\"\)(\s*mode\s*([0-9]+))?.*
! Touchstone port assignment:
! Touchstone port 1 = CST MWS port 1 ("")
# GHz S DB R 50
4.5                    -0.489215         94.2996
4.52                   -0.504983         92.8246
4.54                     -0.5214         91.3374
4.56                   -0.538478         89.8379
4.58                   -0.556225         88.3261
4.6                    -0.574641         86.8022
4.62                   -0.593727         85.2661
4.64                   -0.613478         83.7176
4.66                   -0.633889         82.1568
4.68                   -0.654956         80.5834
4.7                    -0.676675         78.9974
4.72                   -0.699044         77.3985
4.74                   -0.722062         75.7866
4.76                   -0.745731         74.1615
4.78                   -0.770057         72.5229
4.8                    -0.795048         70.8705
4.82                   -0.820716         69.2043
4.84                   -0.847074         67.5239
4.86                   -0.874139         65.8291
4.88                   -0.901931         64.1198
4.9                    -0.930474         62.3956
4.92                   -0.959792         60.6565
4.94                   -0.989909         58.9023
4.96                    -1.02086         57.1328
4.98                    -1.05267          55.348
5                       -1.08536         53.5476
5.02                    -1.11898         51.7317
5.04                    -1.15355         49.9001
5.06                    -1.18911          48.053
5.08                    -1.22569         46.1902
5.1                     -1.26331         44.3117
5.12                    -1.30201         42.4178
5.14                    -1.34182         40.5083
5.16                    -1.38276         38.5836
5.18                    -1.42487         36.6435
5.2                     -1.46817         34.6884
5.22                    -1.51268         32.7184
5.24                    -1.55843         30.7338
5.26                    -1.60543         28.7347
5.28                    -1.65371         26.7213
5.3                     -1.70328         24.6941
5.32                    -1.75416         22.6533
5.34                    -1.80637         20.5992
5.36                    -1.85991         18.5322
5.38                    -1.91479         16.4527
5.4                     -1.97103          14.361
5.42                    -2.02863         12.2576
5.44                     -2.0876          10.143
5.46                    -2.14794         8.01764
5.48                    -2.20965         5.88202
5.5                     -2.27273         3.73667
5.52                    -2.33719         1.58216
5.54                    -2.40302       -0.580932
5.56                    -2.47022        -2.75199
5.58                    -2.53877        -4.93037
5.6                     -2.60869         -7.1154
5.62                    -2.67995        -9.30639
5.64                    -2.75254        -11.5026
5.66                    -2.82647        -13.7033
5.68                     -2.9017        -15.9077
5.7                     -2.97823         -18.115
5.72                    -3.05605        -20.3243
5.74                    -3.13512        -22.5348
5.76                    -3.21543        -24.7455
5.78                    -3.29695        -26.9556
5.8                     -3.37967        -29.1641
5.82                    -3.46353          -31.37
5.84                    -3.54852        -33.5724
5.86                    -3.63459        -35.7701
5.88                     -3.7217        -37.9623
5.9                     -3.80981        -40.1479
5.92                    -3.89884        -42.3257
5.94                    -3.98876        -44.4948
5.96                     -4.0795        -46.6542
5.98                    -4.17098        -48.8026
6                       -4.26312        -50.9392
6.02                    -4.35584         -53.063
6.04                    -4.44905        -55.1728
6.06                    -4.54264        -57.2679
6.08                    -4.63652        -59.3473
6.1                     -4.73055        -61.4103
6.12                    -4.82461         -63.456
6.14                    -4.91859        -65.4838
6.16                    -5.01233        -67.4931
6.18                     -5.1057        -69.4836
6.2                     -5.19854         -71.455
6.22                    -5.29072        -73.4069
6.24                    -5.38208        -75.3396
6.26                    -5.47248         -77.253
6.28                    -5.56177        -79.1476
6.3                     -5.64982         -81.024
6.32                    -5.73652        -82.8829
6.34                    -5.82175        -84.7252
6.36                    -5.90545        -86.5522
6.38                    -5.98754        -88.3651
6.4                     -6.06802        -90.1655
6.42                    -6.14689        -91.9553
6.44                     -6.2242        -93.7364
6.46                    -6.30006        -95.5107
6.48                    -6.37463        -97.2805
6.5                     -6.44811        -99.0481
