! TOUCHSTONE file generated by CST MICROWAVE STUDIO
! Date and time: Thu Oct 27 17:26:54 2022
! Project name: L.cst
! Parameters = {Di=1.27; Epsilon_r=1.56; InnerDiameter=1.27; Length=2; Lf=10; Lg=60; OuterConductorThickness=0.2921; OuterDiameter=3.6; Wf=3; Wp=41.2; de=1.5; df=6.8; g=0.8; gx=0.610228; gy=2.23591; h=2.34; hf=1.524; px=10.0167; py=9.60232; w=9.7; wx=9.40649; wy=7.36641}
! Header version: 2018
! Port assignment regex: !\s*Touchstone port\s*([0-9]+)\s*=\s*(CST MWS port|CST DS port)\s*([0-9]+|Zmin|Zmax)\s*\(\"(.*)\"\)(\s*mode\s*([0-9]+))?.*
! Touchstone port assignment:
! Touchstone port 1 = CST MWS port 1 ("")
# GHz S DB R 50
4.5                     -1.89791         67.9062
4.52                    -2.02542          66.035
4.54                    -2.15185         64.1712
4.56                     -2.2769         62.2957
4.58                     -2.4013         60.3906
4.6                     -2.52664         58.4412
4.62                    -2.65513         56.4375
4.64                    -2.78925         54.3747
4.66                    -2.93152         52.2533
4.68                    -3.08423         50.0783
4.7                     -3.24931         47.8583
4.72                    -3.42818         45.6044
4.74                     -3.6217         43.3289
4.76                    -3.83026          41.044
4.78                    -4.05374         38.7612
4.8                      -4.2917         36.4899
4.82                    -4.54342         34.2378
4.84                    -4.80809         32.0096
4.86                    -5.08492         29.8076
4.88                     -5.3733          27.632
4.9                     -5.67288          25.481
4.92                     -5.9837         23.3522
4.94                     -6.3062         21.2429
4.96                    -6.64123         19.1515
4.98                    -6.99003         17.0781
5                       -7.35413         15.0256
5.02                    -7.73525         13.0005
5.04                    -8.13515         11.0129
5.06                    -8.55553         9.07721
5.08                    -8.99781         7.21221
5.1                     -9.46301         5.44069
5.12                    -9.95159         3.78936
5.14                    -10.4633         2.28829
5.16                     -10.997        0.970219
5.18                    -11.5505       -0.130312
5.2                     -12.1204       -0.978229
5.22                    -12.7021        -1.53945
5.24                    -13.2896        -1.78277
5.26                    -13.8754        -1.68215
5.28                    -14.4507        -1.21912
5.3                     -15.0057       -0.385372
5.32                    -15.5294        0.814878
5.34                    -16.0107         2.36286
5.36                    -16.4381          4.2238
5.38                    -16.8011         6.34614
5.4                     -17.0899         8.66142
5.42                     -17.297         11.0853
5.44                    -17.4173         13.5198
5.46                    -17.4491         15.8582
5.48                    -17.3947         17.9913
5.5                     -17.2602         19.8162
5.52                    -17.0554         21.2447
5.54                    -16.7925         22.2098
5.56                    -16.4849         22.6691
5.58                    -16.1464         22.6048
5.6                     -15.7895         22.0204
5.62                    -15.4251         20.9362
5.64                    -15.0619         19.3845
5.66                    -14.7066         17.4048
5.68                    -14.3636         15.0398
5.7                     -14.0357         12.3326
5.72                    -13.7236         9.32446
5.74                    -13.4267         6.05289
5.76                    -13.1432         2.55071
5.78                    -12.8702        -1.15541
5.8                     -12.6044        -5.04523
5.82                    -12.3415        -9.10573
5.84                    -12.0776        -13.3313
5.86                    -11.8085        -17.7235
5.88                    -11.5308        -22.2904
5.9                     -11.2416        -27.0455
5.92                    -10.9391        -32.0062
5.94                    -10.6226        -37.1914
5.96                    -10.2925        -42.6203
5.98                    -9.95031        -48.3097
6                       -9.59861        -54.2735
6.02                    -9.24062        -60.5207
6.04                    -8.88017        -67.0561
6.06                    -8.52144        -73.8796
6.08                    -8.16878        -80.9872
6.1                     -7.82658        -88.3715
6.12                    -7.49918        -96.0229
6.14                    -7.19078         -103.93
6.16                    -6.90545        -112.081
6.18                    -6.64711        -120.463
6.2                      -6.4195        -129.066
6.22                    -6.22627        -137.877
6.24                    -6.07096        -146.888
6.26                    -5.95701        -156.091
6.28                    -5.88783        -165.478
6.3                     -5.86682        -175.044
6.32                    -5.89739         175.214
6.34                      -5.983         165.299
6.36                    -6.12721         155.212
6.38                    -6.33375         144.952
6.4                     -6.60655          134.52
6.42                    -6.94986         123.913
6.44                    -7.36841         113.132
6.46                    -7.86751         102.178
6.48                    -8.45339         91.0596
6.5                      -9.1336         79.7901
