! TOUCHSTONE file generated by CST MICROWAVE STUDIO
! Date and time: Sat Oct 29 10:04:41 2022
! Project name: L.cst
! Parameters = {Di=1.27; Epsilon_r=1.56; InnerDiameter=1.27; Length=2; Lf=10; Lg=60; OuterConductorThickness=0.2921; OuterDiameter=3.6; Wf=3; Wp=41.2; de=1.5; df=6.8; g=0.8; gx=3.75068; gy=2.11293; h=2.34; hf=1.524; px=11.2541; py=11.0079; w=9.7; wx=7.50347; wy=8.89495}
! Header version: 2018
! Port assignment regex: !\s*Touchstone port\s*([0-9]+)\s*=\s*(CST MWS port|CST DS port)\s*([0-9]+|Zmin|Zmax)\s*\(\"(.*)\"\)(\s*mode\s*([0-9]+))?.*
! Touchstone port assignment:
! Touchstone port 1 = CST MWS port 1 ("")
# GHz S DB R 50
4.5                    -0.509004         83.3948
4.52                   -0.522766         81.7049
4.54                   -0.538673         79.9911
4.56                   -0.556631         78.2546
4.58                   -0.576512         76.4964
4.6                    -0.598157         74.7172
4.62                   -0.621396         72.9172
4.64                   -0.646048         71.0964
4.66                   -0.671938         69.2547
4.68                   -0.698896         67.3912
4.7                    -0.726765         65.5054
4.72                   -0.755406          63.596
4.74                     -0.7847         61.6621
4.76                   -0.814548         59.7023
4.78                   -0.844876         57.7151
4.8                    -0.875631         55.6992
4.82                   -0.906782          53.653
4.84                    -0.93832         51.5751
4.86                   -0.970254         49.4641
4.88                    -1.00261         47.3184
4.9                     -1.03542         45.1368
4.92                    -1.06874          42.918
4.94                    -1.10263         40.6608
4.96                    -1.13714         38.3641
4.98                    -1.17235          36.027
5                       -1.20832         33.6486
5.02                    -1.24511         31.2281
5.04                    -1.28278          28.765
5.06                    -1.32138         26.2586
5.08                    -1.36094         23.7087
5.1                      -1.4015         21.1149
5.12                    -1.44308          18.477
5.14                    -1.48567          15.795
5.16                    -1.52927         13.0689
5.18                    -1.57386         10.2988
5.2                     -1.61938          7.4851
5.22                    -1.66578         4.62805
5.24                      -1.713         1.72812
5.26                    -1.76095        -1.21402
5.28                    -1.80953        -4.19782
5.3                     -1.85862        -7.22242
5.32                     -1.9081        -10.2869
5.34                    -1.95784        -13.3902
5.36                    -2.00769        -16.5312
5.38                    -2.05749        -19.7086
5.4                     -2.10709         -22.921
5.42                    -2.15633        -26.1669
5.44                    -2.20502        -29.4445
5.46                    -2.25302         -32.752
5.48                    -2.30015        -36.0876
5.5                     -2.34625        -39.4491
5.52                    -2.39116        -42.8344
5.54                    -2.43475        -46.2411
5.56                    -2.47687        -49.6669
5.58                    -2.51741        -53.1091
5.6                     -2.55624        -56.5651
5.62                    -2.59328        -60.0323
5.64                    -2.62845        -63.5078
5.66                    -2.66168        -66.9888
5.68                    -2.69294        -70.4725
5.7                     -2.72221        -73.9559
5.72                    -2.74947        -77.4363
5.74                    -2.77473        -80.9106
5.76                    -2.79804         -84.376
5.78                    -2.81942        -87.8299
5.8                     -2.83894        -91.2694
5.82                    -2.85667         -94.692
5.84                    -2.87268        -98.0951
5.86                    -2.88706        -101.476
5.88                    -2.89991        -104.833
5.9                     -2.91132        -108.164
5.92                    -2.92138        -111.467
5.94                     -2.9302         -114.74
5.96                    -2.93786        -117.981
5.98                    -2.94444        -121.189
6                       -2.95003        -124.362
6.02                     -2.9547        -127.501
6.04                     -2.9585        -130.604
6.06                     -2.9615         -133.67
6.08                    -2.96374        -136.699
6.1                     -2.96524        -139.691
6.12                    -2.96605        -142.647
6.14                    -2.96618        -145.566
6.16                    -2.96566        -148.449
6.18                    -2.96451        -151.298
6.2                     -2.96276        -154.113
6.22                    -2.96044        -156.895
6.24                    -2.95761        -159.647
6.26                    -2.95432         -162.37
6.28                    -2.95068        -165.066
6.3                     -2.94681        -167.737
6.32                    -2.94284        -170.385
6.34                    -2.93898        -173.013
6.36                    -2.93546        -175.624
6.38                    -2.93256        -178.218
6.4                      -2.9306         179.201
6.42                    -2.92996         176.631
6.44                    -2.93106         174.071
6.46                     -2.9344         171.519
6.48                    -2.94048         168.975
6.5                     -2.94988         166.436
