! TOUCHSTONE file generated by CST MICROWAVE STUDIO
! Date and time: Fri Oct 28 03:39:58 2022
! Project name: L.cst
! Parameters = {Di=1.27; Epsilon_r=1.56; InnerDiameter=1.27; Length=2; Lf=10; Lg=60; OuterConductorThickness=0.2921; OuterDiameter=3.6; Wf=3; Wp=41.2; de=1.5; df=6.8; g=0.8; gx=3.16318; gy=3.51113; h=2.34; hf=1.524; px=10.6814; py=9.39872; w=9.7; wx=7.51823; wy=5.88759}
! Header version: 2018
! Port assignment regex: !\s*Touchstone port\s*([0-9]+)\s*=\s*(CST MWS port|CST DS port)\s*([0-9]+|Zmin|Zmax)\s*\(\"(.*)\"\)(\s*mode\s*([0-9]+))?.*
! Touchstone port assignment:
! Touchstone port 1 = CST MWS port 1 ("")
# GHz S DB R 50
4.5                    -0.401601         92.7164
4.52                   -0.413208         91.2457
4.54                   -0.425226         89.7624
4.56                   -0.437664         88.2663
4.58                   -0.450523         86.7574
4.6                    -0.463804         85.2358
4.62                     -0.4775         83.7013
4.64                   -0.491607         82.1539
4.66                   -0.506115         80.5935
4.68                   -0.521015         79.0199
4.7                    -0.536298          77.433
4.72                   -0.551954         75.8326
4.74                   -0.567977         74.2185
4.76                   -0.584358         72.5907
4.78                   -0.601094         70.9487
4.8                    -0.618181         69.2925
4.82                   -0.635617         67.6219
4.84                     -0.6534         65.9367
4.86                   -0.671535         64.2367
4.88                   -0.690022         62.5217
4.9                    -0.708867         60.7915
4.92                   -0.728076         59.0461
4.94                   -0.747652         57.2853
4.96                   -0.767605         55.5089
4.98                   -0.787941         53.7169
5                      -0.808668         51.9093
5.02                   -0.829793         50.0859
5.04                   -0.851322         48.2469
5.06                   -0.873262          46.392
5.08                   -0.895619         44.5215
5.1                    -0.918396         42.6353
5.12                   -0.941596         40.7336
5.14                   -0.965223         38.8164
5.16                   -0.989276         36.8839
5.18                    -1.01375         34.9362
5.2                     -1.03865         32.9736
5.22                    -1.06397         30.9961
5.24                    -1.08969         29.0042
5.26                    -1.11582         26.9979
5.28                    -1.14233         24.9777
5.3                     -1.16923         22.9438
5.32                    -1.19649         20.8965
5.34                    -1.22411         18.8363
5.36                    -1.25205         16.7634
5.38                    -1.28032         14.6783
5.4                     -1.30887         12.5815
5.42                     -1.3377         10.4734
5.44                    -1.36678         8.35436
5.46                    -1.39609         6.22502
5.48                     -1.4256         4.08587
5.5                     -1.45528         1.93743
5.52                    -1.48512       -0.219727
5.54                    -1.51508        -2.38501
5.56                    -1.54514        -4.55781
5.58                    -1.57526        -6.73751
5.6                     -1.60543        -8.92346
5.62                    -1.63561         -11.115
5.64                    -1.66577        -13.3114
5.66                    -1.69589        -15.5121
5.68                    -1.72593        -17.7162
5.7                     -1.75588        -19.9232
5.72                    -1.78569        -22.1321
5.74                    -1.81535        -24.3424
5.76                    -1.84483        -26.5531
5.78                    -1.87409        -28.7636
5.8                     -1.90312        -30.9732
5.82                    -1.93189        -33.1809
5.84                    -1.96036        -35.3861
5.86                    -1.98852         -37.588
5.88                    -2.01633        -39.7858
5.9                     -2.04378        -41.9788
5.92                    -2.07084        -44.1662
5.94                    -2.09748        -46.3472
5.96                    -2.12368        -48.5212
5.98                    -2.14942        -50.6875
6                       -2.17466        -52.8454
6.02                    -2.19939        -54.9941
6.04                    -2.22358        -57.1333
6.06                    -2.24722        -59.2621
6.08                    -2.27027        -61.3801
6.1                     -2.29273        -63.4867
6.12                    -2.31456        -65.5816
6.14                    -2.33576        -67.6641
6.16                    -2.35631        -69.7341
6.18                    -2.37619         -71.791
6.2                     -2.39539        -73.8346
6.22                    -2.41391        -75.8647
6.24                    -2.43174         -77.881
6.26                    -2.44889        -79.8833
6.28                    -2.46537        -81.8717
6.3                     -2.48117        -83.8459
6.32                    -2.49633        -85.8059
6.34                    -2.51087        -87.7518
6.36                    -2.52481        -89.6835
6.38                     -2.5382         -91.601
6.4                     -2.55108        -93.5043
6.42                    -2.56352        -95.3936
6.44                    -2.57556        -97.2688
6.46                    -2.58727        -99.1299
6.48                    -2.59874        -100.977
6.5                     -2.61003         -102.81
