! TOUCHSTONE file generated by CST MICROWAVE STUDIO
! Date and time: Sat Oct 29 13:51:00 2022
! Project name: L.cst
! Parameters = {Di=1.27; Epsilon_r=1.56; InnerDiameter=1.27; Length=2; Lf=10; Lg=60; OuterConductorThickness=0.2921; OuterDiameter=3.6; Wf=3; Wp=41.2; de=1.5; df=6.8; g=0.8; gx=4.44634; gy=4.2729; h=2.34; hf=1.524; px=11.6828; py=14.8615; w=9.7; wx=7.2365; wy=10.5886}
! Header version: 2018
! Port assignment regex: !\s*Touchstone port\s*([0-9]+)\s*=\s*(CST MWS port|CST DS port)\s*([0-9]+|Zmin|Zmax)\s*\(\"(.*)\"\)(\s*mode\s*([0-9]+))?.*
! Touchstone port assignment:
! Touchstone port 1 = CST MWS port 1 ("")
# GHz S DB R 50
4.5                    -0.384166         96.1376
4.52                   -0.389929         94.8738
4.54                    -0.37862         93.4649
4.56                   -0.380107         91.9057
4.58                   -0.404043         90.3658
4.6                    -0.430867         88.9528
4.62                    -0.44021         87.5854
4.64                   -0.436767         86.1206
4.66                   -0.441033         84.5422
4.68                    -0.46139         82.9639
4.7                    -0.485165         81.4698
4.72                   -0.497125         80.0111
4.74                   -0.499136         78.4835
4.76                    -0.50582         76.8658
4.78                   -0.524528         75.2368
4.8                    -0.546842         73.6645
4.82                     -0.5609         72.1199
4.84                   -0.566918         70.5237
4.86                    -0.57576         68.8522
4.88                   -0.594021         67.1623
4.9                    -0.616007         65.5109
4.92                   -0.632062         63.8821
4.94                   -0.641329         62.2128
4.96                   -0.652168         60.4779
4.98                   -0.670674         58.7192
5                      -0.692997         56.9866
5.02                   -0.710982         55.2728
5.04                   -0.723013          53.526
5.06                   -0.735736         51.7198
5.08                   -0.754942         49.8857
5.1                    -0.778087         48.0689
5.12                   -0.797995         46.2685
5.14                   -0.812429         44.4404
5.16                    -0.82684         42.5564
5.18                   -0.846931         40.6405
5.2                    -0.871178         38.7354
5.22                   -0.893015         36.8456
5.24                   -0.909603         34.9321
5.26                    -0.92552         32.9642
5.28                   -0.946602         30.9599
5.3                    -0.972212         28.9612
5.32                   -0.996125         26.9779
5.34                     -1.0148         24.9745
5.36                    -1.03213         22.9167
5.38                    -1.05431          20.817
5.4                     -1.08159         18.7182
5.42                    -1.10789         16.6362
5.44                    -1.12879         14.5377
5.46                    -1.14759         12.3832
5.48                    -1.17109         10.1796
5.5                     -1.20064         7.97199
5.52                    -1.23007         5.78388
5.54                    -1.25381         3.58386
5.56                    -1.27449         1.32479
5.58                    -1.29992       -0.993401
5.6                     -1.33281        -3.32149
5.62                    -1.36682         -5.6254
5.64                    -1.39463        -7.93475
5.66                    -1.41803        -10.3082
5.68                    -1.44629        -12.7559
5.7                     -1.48419        -15.2225
5.72                    -1.52512        -17.6585
5.74                    -1.55915        -20.0906
5.76                     -1.5867        -22.5953
5.78                    -1.61928        -25.1993
5.8                     -1.66501        -27.8392
5.82                    -1.71708        -30.4412
5.84                    -1.76157        -33.0265
5.86                    -1.79644        -35.6998
5.88                    -1.83675        -38.5182
5.9                     -1.89661        -41.4084
5.92                     -1.9698        -44.2559
5.94                    -2.03591        -47.0682
5.96                    -2.08826        -49.9985
5.98                    -2.14809        -53.1638
6                       -2.24174         -56.482
6.02                    -2.36674        -59.7627
6.04                    -2.49205        -62.9765
6.06                    -2.60174         -66.367
6.08                    -2.73093         -70.191
6.1                     -2.93883        -74.3696
6.12                    -3.24407        -78.5356
6.14                     -3.6045        -82.5168
6.16                    -3.99566        -86.7359
6.18                    -4.53078        -91.7977
6.2                     -5.47576        -97.3321
6.22                    -7.11798        -100.747
6.24                    -9.33454        -95.6623
6.26                    -10.2051        -77.2024
6.28                    -8.23524        -64.0099
6.3                     -5.99224        -65.6337
6.32                    -4.67187        -74.2506
6.34                    -4.24229        -84.3833
6.36                    -4.40704        -93.3085
6.38                    -4.78924        -100.541
6.4                     -5.20255        -107.963
6.42                    -5.95222        -117.774
6.44                    -7.78009        -129.696
6.46                    -12.0638        -138.285
6.48                    -20.1504        -93.8274
6.5                      -11.609        -44.7125
