! TOUCHSTONE file generated by CST MICROWAVE STUDIO
! Date and time: Thu Oct 27 18:54:58 2022
! Project name: L.cst
! Parameters = {Di=1.27; Epsilon_r=1.56; InnerDiameter=1.27; Length=2; Lf=10; Lg=60; OuterConductorThickness=0.2921; OuterDiameter=3.6; Wf=3; Wp=41.2; de=1.5; df=6.8; g=0.8; gx=1.5701; gy=4.95772; h=2.34; hf=1.524; px=12.933; py=14.4524; w=9.7; wx=11.3629; wy=9.49471}
! Header version: 2018
! Port assignment regex: !\s*Touchstone port\s*([0-9]+)\s*=\s*(CST MWS port|CST DS port)\s*([0-9]+|Zmin|Zmax)\s*\(\"(.*)\"\)(\s*mode\s*([0-9]+))?.*
! Touchstone port assignment:
! Touchstone port 1 = CST MWS port 1 ("")
# GHz S DB R 50
4.5                     -1.00293         91.2266
4.52                    -1.05111         89.8158
4.54                    -1.08519         88.1867
4.56                    -1.15451          86.565
4.58                    -1.20802          85.096
4.6                     -1.25371         83.4416
4.62                    -1.32841         81.8106
4.64                      -1.389         80.2925
4.66                    -1.44636         78.6168
4.68                    -1.52798         76.9756
4.7                     -1.59711         75.4188
4.72                    -1.66634         73.7277
4.74                    -1.75625         72.0789
4.76                     -1.8352         70.4942
4.78                    -1.91677         68.7952
4.8                     -2.01627         67.1457
4.82                     -2.1061         65.5465
4.84                     -2.2004          63.851
4.86                    -2.31037         62.2117
4.88                    -2.41166         60.6136
4.9                      -2.5188         58.9357
4.92                    -2.63962         57.3216
4.94                     -2.7523         55.7435
4.96                    -2.87165         54.1006
4.98                    -3.00266         52.5296
5                        -3.1255          50.991
5.02                    -3.25531         49.4007
5.04                    -3.39456           47.89
5.06                    -3.52498          46.408
5.08                    -3.66208         44.8845
5.1                     -3.80603         43.4454
5.12                    -3.93995         42.0281
5.14                    -4.07987         40.5741
5.16                    -4.22378         39.2042
5.18                    -4.35615         37.8423
5.2                     -4.49389         36.4402
5.22                    -4.63292         35.1135
5.24                    -4.75935         33.7708
5.26                    -4.89136         32.3736
5.28                    -5.02324         31.0322
5.3                     -5.14318         29.6393
5.32                    -5.27123         28.1673
5.34                    -5.40054          26.722
5.36                    -5.52211         25.1813
5.38                    -5.65874         23.5309
5.4                     -5.80327          21.876
5.42                    -5.95047         20.0835
5.44                    -6.12744         18.1585
5.46                    -6.32797         16.2173
5.48                    -6.55225         14.1249
5.5                     -6.83482         11.9256
5.52                    -7.17275          9.7825
5.54                    -7.57422         7.59715
5.56                    -8.08625         5.52982
5.58                     -8.7086         3.92379
5.6                     -9.45191         2.88235
5.62                      -10.36         2.98841
5.64                    -11.3674         5.18033
5.66                     -12.348         10.0012
5.68                    -13.0895         18.1269
5.7                      -13.182         28.5013
5.72                    -12.5671         37.7657
5.74                    -11.5219           44.24
5.76                    -10.3034         47.4103
5.78                     -9.1689         47.8684
5.8                     -8.17405         46.8415
5.82                    -7.29285         44.6611
5.84                    -6.56739         41.6688
5.86                    -5.96236         38.4405
5.88                    -5.42756         34.8774
5.9                     -4.99717         31.0163
5.92                    -4.64061         27.2277
5.94                    -4.31315         23.2669
5.96                    -4.06133         19.0656
5.98                    -3.86133         14.9679
6                        -3.6698         10.6337
6.02                    -3.55252         5.91716
6.04                    -3.49381         1.19255
6.06                    -3.45165        -4.02355
6.08                    -3.53432        -10.0355
6.1                     -3.76779         -16.429
6.12                    -4.15892        -23.9459
6.14                     -5.0207        -33.2234
6.16                    -6.79823        -42.9101
6.18                    -10.2534        -49.6448
6.2                     -16.8255         -27.914
6.22                     -12.845         28.1805
6.24                     -8.4294         22.2905
6.26                     -7.8962         13.0964
6.28                    -7.95753         20.8091
6.3                     -5.42023         26.0741
6.32                    -3.44389         17.2437
6.34                    -2.81297          8.0522
6.36                    -2.43951         2.32567
6.38                    -2.06968        -3.57588
6.4                     -1.96033        -8.73617
6.42                    -1.76526        -12.7146
6.44                    -1.61321        -17.6155
6.46                    -1.62955        -21.3239
6.48                    -1.39803        -24.8864
6.5                      -1.3858        -30.3723
