! TOUCHSTONE file generated by CST MICROWAVE STUDIO
! Date and time: Fri Oct 28 09:29:43 2022
! Project name: L.cst
! Parameters = {Di=1.27; Epsilon_r=1.56; InnerDiameter=1.27; Length=2; Lf=10; Lg=60; OuterConductorThickness=0.2921; OuterDiameter=3.6; Wf=3; Wp=41.2; de=1.5; df=6.8; g=0.8; gx=0.434464; gy=2.06634; h=2.34; hf=1.524; px=13.623; py=11.3846; w=9.7; wx=13.1885; wy=9.31822}
! Header version: 2018
! Port assignment regex: !\s*Touchstone port\s*([0-9]+)\s*=\s*(CST MWS port|CST DS port)\s*([0-9]+|Zmin|Zmax)\s*\(\"(.*)\"\)(\s*mode\s*([0-9]+))?.*
! Touchstone port assignment:
! Touchstone port 1 = CST MWS port 1 ("")
# GHz S DB R 50
4.5                     -4.59092         75.6851
4.52                    -5.50379         68.6607
4.54                    -7.05441         59.6011
4.56                    -10.0446         47.6072
4.58                    -17.6799         30.0987
4.6                     -19.5916        -154.478
4.62                    -9.12051        -177.475
4.64                    -5.11839         164.618
4.66                    -3.16425         149.784
4.68                     -2.1692         137.938
4.7                     -1.65019         128.497
4.72                    -1.37497         120.779
4.74                    -1.23282          114.22
4.76                    -1.17331         108.424
4.78                    -1.17129         103.137
4.8                     -1.21306         98.1634
4.82                    -1.29463         93.3445
4.84                     -1.4182         88.5443
4.86                    -1.59424         83.6352
4.88                    -1.84107         78.5098
4.9                     -2.18666         73.0568
4.92                    -2.67832         67.1705
4.94                    -3.39309         60.7946
4.96                    -4.45964         54.0067
4.98                    -6.10058         47.3177
5                       -8.70264         42.6413
5.02                     -12.808          47.225
5.04                    -16.4614         82.6894
5.06                    -13.5704         116.885
5.08                    -10.6296         126.037
5.1                     -8.08261         130.723
5.12                    -5.71912         127.665
5.14                    -4.22416         121.053
5.16                    -3.31712         114.486
5.18                    -2.73148         108.613
5.2                     -2.33006         103.393
5.22                    -2.04157         98.6841
5.24                    -1.82854         94.3563
5.26                    -1.66851         90.3201
5.28                    -1.54662          86.502
5.3                     -1.45319         82.8442
5.32                    -1.38096         79.2958
5.34                    -1.32582         75.8075
5.36                    -1.28529         72.3443
5.38                    -1.25618         68.8686
5.4                     -1.23715         65.3334
5.42                    -1.22781         61.6925
5.44                    -1.22864         57.8878
5.46                    -1.24165          53.859
5.48                    -1.26711         49.5271
5.5                     -1.30667         44.7633
5.52                    -1.36506         39.3826
5.54                    -1.45156         33.1015
5.56                    -1.58399         25.4805
5.58                    -1.79231         15.7818
5.6                     -2.13217         2.64759
5.62                    -2.70794        -16.5898
5.64                    -3.65359        -47.3366
5.66                    -4.63889         -97.841
5.68                    -4.10416        -161.477
5.7                     -2.77865         150.071
5.72                    -1.75649          120.83
5.74                    -1.25193         101.224
5.76                    -1.02503         87.8106
5.78                   -0.906605           77.93
5.8                    -0.836963         70.1563
5.82                   -0.793866         63.7034
5.84                    -0.76912         58.1361
5.86                   -0.756882         53.2028
5.88                   -0.751147         48.7433
5.9                    -0.745316         44.6293
5.92                   -0.737668         40.7408
5.94                   -0.732317         37.0012
5.96                    -0.73289         33.3866
5.98                   -0.737906         29.8973
6                      -0.741127         26.5124
6.02                   -0.739287          23.168
6.04                   -0.738245          19.807
6.06                   -0.746819         16.4397
6.08                   -0.764893         13.1252
6.1                    -0.779973         9.88125
6.12                   -0.779791         6.60225
6.14                   -0.773746           3.085
6.16                   -0.807064       -0.913277
6.18                    -1.19704         -6.8548
6.2                    -0.705097        -4.54516
6.22                   -0.835027        -9.35997
6.24                   -0.905161        -12.8108
6.26                   -0.927316        -16.1291
6.28                   -0.933632         -19.628
6.3                    -0.959685        -23.2928
6.32                    -1.01437        -26.9416
6.34                    -1.07684        -30.4596
6.36                    -1.12364        -33.9258
6.38                    -1.15653        -37.5062
6.4                     -1.19826        -41.2494
6.42                    -1.26316        -45.0374
6.44                    -1.33946        -48.7399
6.46                     -1.4034        -52.3842
6.48                    -1.44992        -56.1344
6.5                     -1.50061        -60.0826
