! TOUCHSTONE file generated by CST MICROWAVE STUDIO
! Date and time: Sat Oct 29 10:30:09 2022
! Project name: L.cst
! Parameters = {Di=1.27; Epsilon_r=1.56; InnerDiameter=1.27; Length=2; Lf=10; Lg=60; OuterConductorThickness=0.2921; OuterDiameter=3.6; Wf=3; Wp=41.2; de=1.5; df=6.8; g=0.8; gx=4.44999; gy=3.55239; h=2.34; hf=1.524; px=13.7869; py=11.3312; w=9.7; wx=9.33689; wy=7.77878}
! Header version: 2018
! Port assignment regex: !\s*Touchstone port\s*([0-9]+)\s*=\s*(CST MWS port|CST DS port)\s*([0-9]+|Zmin|Zmax)\s*\(\"(.*)\"\)(\s*mode\s*([0-9]+))?.*
! Touchstone port assignment:
! Touchstone port 1 = CST MWS port 1 ("")
# GHz S DB R 50
4.5                    -0.520152         92.7312
4.52                   -0.538608         91.1665
4.54                   -0.558307         89.5852
4.56                   -0.579215         87.9878
4.58                   -0.601291         86.3742
4.6                    -0.624486         84.7445
4.62                   -0.648748         83.0985
4.64                   -0.674029          81.436
4.66                   -0.700284         79.7567
4.68                   -0.727471           78.06
4.7                    -0.755561         76.3455
4.72                    -0.78453         74.6126
4.74                   -0.814364         72.8605
4.76                   -0.845062         71.0888
4.78                   -0.876631         69.2966
4.8                    -0.909088         67.4833
4.82                   -0.942462         65.6481
4.84                   -0.976787         63.7904
4.86                    -1.01211         61.9095
4.88                    -1.04847         60.0048
4.9                     -1.08594         58.0756
4.92                    -1.12457         56.1215
4.94                    -1.16442         54.1419
4.96                    -1.20557         52.1364
4.98                    -1.24808         50.1045
5                       -1.29201         48.0459
5.02                    -1.33744         45.9603
5.04                    -1.38443         43.8473
5.06                    -1.43303         41.7069
5.08                    -1.48332         39.5389
5.1                     -1.53533          37.343
5.12                    -1.58913         35.1193
5.14                    -1.64476         32.8678
5.16                    -1.70225         30.5883
5.18                    -1.76164         28.2811
5.2                     -1.82294         25.9462
5.22                     -1.8862         23.5837
5.24                    -1.95141         21.1938
5.26                    -2.01858         18.7768
5.28                    -2.08771         16.3328
5.3                      -2.1588         13.8621
5.32                    -2.23183         11.3651
5.34                    -2.30678         8.84209
5.36                    -2.38364         6.29354
5.38                    -2.46235         3.71987
5.4                      -2.5429         1.12156
5.42                    -2.62523        -1.50085
5.44                    -2.70929        -4.14679
5.46                    -2.79503         -6.8156
5.48                     -2.8824        -9.50662
5.5                     -2.97134        -12.2191
5.52                    -3.06177        -14.9522
5.54                    -3.15362        -17.7051
5.56                    -3.24683        -20.4769
5.58                    -3.34132        -23.2665
5.6                     -3.43702        -26.0729
5.62                    -3.53384         -28.895
5.64                    -3.63171        -31.7315
5.66                    -3.73055        -34.5811
5.68                    -3.83028        -37.4424
5.7                     -3.93081        -40.3141
5.72                    -4.03207        -43.1946
5.74                    -4.13398        -46.0822
5.76                    -4.23647        -48.9752
5.78                    -4.33945        -51.8719
5.8                     -4.44285        -54.7706
5.82                    -4.54659        -57.6692
5.84                    -4.65061        -60.5657
5.86                    -4.75483        -63.4581
5.88                    -4.85918        -66.3444
5.9                     -4.96358        -69.2224
5.92                    -5.06796        -72.0898
5.94                    -5.17224        -74.9444
5.96                    -5.27635        -77.7841
5.98                     -5.3802        -80.6066
6                        -5.4837        -83.4095
6.02                    -5.58675        -86.1907
6.04                    -5.68925         -88.948
6.06                    -5.79109        -91.6792
6.08                    -5.89214        -94.3822
6.1                     -5.99226        -97.0551
6.12                     -6.0913         -99.696
6.14                     -6.1891        -102.303
6.16                    -6.28548        -104.875
6.18                    -6.38025         -107.41
6.2                     -6.47318        -109.908
6.22                    -6.56408        -112.367
6.24                    -6.65269        -114.786
6.26                    -6.73878        -117.166
6.28                     -6.8221        -119.506
6.3                     -6.90242        -121.807
6.32                    -6.97948         -124.07
6.34                    -7.05305        -126.295
6.36                    -7.12293        -128.484
6.38                    -7.18892         -130.64
6.4                     -7.25088        -132.764
6.42                    -7.30869        -134.859
6.44                     -7.3623        -136.928
6.46                    -7.41172        -138.974
6.48                    -7.45699        -141.001
6.5                     -7.49826        -143.012
