! TOUCHSTONE file generated by CST MICROWAVE STUDIO
! Date and time: Wed Oct 26 16:28:41 2022
! Project name: L.cst
! Parameters = {Di=1.27; Epsilon_r=1.56; InnerDiameter=1.27; Length=2; Lf=10; Lg=60; OuterConductorThickness=0.2921; OuterDiameter=3.6; Wf=3; Wp=41.2; de=1.5; df=6.8; g=0.8; gx=4.77245; gy=0.781033; h=2.34; hf=1.524; px=10.4918; py=13.9101; w=9.7; wx=5.7193; wy=13.1291}
! Header version: 2018
! Port assignment regex: !\s*Touchstone port\s*([0-9]+)\s*=\s*(CST MWS port|CST DS port)\s*([0-9]+|Zmin|Zmax)\s*\(\"(.*)\"\)(\s*mode\s*([0-9]+))?.*
! Touchstone port assignment:
! Touchstone port 1 = CST MWS port 1 ("")
# GHz S DB R 50
4.5                    -0.660544         74.7602
4.52                   -0.661304         72.8154
4.54                   -0.698571         70.8384
4.56                   -0.724839         68.5782
4.58                   -0.728483         66.3941
4.6                    -0.760791         64.1731
4.62                   -0.787214         61.6738
4.64                   -0.792308          59.171
4.66                   -0.820013          56.601
4.68                   -0.844952         53.7304
4.7                    -0.850758          50.763
4.72                   -0.875353         47.6592
4.74                   -0.900493         44.1842
4.76                   -0.911507         40.4805
4.78                    -0.94276         36.5025
4.8                    -0.983629         32.0007
4.82                    -1.02483         27.0584
4.84                     -1.1036         21.5918
4.86                    -1.22091         15.3237
4.88                    -1.38191         8.28107
4.9                      -1.6406        0.326753
4.92                    -2.02043        -8.83179
4.94                    -2.55952        -19.1577
4.96                     -3.3485        -30.7717
4.98                    -4.43831        -43.8617
5                       -5.89861        -58.2203
5.02                    -7.83085        -74.0473
5.04                    -10.2339        -91.8694
5.06                    -13.1066        -112.375
5.08                    -16.2673        -138.143
5.1                     -18.8499        -170.282
5.12                    -20.0959         156.701
5.14                    -20.2305         130.714
5.16                    -20.3289         115.151
5.18                    -20.9513         107.983
5.2                     -21.7735          110.32
5.22                    -21.9135         124.167
5.24                     -20.269         140.676
5.26                     -17.423         148.904
5.28                    -14.5689         149.784
5.3                     -12.1752         146.282
5.32                    -10.2068         140.009
5.34                    -8.60331         132.398
5.36                    -7.38718         123.894
5.38                    -6.51972          114.49
5.4                     -6.03854         104.576
5.42                    -6.16308         94.3159
5.44                     -7.3601         85.4654
5.46                    -10.0817          92.331
5.48                    -7.99206         120.777
5.5                     -4.06024         114.948
5.52                    -2.31285          101.48
5.54                    -1.55118         89.7413
5.56                    -1.16212         79.6708
5.58                   -0.921638         70.9065
5.6                    -0.793331          62.949
5.62                   -0.712778         55.2626
5.64                   -0.645602         47.9627
5.66                   -0.641045         40.8004
5.68                   -0.649373          33.281
5.7                    -0.642741         25.7373
5.72                   -0.726208         17.8051
5.74                   -0.844244         8.31761
5.76                     -1.0471        -2.82176
5.78                    -2.91673        -11.3063
5.8                     -2.04922        -9.87896
5.82                    -1.68987        -25.7676
5.84                    -1.72918        -42.6811
5.86                    -2.08556         -63.756
5.88                    -2.50204        -92.7733
5.9                      -2.8698        -131.846
5.92                    -2.84743         178.389
5.94                    -2.21034          128.64
5.96                    -1.65036         87.7377
5.98                    -1.30917         56.1954
6                       -1.22718         31.0705
6.02                    -1.27931         8.71932
6.04                    -1.39187        -12.7346
6.06                    -1.61783        -35.6674
6.08                    -1.86086        -62.6502
6.1                      -2.0922         -96.022
6.12                    -2.16604        -138.853
6.14                    -1.81168          170.34
6.16                    -1.29492         117.228
6.18                   -0.916522         64.6523
6.2                    -0.900758          6.1261
6.22                    -1.04687        -75.1559
6.24                   -0.697384        -165.522
6.26                   -0.467366          134.73
6.28                   -0.369678         99.9879
6.3                    -0.389496         77.8534
6.32                   -0.467029         61.5956
6.34                   -0.495235         48.9237
6.36                   -0.556691         38.8162
6.38                   -0.643968         29.8955
6.4                    -0.671474         22.0744
6.42                    -0.72876         15.3949
6.44                   -0.813816         8.97721
6.46                   -0.831772         3.05097
6.48                   -0.881238        -2.08986
6.5                    -0.966284        -7.30967
