! TOUCHSTONE file generated by CST MICROWAVE STUDIO
! Date and time: Fri Oct 28 08:20:40 2022
! Project name: L.cst
! Parameters = {Di=1.27; Epsilon_r=1.56; InnerDiameter=1.27; Length=2; Lf=10; Lg=60; OuterConductorThickness=0.2921; OuterDiameter=3.6; Wf=3; Wp=41.2; de=1.5; df=6.8; g=0.8; gx=2.32757; gy=1.63798; h=2.34; hf=1.524; px=14.0949; py=13.4045; w=9.7; wx=11.7674; wy=11.7665}
! Header version: 2018
! Port assignment regex: !\s*Touchstone port\s*([0-9]+)\s*=\s*(CST MWS port|CST DS port)\s*([0-9]+|Zmin|Zmax)\s*\(\"(.*)\"\)(\s*mode\s*([0-9]+))?.*
! Touchstone port assignment:
! Touchstone port 1 = CST MWS port 1 ("")
# GHz S DB R 50
4.5                     -4.95034         45.9745
4.52                     -5.3449         43.2744
4.54                    -5.82161         40.4012
4.56                    -6.30052          37.281
4.58                    -6.80935         34.4465
4.6                     -7.41355         31.5322
4.62                    -8.04367         28.3378
4.64                    -8.70888         25.4099
4.66                    -9.49083         22.4935
4.68                    -10.3326         19.2611
4.7                     -11.2273         16.2756
4.72                    -12.2814         13.4024
4.74                     -13.459         10.1498
4.76                    -14.7432         7.10726
4.78                    -16.2977         4.31041
4.8                     -18.1521        0.963815
4.82                    -20.3338        -2.32242
4.84                    -23.2726         -5.2082
4.86                    -27.6146         -9.7578
4.88                     -35.447        -18.9318
4.9                     -41.7434        -174.657
4.92                    -29.9393         170.862
4.94                    -25.4238         166.922
4.96                    -22.5724         163.201
4.98                    -20.4725         160.567
5                       -18.9386         158.351
5.02                    -17.7154         155.847
5.04                    -16.6664         153.718
5.06                    -15.8274         151.933
5.08                     -15.129         150.008
5.1                     -14.4922         148.309
5.12                    -13.9593         146.975
5.14                    -13.5093         145.633
5.16                    -13.0757         144.462
5.18                    -12.6873         143.685
5.2                     -12.3429         143.001
5.22                    -11.9814         142.433
5.24                    -11.6122         142.216
5.26                    -11.2454         142.074
5.28                    -10.8291         141.859
5.3                     -10.3612         141.715
5.32                    -9.87009         141.366
5.34                    -9.33422         140.527
5.36                    -8.76406         139.293
5.38                     -8.2169         137.541
5.4                     -7.70499         135.113
5.42                    -7.24033         132.285
5.44                    -6.87062         129.239
5.46                    -6.59167          126.01
5.48                    -6.37384         122.934
5.5                     -6.22356         120.222
5.52                    -6.10947         117.774
5.54                    -5.97572         115.677
5.56                    -5.82025         113.946
5.58                    -5.62978         112.231
5.6                     -5.37004         110.391
5.62                    -5.06869          108.41
5.64                    -4.75536         105.977
5.66                    -4.41819         103.021
5.68                    -4.08986         99.7354
5.7                     -3.80599         95.9724
5.72                    -3.54253         91.7142
5.74                    -3.31242         87.2322
5.76                    -3.14653         82.3784
5.78                    -3.00828         77.0359
5.8                     -2.89983         71.4429
5.82                    -2.86499         65.3376
5.84                    -2.85649         58.5069
5.86                    -2.85904         50.9183
5.88                    -2.97226         41.8498
5.9                     -3.21852         30.4025
5.92                    -3.77246         16.8265
5.94                    -4.79572        0.888228
5.96                    -6.14223        -19.3139
5.98                    -7.98194        -43.9813
6                       -9.34377        -77.6274
6.02                    -8.64932        -121.537
6.04                    -6.95819        -163.172
6.06                    -5.02438         162.433
6.08                    -4.05081         136.011
6.1                     -6.07085         106.245
6.12                    -5.88731         139.682
6.14                    -2.21374         115.949
6.16                    -1.71371         102.135
6.18                    -1.63295         90.0328
6.2                     -1.41619         80.3218
6.22                    -1.42313         72.5288
6.24                     -1.4817         63.9414
6.26                    -1.39171         56.1882
6.28                    -1.51366         48.8845
6.3                      -1.5304         38.9927
6.32                    -1.46809         29.3594
6.34                    -1.71854         16.6866
6.36                    -1.63176        -13.4332
6.38                    -10.0268         -35.918
6.4                      -7.3921        -28.6369
6.42                    -8.36013        -90.9864
6.44                    -4.54621        -167.419
6.46                    -1.71078         135.671
6.48                   -0.366136         101.978
6.5                    -0.278793         81.6259
