! TOUCHSTONE file generated by CST MICROWAVE STUDIO
! Date and time: Wed Oct 26 18:18:02 2022
! Project name: L.cst
! Parameters = {Di=1.27; Epsilon_r=1.56; InnerDiameter=1.27; Length=2; Lf=10; Lg=60; OuterConductorThickness=0.2921; OuterDiameter=3.6; Wf=3; Wp=41.2; de=1.5; df=6.8; g=0.8; gx=4.08913; gy=0.882969; h=2.34; hf=1.524; px=12.2044; py=10.7093; w=9.7; wx=8.11532; wy=9.82633}
! Header version: 2018
! Port assignment regex: !\s*Touchstone port\s*([0-9]+)\s*=\s*(CST MWS port|CST DS port)\s*([0-9]+|Zmin|Zmax)\s*\(\"(.*)\"\)(\s*mode\s*([0-9]+))?.*
! Touchstone port assignment:
! Touchstone port 1 = CST MWS port 1 ("")
# GHz S DB R 50
4.5                    -0.872824         70.7167
4.52                   -0.893457         68.6054
4.54                   -0.916155         66.4106
4.56                   -0.942137         64.1341
4.58                   -0.972337         61.7791
4.6                     -1.00739         59.3492
4.62                    -1.04767         56.8482
4.64                    -1.09327         54.2793
4.66                     -1.1441         51.6453
4.68                    -1.19988         48.9477
4.7                     -1.26022         46.1873
4.72                    -1.32461         43.3634
4.74                    -1.39256         40.4743
4.76                    -1.46353         37.5173
4.78                    -1.53702         34.4884
4.8                     -1.61258         31.3833
4.82                    -1.68985         28.1968
4.84                    -1.76852         24.9232
4.86                    -1.84838          21.557
4.88                    -1.92927         18.0925
4.9                     -2.01111         14.5242
4.92                    -2.09387         10.8473
4.94                    -2.17751         7.05742
4.96                    -2.26204         3.15111
4.98                    -2.34741        -0.87431
5                       -2.43355        -5.02047
5.02                    -2.52033        -9.28794
5.04                    -2.60754        -13.6761
5.06                    -2.69492        -18.1832
5.08                     -2.7821        -22.8062
5.1                     -2.86865        -27.5406
5.12                    -2.95405        -32.3808
5.14                    -3.03774        -37.3199
5.16                    -3.11912        -42.3494
5.18                    -3.19758        -47.4597
5.2                     -3.27253          -52.64
5.22                     -3.3434        -57.8783
5.24                     -3.4097        -63.1615
5.26                    -3.47104        -68.4759
5.28                    -3.52714        -73.8073
5.3                     -3.57783        -79.1409
5.32                    -3.62309        -84.4617
5.34                    -3.66303        -89.7552
5.36                    -3.69788         -95.007
5.38                    -3.72797        -100.204
5.4                     -3.75373        -105.332
5.42                    -3.77566        -110.381
5.44                    -3.79426        -115.339
5.46                    -3.81008        -120.198
5.48                    -3.82362        -124.949
5.5                     -3.83535        -129.585
5.52                    -3.84567        -134.102
5.54                    -3.85493        -138.496
5.56                    -3.86337        -142.764
5.58                    -3.87116        -146.905
5.6                     -3.87839        -150.919
5.62                     -3.8851        -154.807
5.64                    -3.89126        -158.573
5.66                    -3.89681        -162.218
5.68                    -3.90167        -165.749
5.7                      -3.9058         -169.17
5.72                    -3.90918        -172.488
5.74                    -3.91184        -175.709
5.76                    -3.91392         -178.84
5.78                    -3.91563         178.111
5.8                      -3.9173         175.138
5.82                    -3.91935         172.234
5.84                    -3.92233         169.392
5.86                    -3.92687         166.606
5.88                    -3.93368         163.873
5.9                     -3.94351         161.189
5.92                    -3.95716         158.552
5.94                    -3.97542          155.96
5.96                    -3.99902         153.414
5.98                    -4.02862         150.915
6                       -4.06477         148.468
6.02                    -4.10784         146.076
6.04                      -4.158         143.745
6.06                    -4.21519          141.48
6.08                    -4.27905          139.29
6.1                      -4.3489         137.181
6.12                    -4.42371         135.161
6.14                    -4.50207         133.235
6.16                    -4.58219          131.41
6.18                    -4.66191         129.688
6.2                     -4.73874         128.071
6.22                    -4.80992         126.556
6.24                    -4.87257         125.135
6.26                    -4.92379         123.798
6.28                     -4.9609         122.527
6.3                     -4.98162         121.302
6.32                    -4.98428         120.098
6.34                    -4.96799         118.887
6.36                    -4.93278         117.637
6.38                    -4.87965          116.32
6.4                     -4.81053         114.907
6.42                    -4.72815         113.372
6.44                    -4.63596         111.693
6.46                    -4.53783         109.855
6.48                    -4.43795         107.844
6.5                     -4.34057         105.654
