! TOUCHSTONE file generated by CST MICROWAVE STUDIO
! Date and time: Sat Oct 29 09:50:36 2022
! Project name: L.cst
! Parameters = {Di=1.27; Epsilon_r=1.56; InnerDiameter=1.27; Length=2; Lf=10; Lg=60; OuterConductorThickness=0.2921; OuterDiameter=3.6; Wf=3; Wp=41.2; de=1.5; df=6.8; g=0.8; gx=1.79273; gy=1.4533; h=2.34; hf=1.524; px=10.1206; py=11.3461; w=9.7; wx=8.32787; wy=9.89282}
! Header version: 2018
! Port assignment regex: !\s*Touchstone port\s*([0-9]+)\s*=\s*(CST MWS port|CST DS port)\s*([0-9]+|Zmin|Zmax)\s*\(\"(.*)\"\)(\s*mode\s*([0-9]+))?.*
! Touchstone port assignment:
! Touchstone port 1 = CST MWS port 1 ("")
# GHz S DB R 50
4.5                    -0.936073         68.1759
4.52                   -0.978478         66.3557
4.54                    -1.01937         64.5043
4.56                    -1.05913         62.6159
4.58                    -1.09826         60.6857
4.6                     -1.13736         58.7099
4.62                    -1.17705         56.6858
4.64                    -1.21796         54.6118
4.66                    -1.26068          52.487
4.68                    -1.30572         50.3114
4.7                     -1.35351         48.0854
4.72                    -1.40438         45.8098
4.74                    -1.45858         43.4856
4.76                    -1.51623         41.1139
4.78                     -1.5774         38.6954
4.8                     -1.64205         36.2309
4.82                    -1.71009         33.7206
4.84                    -1.78138         31.1645
4.86                    -1.85575         28.5622
4.88                    -1.93298         25.9127
4.9                     -2.01289         23.2148
4.92                    -2.09526          20.467
4.94                    -2.17991         17.6673
4.96                    -2.26666         14.8134
4.98                    -2.35539         11.9033
5                       -2.44598         8.93434
5.02                    -2.53835         5.90431
5.04                    -2.63244         2.81091
5.06                    -2.72821       -0.347935
5.08                    -2.82565        -3.57406
5.1                     -2.92475        -6.86896
5.12                    -3.02548        -10.2338
5.14                    -3.12782        -13.6691
5.16                    -3.23173        -17.1753
5.18                    -3.33713        -20.7519
5.2                     -3.44391        -24.3982
5.22                    -3.55193        -28.1126
5.24                    -3.66098        -31.8933
5.26                    -3.77082        -35.7376
5.28                    -3.88115        -39.6426
5.3                     -3.99161        -43.6045
5.32                    -4.10178         -47.619
5.34                    -4.21122        -51.6814
5.36                    -4.31943        -55.7864
5.38                    -4.42585        -59.9283
5.4                     -4.52992        -64.1011
5.42                    -4.63105        -68.2982
5.44                    -4.72862        -72.5131
5.46                    -4.82203        -76.7389
5.48                    -4.91066        -80.9687
5.5                     -4.99394        -85.1958
5.52                     -5.0713        -89.4136
5.54                    -5.14223        -93.6158
5.56                    -5.20625        -97.7966
5.58                    -5.26297        -101.951
5.6                     -5.31203        -106.074
5.62                    -5.35321        -110.162
5.64                    -5.38632        -114.213
5.66                    -5.41133        -118.224
5.68                    -5.42828        -122.194
5.7                     -5.43736        -126.124
5.72                    -5.43887        -130.013
5.74                    -5.43326        -133.863
5.76                    -5.42111        -137.677
5.78                    -5.40315        -141.456
5.8                     -5.38022        -145.205
5.82                    -5.35334        -148.924
5.84                     -5.3236        -152.619
5.86                    -5.29225         -156.29
5.88                    -5.26059        -159.941
5.9                     -5.23003        -163.572
5.92                    -5.20204        -167.185
5.94                     -5.1781        -170.779
5.96                    -5.15974        -174.353
5.98                    -5.14845        -177.904
6                       -5.14569         178.571
6.02                    -5.15288         175.077
6.04                    -5.17131         171.623
6.06                    -5.20216         168.215
6.08                    -5.24643         164.864
6.1                      -5.3049         161.582
6.12                    -5.37805         158.382
6.14                    -5.46603         155.282
6.16                    -5.56852         152.297
6.18                    -5.68465         149.446
6.2                     -5.81286         146.751
6.22                    -5.95078         144.231
6.24                    -6.09504         141.906
6.26                    -6.24118         139.795
6.28                    -6.38357          137.91
6.3                     -6.51538         136.256
6.32                    -6.62885          134.83
6.34                    -6.71561         133.613
6.36                    -6.76739         132.569
6.38                    -6.77688         131.645
6.4                     -6.73875         130.774
6.42                    -6.65042         129.876
6.44                    -6.51271         128.868
6.46                    -6.32977         127.668
6.48                    -6.10867         126.207
6.5                     -5.85856         124.432
