! TOUCHSTONE file generated by CST MICROWAVE STUDIO
! Date and time: Fri Oct 28 22:35:18 2022
! Project name: L.cst
! Parameters = {Di=1.27; Epsilon_r=1.56; InnerDiameter=1.27; Length=2; Lf=10; Lg=60; OuterConductorThickness=0.2921; OuterDiameter=3.6; Wf=3; Wp=41.2; de=1.5; df=6.8; g=0.8; gx=0.520504; gy=4.30511; h=2.34; hf=1.524; px=11.494; py=8.53333; w=9.7; wx=10.9735; wy=4.22823}
! Header version: 2018
! Port assignment regex: !\s*Touchstone port\s*([0-9]+)\s*=\s*(CST MWS port|CST DS port)\s*([0-9]+|Zmin|Zmax)\s*\(\"(.*)\"\)(\s*mode\s*([0-9]+))?.*
! Touchstone port assignment:
! Touchstone port 1 = CST MWS port 1 ("")
# GHz S DB R 50
4.5                     -1.76599         80.5057
4.52                    -1.91951         78.2447
4.54                    -2.10753         76.3618
4.56                    -2.26822         74.8014
4.58                    -2.37938         73.1986
4.6                     -2.47643         71.2619
4.62                    -2.61224         69.0415
4.64                    -2.80702         66.8402
4.66                    -3.03442         64.9165
4.68                    -3.24964          63.256
4.7                      -3.4334         61.6045
4.72                    -3.60954         59.7341
4.74                    -3.81914         57.6658
4.76                    -4.08114         55.6348
4.78                    -4.37678         53.8672
4.8                     -4.66884         52.3778
4.82                    -4.93817         50.9693
4.84                    -5.20242         49.4436
4.86                    -5.49735         47.8111
4.88                    -5.84114         46.2884
4.9                     -6.21644         45.1038
4.92                    -6.58549         44.2914
4.94                     -6.9258         43.6682
4.96                    -7.25172         43.0365
4.98                    -7.59694         42.4099
5                       -7.97606         42.0218
5.02                    -8.36355         42.1094
5.04                    -8.71151         42.6733
5.06                    -8.99285         43.4586
5.08                    -9.22482         44.2149
5.1                     -9.44291          44.954
5.12                     -9.6541         45.9072
5.14                    -9.82117         47.2285
5.16                    -9.89673         48.7531
5.18                    -9.87407         50.0986
5.2                      -9.7948         51.0225
5.22                    -9.70369         51.6125
5.24                    -9.60564         52.1129
5.26                    -9.46875         52.6111
5.28                    -9.26675          52.913
5.3                     -9.01461          52.736
5.32                    -8.75781         51.9988
5.34                    -8.53044         50.8849
5.36                     -8.3283         49.6469
5.38                    -8.11944         48.3648
5.4                     -7.88035         46.8807
5.42                     -7.6225         44.9712
5.44                    -7.38228          42.581
5.46                    -7.18671         39.8761
5.48                    -7.02959         37.0868
5.5                     -6.87815         34.2924
5.52                    -6.70448         31.3379
5.54                    -6.51386         27.9709
5.56                    -6.34102         24.0755
5.58                    -6.21802         19.7698
5.6                      -6.1448         15.2835
5.62                    -6.08714         10.7246
5.64                    -6.00562         5.92454
5.66                    -5.89373        0.515823
5.68                    -5.78792        -5.79935
5.7                     -5.73684        -13.0519
5.72                    -5.75873        -21.0658
5.74                    -5.82057        -29.7251
5.76                    -5.85553        -39.2755
5.78                    -5.81325        -50.4307
5.8                     -5.70225         -64.117
5.82                    -5.57646        -81.0489
5.84                    -5.47968        -101.478
5.86                    -5.40548        -125.131
5.88                    -5.30805        -151.178
5.9                     -5.15829         -178.29
5.92                    -4.99634          155.03
5.94                    -4.92435         130.013
5.96                    -5.05127         107.472
5.98                    -5.44218         87.9468
6                       -6.08975         71.8694
6.02                    -6.90054         59.5045
6.04                     -7.7164         50.6021
6.06                    -8.41339         44.1375
6.08                    -9.01967         38.8789
6.1                     -9.68342         34.5057
6.12                    -10.4932          31.989
6.14                    -11.3012         32.7806
6.16                    -11.7097         36.8354
6.18                    -11.4718         41.2878
6.2                     -10.8509         43.4083
6.22                    -10.2278         43.3646
6.24                    -9.71447         42.6952
6.26                    -9.19537         42.2741
6.28                    -8.54292          41.646
6.3                     -7.79144         39.8452
6.32                    -7.09414         36.6435
6.34                    -6.56143         32.7345
6.36                    -6.17672         29.0562
6.38                    -5.82048         26.0387
6.4                     -5.37816         23.2311
6.42                    -4.85783         19.7498
6.44                    -4.38279         15.2099
6.46                    -4.07161         10.0845
6.48                    -3.94086         5.31047
6.5                     -3.88351         1.60352
