! TOUCHSTONE file generated by CST MICROWAVE STUDIO
! Date and time: Fri Oct 28 10:18:29 2022
! Project name: L.cst
! Parameters = {Di=1.27; Epsilon_r=1.56; InnerDiameter=1.27; Length=2; Lf=10; Lg=60; OuterConductorThickness=0.2921; OuterDiameter=3.6; Wf=3; Wp=41.2; de=1.5; df=6.8; g=0.8; gx=3.41186; gy=1.33168; h=2.34; hf=1.524; px=8.40562; py=13.375; w=9.7; wx=4.99376; wy=12.0433}
! Header version: 2018
! Port assignment regex: !\s*Touchstone port\s*([0-9]+)\s*=\s*(CST MWS port|CST DS port)\s*([0-9]+|Zmin|Zmax)\s*\(\"(.*)\"\)(\s*mode\s*([0-9]+))?.*
! Touchstone port assignment:
! Touchstone port 1 = CST MWS port 1 ("")
# GHz S DB R 50
4.5                    -0.493272          72.602
4.52                   -0.500757         70.9234
4.54                   -0.521863         69.2165
4.56                   -0.535605         67.4224
4.58                   -0.547194         65.6779
4.6                    -0.568665         63.8678
4.62                   -0.581198         62.0076
4.64                   -0.596714         60.1753
4.66                   -0.617542         58.2601
4.68                   -0.630324         56.3227
4.7                    -0.649129         54.3828
4.72                   -0.668898         52.3591
4.74                   -0.683038         50.3272
4.76                   -0.704221         48.2622
4.78                   -0.722867         46.1217
4.8                    -0.739239          43.973
4.82                   -0.761684         41.7664
4.84                   -0.779521         39.4943
4.86                   -0.798286         37.2034
4.88                   -0.820752          34.835
4.9                    -0.838251         32.4091
4.92                   -0.858842         29.9451
4.94                   -0.880254         27.3887
4.96                   -0.897541          24.777
4.98                   -0.918717         22.0996
5                      -0.938003         19.3182
5.02                   -0.954818         16.4725
5.04                   -0.974958         13.5275
5.06                   -0.991182         10.4653
5.08                    -1.00697         7.31375
5.1                     -1.02464         4.02167
5.12                      -1.038        0.590917
5.14                    -1.05327        -2.97355
5.16                    -1.06936        -6.72852
5.18                    -1.08337        -10.6578
5.2                     -1.10269        -14.7862
5.22                    -1.12399        -19.1608
5.24                    -1.14904        -23.7619
5.26                    -1.18453        -28.6408
5.28                    -1.22655        -33.8225
5.3                     -1.28147           -39.3
5.32                    -1.35329        -45.1427
5.34                    -1.43998        -51.3538
5.36                    -1.55177        -57.9615
5.38                    -1.69015        -65.0403
5.4                     -1.85939        -72.5857
5.42                    -2.07367        -80.6723
5.44                    -2.33608        -89.3494
5.46                     -2.6635        -98.6134
5.48                    -3.07364        -108.546
5.5                     -3.57779        -119.106
5.52                    -4.20629        -130.262
5.54                     -4.9735        -141.991
5.56                    -5.90075        -154.086
5.58                    -7.01572         -166.45
5.6                     -8.32076        -178.814
5.62                    -9.85292         169.129
5.64                    -11.6311          157.69
5.66                    -13.6891         147.695
5.68                     -16.123         140.265
5.7                     -18.9057         137.892
5.72                    -21.6583         146.136
5.74                    -22.6058         166.095
5.76                    -20.6827         -178.84
5.78                    -17.9876        -175.917
5.8                     -15.5959         179.472
5.82                    -13.5212         171.333
5.84                    -11.7531         161.529
5.86                    -10.2164         150.424
5.88                    -8.83811         138.683
5.9                     -7.64084         126.347
5.92                    -6.56505         113.323
5.94                    -5.62502         99.8579
5.96                    -4.82669         85.5684
5.98                    -4.13804          70.503
6                       -3.61054         54.4074
6.02                    -3.21271         36.7704
6.04                    -2.98931         17.3543
6.06                    -2.98693        -5.05152
6.08                    -3.29125        -31.1955
6.1                     -4.36989         -61.793
6.12                     -6.0465        -87.6232
6.14                    -5.48431        -112.667
6.16                    -4.37929        -149.178
6.18                    -3.44819         176.452
6.2                     -2.74104         146.049
6.22                    -2.07275          121.23
6.24                    -1.72889         100.414
6.26                    -1.34845         82.1918
6.28                    -1.16863         67.5146
6.3                     -1.10708         52.6319
6.32                   -0.819654         40.2128
6.34                    -1.14176         27.9415
6.36                    -1.10518         6.52851
6.38                    -6.25407         19.6584
6.4                    -0.778426         15.8443
6.42                     -1.3401         1.53239
6.44                   -0.885731         -11.409
6.46                   -0.929637        -18.4705
6.48                    -1.20896        -30.2154
6.5                     -0.86913         -39.896
