! TOUCHSTONE file generated by CST MICROWAVE STUDIO
! Date and time: Thu Oct 27 12:35:28 2022
! Project name: L.cst
! Parameters = {Di=1.27; Epsilon_r=1.56; InnerDiameter=1.27; Length=2; Lf=10; Lg=60; OuterConductorThickness=0.2921; OuterDiameter=3.6; Wf=3; Wp=41.2; de=1.5; df=6.8; g=0.8; gx=1.87985; gy=4.71002; h=2.34; hf=1.524; px=11.4526; py=10.9061; w=9.7; wx=9.57272; wy=6.19609}
! Header version: 2018
! Port assignment regex: !\s*Touchstone port\s*([0-9]+)\s*=\s*(CST MWS port|CST DS port)\s*([0-9]+|Zmin|Zmax)\s*\(\"(.*)\"\)(\s*mode\s*([0-9]+))?.*
! Touchstone port assignment:
! Touchstone port 1 = CST MWS port 1 ("")
# GHz S DB R 50
4.5                    -0.534767          93.573
4.52                   -0.554833         92.0637
4.54                   -0.575708          90.544
4.56                   -0.597354         89.0137
4.58                   -0.619738         87.4726
4.6                    -0.642831         85.9205
4.62                   -0.666613         84.3572
4.64                   -0.691068         82.7823
4.66                   -0.716192         81.1954
4.68                   -0.741982         79.5962
4.7                    -0.768447         77.9844
4.72                   -0.795603         76.3596
4.74                    -0.82347         74.7213
4.76                   -0.852077         73.0695
4.78                   -0.881456         71.4036
4.8                    -0.911645         69.7234
4.82                   -0.942686         68.0288
4.84                   -0.974623         66.3194
4.86                    -1.00751          64.595
4.88                    -1.04138         62.8556
4.9                      -1.0763          61.101
4.92                    -1.11232         59.3311
4.94                    -1.14949          57.546
4.96                    -1.18786         55.7455
4.98                    -1.22748         53.9298
5                        -1.2684         52.0989
5.02                    -1.31067         50.2528
5.04                    -1.35434         48.3919
5.06                    -1.39945         46.5161
5.08                    -1.44604         44.6257
5.1                     -1.49415          42.721
5.12                    -1.54383         40.8021
5.14                    -1.59511         38.8694
5.16                    -1.64801         36.9231
5.18                    -1.70258         34.9635
5.2                     -1.75885         32.9912
5.22                    -1.81682         31.0063
5.24                    -1.87655         29.0093
5.26                    -1.93803         27.0007
5.28                    -2.00131         24.9809
5.3                     -2.06638         22.9503
5.32                    -2.13328         20.9095
5.34                    -2.20201          18.859
5.36                    -2.27259         16.7994
5.38                    -2.34503         14.7313
5.4                     -2.41934         12.6552
5.42                    -2.49553         10.5719
5.44                    -2.57359           8.482
5.46                    -2.65355         6.38629
5.48                    -2.73539         4.28551
5.5                     -2.81913         2.18048
5.52                    -2.90475        0.072043
5.54                    -2.99226        -2.03891
5.56                    -3.08164        -4.15142
5.58                    -3.17288        -6.26451
5.6                     -3.26598        -8.37714
5.62                    -3.36091        -10.4882
5.64                    -3.45765        -12.5966
5.66                    -3.55617         -14.701
5.68                    -3.65643        -16.8003
5.7                     -3.75839        -18.8931
5.72                      -3.862         -20.978
5.74                    -3.96719        -23.0537
5.76                    -4.07389        -25.1185
5.78                    -4.18202        -27.1712
5.8                     -4.29147          -29.21
5.82                    -4.40212        -31.2333
5.84                    -4.51385        -33.2396
5.86                    -4.62649        -35.2272
5.88                    -4.73986        -37.1944
5.9                     -4.85377        -39.1396
5.92                    -4.96797        -41.0613
5.94                    -5.08222        -42.9579
5.96                    -5.19623        -44.8279
5.98                    -5.30966        -46.6701
6                       -5.42218        -48.4833
6.02                     -5.5334        -50.2666
6.04                     -5.6429        -52.0193
6.06                    -5.75024         -53.741
6.08                    -5.85493        -55.4317
6.1                      -5.9565         -57.092
6.12                    -6.05443        -58.7225
6.14                     -6.1482        -60.3249
6.16                     -6.2373        -61.9011
6.18                    -6.32123        -63.4538
6.2                     -6.39954        -64.9863
6.22                     -6.4718        -66.5028
6.24                    -6.53767        -68.0078
6.26                    -6.59687        -69.5069
6.28                    -6.64925         -71.006
6.3                     -6.69477        -72.5119
6.32                    -6.73354        -74.0316
6.34                     -6.7658        -75.5727
6.36                    -6.79201         -77.143
6.38                    -6.81277        -78.7504
6.4                     -6.82888        -80.4028
6.42                    -6.84134        -82.1083
6.44                    -6.85136        -83.8742
6.46                    -6.86032        -85.7079
6.48                    -6.86982        -87.6162
6.5                     -6.88165        -89.6052
