! TOUCHSTONE file generated by CST MICROWAVE STUDIO
! Date and time: Fri Oct 28 08:07:28 2022
! Project name: L.cst
! Parameters = {Di=1.27; Epsilon_r=1.56; InnerDiameter=1.27; Length=2; Lf=10; Lg=60; OuterConductorThickness=0.2921; OuterDiameter=3.6; Wf=3; Wp=41.2; de=1.5; df=6.8; g=0.8; gx=4.39971; gy=2.79825; h=2.34; hf=1.524; px=11.2384; py=10.259; w=9.7; wx=6.83869; wy=7.46078}
! Header version: 2018
! Port assignment regex: !\s*Touchstone port\s*([0-9]+)\s*=\s*(CST MWS port|CST DS port)\s*([0-9]+|Zmin|Zmax)\s*\(\"(.*)\"\)(\s*mode\s*([0-9]+))?.*
! Touchstone port assignment:
! Touchstone port 1 = CST MWS port 1 ("")
# GHz S DB R 50
4.5                    -0.386986         91.5007
4.52                   -0.397307         89.9938
4.54                   -0.408136         88.4709
4.56                    -0.41949         86.9323
4.58                   -0.431377         85.3779
4.6                    -0.443795         83.8079
4.62                   -0.456735         82.2222
4.64                    -0.47018         80.6206
4.66                   -0.484111         79.0032
4.68                   -0.498506         77.3698
4.7                    -0.513341         75.7201
4.72                   -0.528594          74.054
4.74                   -0.544242          72.371
4.76                   -0.560264         70.6711
4.78                   -0.576644         68.9537
4.8                    -0.593364         67.2186
4.82                   -0.610413         65.4653
4.84                   -0.627783         63.6936
4.86                   -0.645465         61.9031
4.88                    -0.66346         60.0934
4.9                    -0.681765         58.2641
4.92                   -0.700383          56.415
4.94                   -0.719319         54.5456
4.96                   -0.738578         52.6558
4.98                    -0.75817         50.7452
5                        -0.7781         48.8136
5.02                    -0.79838         46.8609
5.04                   -0.819015         44.8867
5.06                   -0.840017         42.8911
5.08                    -0.86139         40.8738
5.1                    -0.883141         38.8348
5.12                   -0.905274         36.7742
5.14                   -0.927791         34.6918
5.16                   -0.950692         32.5878
5.18                   -0.973975         30.4622
5.2                    -0.997634         28.3152
5.22                    -1.02166         26.1469
5.24                    -1.04604         23.9576
5.26                    -1.07077         21.7475
5.28                    -1.09583         19.5167
5.3                     -1.12119         17.2658
5.32                    -1.14683          14.995
5.34                    -1.17274         12.7047
5.36                    -1.19887         10.3954
5.38                    -1.22521         8.06748
5.4                     -1.25171         5.72156
5.42                    -1.27835         3.35814
5.44                    -1.30508         0.97783
5.46                    -1.33188        -1.41876
5.48                    -1.35869        -3.83095
5.5                     -1.38548        -6.25805
5.52                    -1.41221        -8.69931
5.54                    -1.43883         -11.154
5.56                    -1.46531        -13.6212
5.58                    -1.49161        -16.1001
5.6                     -1.51767        -18.5899
5.62                    -1.54347        -21.0897
5.64                    -1.56897        -23.5984
5.66                    -1.59412        -26.1152
5.68                    -1.61888         -28.639
5.7                     -1.64323        -31.1687
5.72                    -1.66713        -33.7035
5.74                    -1.69055        -36.2421
5.76                    -1.71346        -38.7835
5.78                    -1.73583        -41.3267
5.8                     -1.75764        -43.8704
5.82                    -1.77885        -46.4137
5.84                    -1.79946        -48.9554
5.86                    -1.81943        -51.4943
5.88                    -1.83876        -54.0294
5.9                     -1.85741        -56.5596
5.92                    -1.87539        -59.0838
5.94                    -1.89266         -61.601
5.96                    -1.90923          -64.11
5.98                    -1.92507          -66.61
6                       -1.94017        -69.0999
6.02                    -1.95452        -71.5789
6.04                    -1.96811         -74.046
6.06                    -1.98093        -76.5004
6.08                    -1.99297        -78.9413
6.1                     -2.00421        -81.3681
6.12                    -2.01465          -83.78
6.14                    -2.02427        -86.1766
6.16                    -2.03307        -88.5572
6.18                    -2.04104        -90.9216
6.2                     -2.04818        -93.2693
6.22                    -2.05447        -95.6001
6.24                    -2.05994        -97.9137
6.26                    -2.06457         -100.21
6.28                    -2.06838        -102.489
6.3                     -2.07139        -104.751
6.32                    -2.07362        -106.996
6.34                     -2.0751        -109.225
6.36                    -2.07588        -111.436
6.38                      -2.076        -113.631
6.4                     -2.07553        -115.811
6.42                    -2.07454        -117.974
6.44                    -2.07312        -120.123
6.46                    -2.07137        -122.257
6.48                    -2.06939        -124.376
6.5                     -2.06731         -126.48
