! TOUCHSTONE file generated by CST MICROWAVE STUDIO
! Date and time: Sat Oct 29 15:20:22 2022
! Project name: L.cst
! Parameters = {Di=1.27; Epsilon_r=1.56; InnerDiameter=1.27; Length=2; Lf=10; Lg=60; OuterConductorThickness=0.2921; OuterDiameter=3.6; Wf=3; Wp=41.2; de=1.5; df=6.8; g=0.8; gx=1.00649; gy=0.444503; h=2.34; hf=1.524; px=9.4379; py=10.5303; w=9.7; wx=8.43141; wy=10.0858}
! Header version: 2018
! Port assignment regex: !\s*Touchstone port\s*([0-9]+)\s*=\s*(CST MWS port|CST DS port)\s*([0-9]+|Zmin|Zmax)\s*\(\"(.*)\"\)(\s*mode\s*([0-9]+))?.*
! Touchstone port assignment:
! Touchstone port 1 = CST MWS port 1 ("")
# GHz S DB R 50
4.5                     -1.41056         57.9038
4.52                    -1.46506         55.8656
4.54                    -1.51882         53.7312
4.56                    -1.57737         51.4998
4.58                    -1.64487         49.1893
4.6                     -1.72292         46.8271
4.62                    -1.81046         44.4388
4.64                    -1.90452         42.0392
4.66                    -2.00146         39.6284
4.68                    -2.09838         37.1924
4.7                     -2.19406         34.7092
4.72                    -2.28927         32.1563
4.74                    -2.38632          29.518
4.76                    -2.48814         26.7894
4.78                     -2.5973         23.9759
4.8                     -2.71521         21.0902
4.82                    -2.84178         18.1459
4.84                    -2.97569         15.1529
4.86                     -3.1149         12.1131
4.88                    -3.25746         9.01986
4.9                     -3.40216         5.86027
4.92                    -3.54896         2.61893
4.94                    -3.69889       -0.717227
4.96                    -3.85367        -4.15527
4.98                    -4.01509        -7.69487
5                       -4.18436        -11.3292
5.02                    -4.36172         -15.048
5.04                    -4.54636         -18.841
5.06                    -4.73655        -22.7016
5.08                    -4.93019        -26.6285
5.1                     -5.12525        -30.6258
5.12                    -5.32027        -34.7012
5.14                    -5.51451        -38.8619
5.16                     -5.7078        -43.1122
5.18                    -5.90018        -47.4502
5.2                     -6.09133        -51.8677
5.22                    -6.28006        -56.3523
5.24                    -6.46407        -60.8899
5.26                       -6.64        -65.4699
5.28                    -6.80384        -70.0881
5.3                     -6.95161        -74.7487
5.32                    -7.08018        -79.4639
5.34                    -7.18787          -84.25
5.36                    -7.27471        -89.1231
5.38                    -7.34223        -94.0937
5.4                      -7.3929        -99.1639
5.42                    -7.42928        -104.327
5.44                    -7.45344        -109.571
5.46                    -7.46655        -114.883
5.48                    -7.46913        -120.257
5.5                     -7.46165        -125.696
5.52                     -7.4456        -131.215
5.54                     -7.4246        -136.841
5.56                    -7.40523        -142.603
5.58                    -7.39739        -148.524
5.6                     -7.41397        -154.616
5.62                    -7.47004        -160.866
5.64                    -7.58182        -167.236
5.66                    -7.76552        -173.659
5.68                    -8.03631         179.963
5.7                     -8.40737         173.763
5.72                    -8.88865         167.906
5.74                    -9.48508           162.6
5.76                    -10.1935         158.096
5.78                     -10.998         154.685
5.8                     -11.8623         152.674
5.82                    -12.7229         152.315
5.84                    -13.4885         153.671
5.86                     -14.059         156.462
5.88                    -14.3671         160.038
5.9                     -14.4132         163.624
5.92                    -14.2568         166.658
5.94                    -13.9733         168.939
5.96                    -13.6193         170.518
5.98                    -13.2243         171.526
6                       -12.7997         172.054
6.02                    -12.3519         172.128
6.04                     -11.891          171.74
6.06                     -11.433         170.894
6.08                    -10.9953         169.643
6.1                     -10.5911         168.093
6.12                    -10.2245         166.379
6.14                    -9.88833         164.631
6.16                    -9.56541         162.924
6.18                     -9.2345         161.247
6.2                     -8.87897          159.49
6.22                    -8.49591         157.479
6.24                     -8.1007         155.036
6.26                    -7.72461         152.051
6.28                    -7.40726         148.532
6.3                     -7.18807         144.611
6.32                    -7.09926          140.54
6.34                    -7.15981         136.685
6.36                    -7.36734         133.519
6.38                    -7.68363         131.601
6.4                     -8.01311          131.45
6.42                     -8.1913         133.223
6.44                    -8.03234         136.244
6.46                     -7.4551          138.99
6.48                    -6.55871         139.982
6.5                      -5.5366          138.62
