! TOUCHSTONE file generated by CST MICROWAVE STUDIO
! Date and time: Sat Oct 29 13:24:39 2022
! Project name: L.cst
! Parameters = {Di=1.27; Epsilon_r=1.56; InnerDiameter=1.27; Length=2; Lf=10; Lg=60; OuterConductorThickness=0.2921; OuterDiameter=3.6; Wf=3; Wp=41.2; de=1.5; df=6.8; g=0.8; gx=1.4906; gy=4.97776; h=2.34; hf=1.524; px=8.84525; py=8.78395; w=9.7; wx=7.35465; wy=3.80619}
! Header version: 2018
! Port assignment regex: !\s*Touchstone port\s*([0-9]+)\s*=\s*(CST MWS port|CST DS port)\s*([0-9]+|Zmin|Zmax)\s*\(\"(.*)\"\)(\s*mode\s*([0-9]+))?.*
! Touchstone port assignment:
! Touchstone port 1 = CST MWS port 1 ("")
# GHz S DB R 50
4.5                    -0.356488          96.605
4.52                   -0.366557         95.1669
4.54                   -0.376902          93.719
4.56                   -0.387527         92.2611
4.58                   -0.398435         90.7934
4.6                    -0.409626         89.3157
4.62                   -0.421097          87.828
4.64                   -0.432846         86.3304
4.66                    -0.44487         84.8226
4.68                   -0.457165         83.3047
4.7                    -0.469727         81.7765
4.72                   -0.482553         80.2381
4.74                   -0.495639         78.6893
4.76                   -0.508984         77.1301
4.78                   -0.522586         75.5604
4.8                    -0.536445           73.98
4.82                    -0.55056          72.389
4.84                   -0.564932         70.7872
4.86                   -0.579565         69.1747
4.88                   -0.594458         67.5514
4.9                    -0.609617         65.9171
4.92                   -0.625045          64.272
4.94                   -0.640746          62.616
4.96                   -0.656724         60.9491
4.98                   -0.672984         59.2712
5                      -0.689531         57.5826
5.02                   -0.706369         55.8831
5.04                   -0.723503         54.1729
5.06                   -0.740936          52.452
5.08                   -0.758674         50.7206
5.1                    -0.776718         48.9787
5.12                   -0.795071         47.2265
5.14                   -0.813735          45.464
5.16                   -0.832712         43.6916
5.18                   -0.852001         41.9093
5.2                    -0.871603         40.1174
5.22                   -0.891517          38.316
5.24                   -0.911738         36.5054
5.26                   -0.932267         34.6859
5.28                   -0.953098         32.8577
5.3                    -0.974228         31.0209
5.32                   -0.995649          29.176
5.34                    -1.01736         27.3232
5.36                    -1.03934         25.4629
5.38                     -1.0616         23.5954
5.4                     -1.08412         21.7209
5.42                     -1.1069         19.8399
5.44                    -1.12992         17.9528
5.46                    -1.15317         16.0598
5.48                    -1.17664         14.1614
5.5                     -1.20033         12.2581
5.52                    -1.22421         10.3501
5.54                    -1.24828         8.43796
5.56                    -1.27253         6.52208
5.58                    -1.29693          4.6029
5.6                     -1.32148         2.68088
5.62                    -1.34616        0.756467
5.64                    -1.37097        -1.16986
5.66                    -1.39587        -3.09764
5.68                    -1.42087        -5.02637
5.7                     -1.44594        -6.95559
5.72                    -1.47106        -8.88479
5.74                    -1.49623        -10.8135
5.76                    -1.52143        -12.7411
5.78                    -1.54664        -14.6673
5.8                     -1.57184        -16.5915
5.82                    -1.59702        -18.5131
5.84                    -1.62216        -20.4318
5.86                    -1.64725         -22.347
5.88                    -1.67226        -24.2582
5.9                     -1.69718        -26.1649
5.92                    -1.72198        -28.0667
5.94                    -1.74666        -29.9631
5.96                     -1.7712        -31.8536
5.98                    -1.79557        -33.7379
6                       -1.81975        -35.6154
6.02                    -1.84374        -37.4859
6.04                     -1.8675        -39.3488
6.06                    -1.89103        -41.2038
6.08                     -1.9143        -43.0506
6.1                     -1.93731        -44.8889
6.12                    -1.96003        -46.7183
6.14                    -1.98245        -48.5385
6.16                    -2.00456        -50.3493
6.18                    -2.02635        -52.1504
6.2                     -2.04781        -53.9418
6.22                    -2.06893         -55.723
6.24                    -2.08972        -57.4941
6.26                    -2.11016        -59.2548
6.28                    -2.13028         -61.005
6.3                     -2.15007        -62.7447
6.32                    -2.16954        -64.4737
6.34                    -2.18872         -66.192
6.36                    -2.20761        -67.8994
6.38                    -2.22626         -69.596
6.4                     -2.24468        -71.2816
6.42                    -2.26291        -72.9561
6.44                    -2.28099        -74.6195
6.46                    -2.29895        -76.2716
6.48                    -2.31685        -77.9124
6.5                     -2.33473        -79.5415
