! TOUCHSTONE file generated by CST MICROWAVE STUDIO
! Date and time: Fri Oct 28 18:45:11 2022
! Project name: L.cst
! Parameters = {Di=1.27; Epsilon_r=1.56; InnerDiameter=1.27; Length=2; Lf=10; Lg=60; OuterConductorThickness=0.2921; OuterDiameter=3.6; Wf=3; Wp=41.2; de=1.5; df=6.8; g=0.8; gx=3.70401; gy=3.18383; h=2.34; hf=1.524; px=14.3492; py=8.08314; w=9.7; wx=10.6452; wy=4.89931}
! Header version: 2018
! Port assignment regex: !\s*Touchstone port\s*([0-9]+)\s*=\s*(CST MWS port|CST DS port)\s*([0-9]+|Zmin|Zmax)\s*\(\"(.*)\"\)(\s*mode\s*([0-9]+))?.*
! Touchstone port assignment:
! Touchstone port 1 = CST MWS port 1 ("")
# GHz S DB R 50
4.5                    -0.852137         83.9878
4.52                   -0.902847         82.1391
4.54                   -0.951394         80.3149
4.56                   -0.993681         78.4645
4.58                    -1.03397         76.5413
4.6                     -1.07988         74.5452
4.62                    -1.13496         72.5155
4.64                    -1.19605         70.4889
4.66                    -1.25709         68.4646
4.68                    -1.31527         66.4088
4.7                     -1.37334         64.2891
4.72                    -1.43662         62.1038
4.74                    -1.50781         59.8792
4.76                    -1.58494         57.6414
4.78                    -1.66378         55.3913
4.8                     -1.74211         53.1049
4.82                    -1.82183         50.7575
4.84                    -1.90692         48.3458
4.86                    -1.99969         45.8888
4.88                    -2.09892          43.407
4.9                     -2.20136         40.9028
4.92                     -2.3051         38.3581
4.94                    -2.41142         35.7523
4.96                    -2.52354         33.0809
4.98                    -2.64362         30.3583
5                       -2.77089         27.6025
5.02                    -2.90266         24.8173
5.04                    -3.03699         21.9887
5.06                    -3.17467          19.098
5.08                    -3.31844          16.139
5.1                     -3.47043         13.1233
5.12                    -3.63022         10.0681
5.14                    -3.79529         6.97964
5.16                    -3.96343         3.84667
5.18                    -4.13486        0.650789
5.2                     -4.31197        -2.61641
5.22                    -4.49699        -5.94556
5.24                    -4.68976        -9.31851
5.26                    -4.88768        -12.7256
5.28                    -5.08796        -16.1755
5.3                     -5.29003        -19.6875
5.32                    -5.49596        -23.2734
5.34                    -5.70824        -26.9259
5.36                    -5.92702        -30.6242
5.38                    -6.14949        -34.3534
5.4                     -6.37187        -38.1183
5.42                    -6.59254        -41.9398
5.44                    -6.81319         -45.835
5.46                    -7.03685        -49.7989
5.48                    -7.26439        -53.8066
5.5                     -7.49283        -57.8336
5.52                     -7.7171        -61.8782
5.54                    -7.93409        -65.9633
5.56                    -8.14509        -70.1137
5.58                    -8.35428        -74.3299
5.6                     -8.56419        -78.5811
5.62                    -8.77226        -82.8284
5.64                    -8.97205        -87.0588
5.66                    -9.15835         -91.297
5.68                    -9.33199        -95.5827
5.7                     -9.49927        -99.9288
5.72                    -9.66607        -104.301
5.74                    -9.83165        -108.642
5.76                    -9.98816        -112.921
5.78                    -10.1273        -117.164
5.8                     -10.2485        -121.441
5.82                    -10.3616        -125.794
5.84                    -10.4786        -130.195
5.86                    -10.6033        -134.562
5.88                     -10.727        -138.831
5.9                     -10.8363        -143.028
5.92                    -10.9277        -147.266
5.94                    -11.0162        -151.645
5.96                    -11.1262        -156.153
5.98                     -11.273        -160.652
6                       -11.4488        -164.981
6.02                     -11.629        -169.106
6.04                    -11.7973        -173.177
6.06                    -11.9701        -177.404
6.08                    -12.1933         178.181
6.1                     -12.5071         173.845
6.12                     -12.905         170.032
6.14                    -13.3207         167.015
6.16                    -13.6751          164.53
6.18                     -13.971         161.883
6.2                     -14.3361         158.716
6.22                    -14.9356         155.796
6.24                    -15.7908         155.232
6.26                    -16.5009         159.423
6.28                    -16.2361         166.632
6.3                     -14.8983         169.555
6.32                    -13.3804         164.893
6.34                    -12.3303         154.566
6.36                    -11.9762          141.04
6.38                    -12.3979         126.151
6.4                     -13.6575         111.481
6.42                    -15.8236         99.0022
6.44                    -18.8665         92.0092
6.46                    -22.1672         94.9308
6.48                    -24.2652         104.244
6.5                     -25.7378         105.782
