! TOUCHSTONE file generated by CST MICROWAVE STUDIO
! Date and time: Wed Oct 26 17:32:34 2022
! Project name: L.cst
! Parameters = {Di=1.27; Epsilon_r=1.56; InnerDiameter=1.27; Length=2; Lf=10; Lg=60; OuterConductorThickness=0.2921; OuterDiameter=3.6; Wf=3; Wp=41.2; de=1.5; df=6.8; g=0.8; gx=3.08783; gy=4.17346; h=2.34; hf=1.524; px=8.58511; py=11.725; w=9.7; wx=5.49729; wy=7.55155}
! Header version: 2018
! Port assignment regex: !\s*Touchstone port\s*([0-9]+)\s*=\s*(CST MWS port|CST DS port)\s*([0-9]+|Zmin|Zmax)\s*\(\"(.*)\"\)(\s*mode\s*([0-9]+))?.*
! Touchstone port assignment:
! Touchstone port 1 = CST MWS port 1 ("")
# GHz S DB R 50
4.5                    -0.306133         95.9471
4.52                    -0.31389         94.5548
4.54                   -0.321799          93.153
4.56                   -0.329869         91.7417
4.58                   -0.338103         90.3207
4.6                    -0.346505         88.8901
4.62                   -0.355077         87.4497
4.64                    -0.36382         85.9994
4.66                   -0.372734         84.5392
4.68                   -0.381817          83.069
4.7                    -0.391069         81.5887
4.72                   -0.400487         80.0982
4.74                    -0.41007         78.5975
4.76                   -0.419814         77.0864
4.78                   -0.429721         75.5649
4.8                    -0.439787         74.0328
4.82                   -0.450011         72.4902
4.84                   -0.460392         70.9369
4.86                   -0.470929         69.3729
4.88                   -0.481622          67.798
4.9                     -0.49247         66.2123
4.92                   -0.503475         64.6156
4.94                   -0.514635          63.008
4.96                   -0.525951         61.3893
4.98                   -0.537424         59.7597
5                      -0.549054          58.119
5.02                   -0.560844         56.4672
5.04                   -0.572791         54.8044
5.06                   -0.584897         53.1306
5.08                   -0.597162         51.4458
5.1                    -0.609585           49.75
5.12                   -0.622167         48.0434
5.14                   -0.634906         46.3259
5.16                   -0.647802         44.5977
5.18                   -0.660851         42.8589
5.2                    -0.674052         41.1095
5.22                   -0.687404         39.3497
5.24                   -0.700901         37.5797
5.26                    -0.71454         35.7996
5.28                   -0.728317         34.0095
5.3                    -0.742227         32.2096
5.32                   -0.756267         30.4002
5.34                   -0.770426         28.5813
5.36                   -0.784701         26.7533
5.38                   -0.799084         24.9164
5.4                    -0.813569         23.0709
5.42                   -0.828146         21.2168
5.44                   -0.842809         19.3547
5.46                   -0.857547         17.4846
5.48                   -0.872352          15.607
5.5                    -0.887215         13.7222
5.52                   -0.902126         11.8303
5.54                   -0.917075          9.9319
5.56                   -0.932051         8.02719
5.58                   -0.947046         6.11656
5.6                    -0.962047         4.20038
5.62                   -0.977044         2.27903
5.64                   -0.992026        0.352874
5.66                    -1.00698        -1.57768
5.68                     -1.0219        -3.51223
5.7                     -1.03677        -5.45036
5.72                    -1.05158        -7.39167
5.74                    -1.06632        -9.33572
5.76                    -1.08098         -11.282
5.78                    -1.09554        -13.2303
5.8                        -1.11          -15.18
5.82                    -1.12434        -17.1306
5.84                    -1.13854        -19.0819
5.86                    -1.15261        -21.0332
5.88                    -1.16651        -22.9842
5.9                     -1.18025        -24.9344
5.92                    -1.19381        -26.8834
5.94                    -1.20718        -28.8308
5.96                    -1.22034        -30.7761
5.98                    -1.23328        -32.7188
6                       -1.24598        -34.6587
6.02                    -1.25844        -36.5953
6.04                    -1.27064        -38.5281
6.06                    -1.28257        -40.4569
6.08                    -1.29421        -42.3813
6.1                     -1.30556        -44.3009
6.12                    -1.31659        -46.2153
6.14                     -1.3273        -48.1244
6.16                    -1.33768        -50.0278
6.18                    -1.34772        -51.9253
6.2                     -1.35741        -53.8166
6.22                    -1.36674        -55.7015
6.24                    -1.37571        -57.5798
6.26                    -1.38431        -59.4513
6.28                    -1.39255         -61.316
6.3                     -1.40042        -63.1737
6.32                    -1.40794        -65.0242
6.34                     -1.4151        -66.8675
6.36                    -1.42192        -68.7036
6.38                    -1.42842        -70.5324
6.4                     -1.43461        -72.3537
6.42                    -1.44051        -74.1677
6.44                    -1.44616        -75.9743
6.46                    -1.45158        -77.7734
6.48                     -1.4568         -79.565
6.5                     -1.46187        -81.3491
