! TOUCHSTONE file generated by CST MICROWAVE STUDIO
! Date and time: Thu Oct 27 19:03:57 2022
! Project name: L.cst
! Parameters = {Di=1.27; Epsilon_r=1.56; InnerDiameter=1.27; Length=2; Lf=10; Lg=60; OuterConductorThickness=0.2921; OuterDiameter=3.6; Wf=3; Wp=41.2; de=1.5; df=6.8; g=0.8; gx=1.85625; gy=2.89035; h=2.34; hf=1.524; px=14.4014; py=8.39839; w=9.7; wx=12.5452; wy=5.50803}
! Header version: 2018
! Port assignment regex: !\s*Touchstone port\s*([0-9]+)\s*=\s*(CST MWS port|CST DS port)\s*([0-9]+|Zmin|Zmax)\s*\(\"(.*)\"\)(\s*mode\s*([0-9]+))?.*
! Touchstone port assignment:
! Touchstone port 1 = CST MWS port 1 ("")
# GHz S DB R 50
4.5                      -4.3274         59.2274
4.52                    -4.70091         56.7612
4.54                    -5.10321         54.4276
4.56                    -5.52324         52.1339
4.58                     -5.9784         49.8051
4.6                      -6.4866         47.5556
4.62                    -7.03742         45.5209
4.64                    -7.61658         43.6507
4.66                    -8.23957         41.8717
4.68                     -8.9265         40.3173
4.7                     -9.66816         39.1672
4.72                    -10.4481         38.4356
4.74                     -11.275         38.0989
4.76                    -12.1667         38.3407
4.78                    -13.1053         39.4799
4.8                     -14.0449         41.6264
4.82                    -14.9662         44.7838
4.84                    -15.8433         49.2034
4.86                    -16.5826         55.0571
4.88                    -17.0754         61.9221
4.9                     -17.2899         69.0441
4.92                    -17.2452         75.8935
4.94                    -16.9575          81.973
4.96                    -16.4947         86.7119
4.98                    -15.9684         90.0196
5                       -15.4379         92.2078
5.02                    -14.9162         93.4428
5.04                    -14.4271         93.7626
5.06                    -14.0015         93.3125
5.08                    -13.6495         92.3216
5.1                     -13.3591         90.8996
5.12                    -13.1327         88.9973
5.14                    -12.9925         86.6488
5.16                    -12.9485         83.9792
5.18                     -13.001           81.02
5.2                     -13.1657         77.7138
5.22                    -13.4821           74.04
5.24                    -14.0034         70.1069
5.26                    -14.7909         66.0767
5.28                    -15.9542         62.1334
5.3                     -17.7218         58.9017
5.32                    -20.5384         58.7538
5.34                    -25.1101         71.9851
5.36                    -27.0492         127.805
5.38                    -21.1788         157.168
5.4                     -16.7744          158.24
5.42                    -13.8648         152.221
5.44                    -11.9048         143.928
5.46                    -10.5976         135.016
5.48                    -9.75436         126.183
5.5                      -9.2514         117.661
5.52                    -9.01479         109.465
5.54                    -9.00741         101.542
5.56                    -9.21351         93.8333
5.58                    -9.63299         86.2046
5.6                      -10.302         78.3972
5.62                    -11.3194         70.0962
5.64                    -12.8792         60.8993
5.66                    -15.3976         49.8681
5.68                    -20.0879         32.9999
5.7                     -30.0241        -44.1238
5.72                    -18.8007        -134.491
5.74                    -12.1538        -157.638
5.76                    -8.62245         179.151
5.78                    -8.19941         173.321
5.8                     -5.11516         166.335
5.82                    -3.29125         152.573
5.84                     -2.2283         139.453
5.86                     -1.6049         127.638
5.88                    -1.25268         117.131
5.9                     -1.06626         107.739
5.92                   -0.985315         99.1908
5.94                   -0.980744         91.2631
5.96                    -1.03255         83.8035
5.98                    -1.12149         76.6378
6                       -1.23676         69.5184
6.02                    -1.38857         62.1067
6.04                     -1.6115         54.1701
6.06                     -1.9238         45.3839
6.08                    -2.36772         34.9667
6.1                     -3.07375         21.4279
6.12                    -4.34725         1.78791
6.14                      -6.791        -31.9383
6.16                    -9.45903        -103.021
6.18                    -5.94204         176.728
6.2                     -2.79487         133.381
6.22                    -1.46721         107.853
6.24                   -0.903304         91.0082
6.26                   -0.665298         78.6024
6.28                   -0.624048         68.9143
6.3                    -0.657542         61.4032
6.32                   -0.595339         55.0235
6.34                   -0.442144         47.2655
6.36                   -0.893951         29.3826
6.38                  -0.0482595         52.4384
6.4                    -0.442329         38.7653
6.42                    -0.70357         34.0458
6.44                   -0.647942         30.6059
6.46                   -0.509941         26.0913
6.48                   -0.544632         21.2067
6.5                    -0.680613         17.4378
