! TOUCHSTONE file generated by CST MICROWAVE STUDIO
! Date and time: Fri Oct 28 01:15:09 2022
! Project name: L.cst
! Parameters = {Di=1.27; Epsilon_r=1.56; InnerDiameter=1.27; Length=2; Lf=10; Lg=60; OuterConductorThickness=0.2921; OuterDiameter=3.6; Wf=3; Wp=41.2; de=1.5; df=6.8; g=0.8; gx=1.05316; gy=1.78111; h=2.34; hf=1.524; px=12.5451; py=8.73267; w=9.7; wx=11.4919; wy=6.95156}
! Header version: 2018
! Port assignment regex: !\s*Touchstone port\s*([0-9]+)\s*=\s*(CST MWS port|CST DS port)\s*([0-9]+|Zmin|Zmax)\s*\(\"(.*)\"\)(\s*mode\s*([0-9]+))?.*
! Touchstone port assignment:
! Touchstone port 1 = CST MWS port 1 ("")
# GHz S DB R 50
4.5                     -7.15201         43.6564
4.52                    -7.75356         41.4382
4.54                    -8.42215          39.467
4.56                    -9.13108         37.8153
4.58                    -9.87802         36.3345
4.6                     -10.6984         35.0352
4.62                    -11.6082         34.2127
4.64                    -12.5798         34.0807
4.66                    -13.5988         34.5892
4.68                    -14.6958         35.8372
4.7                     -15.8772         38.3605
4.72                    -17.0647         42.6765
4.74                    -18.1566         48.8295
4.76                    -19.0809         56.8022
4.78                    -19.6979         66.6216
4.8                     -19.8227         77.2171
4.82                    -19.4812          86.692
4.84                    -18.8719         94.2339
4.86                    -18.1222         99.9569
4.88                    -17.3049         103.899
4.9                       -16.51         106.211
4.92                    -15.7938         107.381
4.94                    -15.1481         107.828
4.96                    -14.5543         107.642
4.98                    -14.0233         106.848
5                       -13.5678         105.625
5.02                    -13.1738         104.151
5.04                     -12.822         102.429
5.06                    -12.5147         100.401
5.08                    -12.2625         98.1232
5.1                     -12.0592         95.6987
5.12                    -11.8902         93.1202
5.14                    -11.7554         90.3081
5.16                     -11.666         87.2587
5.18                    -11.6227          84.037
5.2                      -11.615         80.6387
5.22                    -11.6415          76.971
5.24                    -11.7141         72.9785
5.26                    -11.8405         68.6852
5.28                    -12.0151          64.078
5.3                     -12.2352         59.0361
5.32                    -12.5132         53.4215
5.34                    -12.8629          47.164
5.36                    -13.2835         40.1797
5.38                    -13.7652         32.2449
5.4                     -14.3048         23.0181
5.42                     -14.895         12.1636
5.44                    -15.4926       -0.612355
5.46                    -15.9969        -15.5728
5.48                    -16.2646        -32.7508
5.5                      -16.165        -51.5373
5.52                    -15.6585        -70.6139
5.54                    -14.8278        -88.6147
5.56                    -13.8225        -104.841
5.58                    -12.7877        -119.288
5.6                     -11.8349        -132.222
5.62                     -11.035        -143.846
5.64                    -10.4184        -154.234
5.66                    -9.98864        -163.404
5.68                    -9.74389         -171.32
5.7                     -9.68107        -177.771
5.72                    -9.76791         177.717
5.74                    -9.89623          175.73
5.76                    -9.85587         176.462
5.78                    -9.39456         178.992
5.8                     -8.39962        -178.842
5.82                    -7.02998         -179.17
5.84                    -5.59005         177.301
5.86                    -4.32184         171.197
5.88                    -3.33144         163.621
5.9                     -2.61686         155.542
5.92                    -2.12323         147.539
5.94                    -1.79388         139.836
5.96                    -1.59323         132.509
5.98                     -1.4931         125.647
6                       -1.45522         119.289
6.02                     -1.4462         113.301
6.04                    -1.46422         107.496
6.06                    -1.52416         101.874
6.08                    -1.61375         96.5627
6.1                      -1.6962         91.4831
6.12                    -1.76999         86.3195
6.14                    -1.88315         80.9827
6.16                    -2.05306         75.7983
6.18                      -2.216         70.9079
6.2                     -2.33035         65.7139
6.22                     -2.5097         59.6072
6.24                    -2.93395         53.2527
6.26                    -3.59038         48.5594
6.28                    -4.10508         46.6528
6.3                     -4.07723          45.115
6.32                    -3.73044         40.2977
6.34                    -3.59303         32.1397
6.36                    -3.86418          23.021
6.38                    -4.35871         14.7369
6.4                     -4.78337         6.76109
6.42                    -5.12128        -2.95535
6.44                    -5.61263        -15.2833
6.46                    -6.38028        -29.5609
6.48                    -7.27308         -45.531
6.5                     -8.02222        -64.7602
