! TOUCHSTONE file generated by CST MICROWAVE STUDIO
! Date and time: Wed Oct 26 20:16:22 2022
! Project name: L.cst
! Parameters = {Di=1.27; Epsilon_r=1.56; InnerDiameter=1.27; Length=2; Lf=10; Lg=60; OuterConductorThickness=0.2921; OuterDiameter=3.6; Wf=3; Wp=41.2; de=1.5; df=6.8; g=0.8; gx=1.93439; gy=3.134; h=2.34; hf=1.524; px=8.92956; py=12.5993; w=9.7; wx=6.99517; wy=9.46535}
! Header version: 2018
! Port assignment regex: !\s*Touchstone port\s*([0-9]+)\s*=\s*(CST MWS port|CST DS port)\s*([0-9]+|Zmin|Zmax)\s*\(\"(.*)\"\)(\s*mode\s*([0-9]+))?.*
! Touchstone port assignment:
! Touchstone port 1 = CST MWS port 1 ("")
# GHz S DB R 50
4.5                    -0.464441         86.9154
4.52                   -0.480508         85.4911
4.54                   -0.495469         84.0536
4.56                   -0.509497         82.6013
4.58                   -0.522784         81.1326
4.6                    -0.535538         79.6465
4.62                   -0.547963         78.1422
4.64                   -0.560264          76.619
4.66                   -0.572632         75.0767
4.68                    -0.58524         73.5153
4.7                    -0.598243         71.9348
4.72                   -0.611773         70.3355
4.74                    -0.62594         68.7176
4.76                   -0.640831         67.0815
4.78                   -0.656511         65.4277
4.8                    -0.673024         63.7565
4.82                   -0.690396         62.0684
4.84                   -0.708632         60.3638
4.86                   -0.727727         58.6429
4.88                    -0.74766         56.9061
4.9                      -0.7684         55.1536
4.92                   -0.789907         53.3856
4.94                   -0.812139         51.6021
4.96                   -0.835044         49.8031
4.98                   -0.858574         47.9887
5                      -0.882676         46.1587
5.02                   -0.907301          44.313
5.04                   -0.932401         42.4513
5.06                   -0.957934         40.5734
5.08                   -0.983859         38.6789
5.1                     -1.01014         36.7677
5.12                    -1.03676         34.8393
5.14                    -1.06369         32.8933
5.16                    -1.09091         30.9295
5.18                    -1.11841         28.9475
5.2                      -1.1462          26.947
5.22                    -1.17427         24.9276
5.24                    -1.20263         22.8891
5.26                    -1.23129         20.8312
5.28                    -1.26028         18.7537
5.3                      -1.2896         16.6565
5.32                    -1.31929         14.5393
5.34                    -1.34937         12.4022
5.36                    -1.37986         10.2451
5.38                    -1.41079          8.0681
5.4                     -1.44218         5.87119
5.42                    -1.47407         3.65455
5.44                    -1.50647         1.41836
5.46                    -1.53941        -0.83712
5.48                     -1.5729        -3.11161
5.5                     -1.60696        -5.40476
5.52                     -1.6416         -7.7162
5.54                    -1.67682        -10.0455
5.56                    -1.71263        -12.3922
5.58                    -1.74902        -14.7557
5.6                     -1.78597        -17.1357
5.62                    -1.82347        -19.5314
5.64                    -1.86149        -21.9425
5.66                        -1.9        -24.3682
5.68                    -1.93897        -26.8081
5.7                     -1.97834        -29.2616
5.72                    -2.01807        -31.7282
5.74                     -2.0581        -34.2074
5.76                    -2.09835        -36.6986
5.78                    -2.13877        -39.2015
5.8                     -2.17928        -41.7158
5.82                     -2.2198        -44.2412
5.84                    -2.26026        -46.7775
5.86                    -2.30056        -49.3246
5.88                    -2.34062        -51.8826
5.9                     -2.38038        -54.4517
5.92                    -2.41975        -57.0321
5.94                    -2.45867        -59.6244
5.96                    -2.49709        -62.2292
5.98                    -2.53495        -64.8473
6                       -2.57225        -67.4796
6.02                    -2.60897        -70.1275
6.04                    -2.64514        -72.7924
6.06                    -2.68082        -75.4758
6.08                     -2.7161        -78.1795
6.1                      -2.7511        -80.9057
6.12                    -2.78601        -83.6564
6.14                    -2.82105        -86.4342
6.16                    -2.85652        -89.2417
6.18                    -2.89277        -92.0815
6.2                     -2.93023        -94.9566
6.22                    -2.96939        -97.8702
6.24                    -3.01085        -100.825
6.26                    -3.05527        -103.825
6.28                    -3.10344        -106.872
6.3                     -3.15622        -109.971
6.32                    -3.21463        -113.125
6.34                    -3.27977        -116.336
6.36                    -3.35291        -119.609
6.38                    -3.43545        -122.946
6.4                     -3.52897         -126.35
6.42                    -3.63523        -129.824
6.44                    -3.75622        -133.372
6.46                    -3.89416        -136.996
6.48                    -4.05159        -140.698
6.5                     -4.23136        -144.481
