! TOUCHSTONE file generated by CST MICROWAVE STUDIO
! Date and time: Fri Oct 28 20:29:07 2022
! Project name: L.cst
! Parameters = {Di=1.27; Epsilon_r=1.56; InnerDiameter=1.27; Length=2; Lf=10; Lg=60; OuterConductorThickness=0.2921; OuterDiameter=3.6; Wf=3; Wp=41.2; de=1.5; df=6.8; g=0.8; gx=1.31422; gy=2.55381; h=2.34; hf=1.524; px=12.3876; py=14.3067; w=9.7; wx=11.0733; wy=11.7529}
! Header version: 2018
! Port assignment regex: !\s*Touchstone port\s*([0-9]+)\s*=\s*(CST MWS port|CST DS port)\s*([0-9]+|Zmin|Zmax)\s*\(\"(.*)\"\)(\s*mode\s*([0-9]+))?.*
! Touchstone port assignment:
! Touchstone port 1 = CST MWS port 1 ("")
# GHz S DB R 50
4.5                     -2.59392         67.1556
4.52                    -2.78947         65.0527
4.54                    -2.93619         63.3535
4.56                    -3.13621         61.2016
4.58                    -3.31873         59.5202
4.6                     -3.52513         57.3702
4.62                     -3.7437         55.6841
4.64                     -3.9604         53.5848
4.66                    -4.21319         51.8854
4.68                    -4.44496         49.8762
4.7                     -4.72934          48.171
4.72                    -4.98037         46.2843
4.74                    -5.29367         44.5917
4.76                    -5.56713         42.8597
4.78                    -5.90568         41.2044
4.8                     -6.20423         39.6572
4.82                    -6.56279          38.074
4.84                     -6.8876         36.7319
4.86                    -7.26041         35.2655
4.88                    -7.60957         34.1405
4.9                     -7.99049         32.8323
4.92                    -8.35935         31.9313
4.94                    -8.74078         30.8106
4.96                    -9.12289         30.1261
4.98                    -9.49588         29.2072
5                       -9.88326         28.7037
5.02                    -10.2398         27.9801
5.04                    -10.6231         27.5926
5.06                     -10.958         27.0194
5.08                    -11.3299         26.6576
5.1                     -11.6422         26.1489
5.12                    -12.0011         25.6937
5.14                    -12.2966         25.1387
5.16                     -12.649          24.448
5.18                    -12.9438         23.7244
5.2                     -13.3041           22.65
5.22                     -13.627         21.6182
5.24                    -14.0218         20.0208
5.26                    -14.4154         18.5235
5.28                    -14.8889         16.2539
5.3                     -15.4178         14.0955
5.32                    -16.0443         10.9394
5.34                      -16.82         7.81122
5.36                    -17.7366         3.37309
5.38                    -18.9818        -1.44567
5.4                      -20.502        -8.28796
5.42                    -22.7745        -17.4793
5.44                    -25.7967         -32.961
5.46                    -30.0252        -69.1776
5.48                    -29.4667        -131.115
5.5                     -24.2605        -166.928
5.52                    -20.3544         175.583
5.54                    -17.2664         163.775
5.56                    -14.9237         153.033
5.58                    -12.9871         143.606
5.6                     -11.3905         133.719
5.62                     -10.084         124.323
5.64                    -8.94381         114.333
5.66                    -8.03861         104.255
5.68                    -7.20571         93.4598
5.7                      -6.5674         81.5761
5.72                    -5.98329         68.2002
5.74                    -5.60697         51.4367
5.76                    -5.50591         30.0502
5.78                     -6.0874        -1.19221
5.8                     -8.33777        -46.5624
5.82                    -11.5292        -111.303
5.84                    -11.7343        -179.106
5.86                    -10.2739         140.682
5.88                    -9.00066         116.956
5.9                     -8.36788         100.151
5.92                    -7.90272          89.157
5.94                    -7.54141         79.4607
5.96                    -6.94932         75.5202
5.98                    -4.92767         64.8577
6                       -4.21593         42.3796
6.02                      -5.359         24.2426
6.04                    -6.29778         14.1504
6.06                     -6.9495         2.29094
6.08                    -7.71924        -8.54534
6.1                     -8.16377        -21.7681
6.12                    -8.86771        -37.6051
6.14                    -9.27865        -55.6181
6.16                    -9.63811         -79.378
6.18                    -9.67684        -104.557
6.2                     -8.81131        -133.754
6.22                    -7.82873        -163.684
6.24                    -6.25488         168.179
6.26                    -4.99022         135.823
6.28                    -4.44797         105.555
6.3                     -3.30497         65.6207
6.32                      -3.552        -3.28782
6.34                    -3.83905        -98.6475
6.36                    -2.93907        -176.276
6.38                    -3.32552          145.92
6.4                     -2.32546         124.554
6.42                    -2.44326         103.818
6.44                    -2.12817         92.4978
6.46                    -2.32964         75.0543
6.48                    -2.71143          66.401
6.5                     -3.99161         38.9354
