! TOUCHSTONE file generated by CST MICROWAVE STUDIO
! Date and time: Wed Oct 26 20:08:36 2022
! Project name: L.cst
! Parameters = {Di=1.27; Epsilon_r=1.56; InnerDiameter=1.27; Length=2; Lf=10; Lg=60; OuterConductorThickness=0.2921; OuterDiameter=3.6; Wf=3; Wp=41.2; de=1.5; df=6.8; g=0.8; gx=2.30258; gy=1.27392; h=2.34; hf=1.524; px=10.678; py=13.0194; w=9.7; wx=8.37543; wy=11.7455}
! Header version: 2018
! Port assignment regex: !\s*Touchstone port\s*([0-9]+)\s*=\s*(CST MWS port|CST DS port)\s*([0-9]+|Zmin|Zmax)\s*\(\"(.*)\"\)(\s*mode\s*([0-9]+))?.*
! Touchstone port assignment:
! Touchstone port 1 = CST MWS port 1 ("")
# GHz S DB R 50
4.5                     -1.07172         62.6698
4.52                    -1.07392         60.7577
4.54                    -1.08228         58.3442
4.56                     -1.1554          55.849
4.58                    -1.24228         53.6773
4.6                     -1.27912         51.5643
4.62                    -1.29531         49.0855
4.64                    -1.35313         46.3644
4.66                      -1.443         43.7916
4.68                    -1.50802         41.3556
4.7                     -1.54213         38.6991
4.72                    -1.59442         35.7354
4.74                    -1.68302         32.7481
4.76                    -1.76954         29.8828
4.78                     -1.8273         26.9145
4.8                     -1.88404         23.6409
4.82                    -1.97147         20.1987
4.84                    -2.07385         16.7968
4.86                    -2.15789         13.3589
4.88                    -2.22876         9.65696
4.9                     -2.31887         5.68051
4.92                    -2.43354         1.62048
4.94                    -2.54487         -2.4697
4.96                    -2.63953        -6.76823
4.98                    -2.73997         -11.398
5                       -2.86644        -16.2481
5.02                    -3.00509        -21.1815
5.04                    -3.13231        -26.2708
5.06                     -3.2534        -31.6858
5.08                    -3.39294        -37.4279
5.1                     -3.55455        -43.3433
5.12                    -3.71524         -49.378
5.14                    -3.86151        -55.6643
5.16                    -4.00926        -62.3066
5.18                    -4.17621        -69.2129
5.2                     -4.35212        -76.2361
5.22                    -4.51315        -83.3955
5.24                    -4.65822        -90.8324
5.26                    -4.81048        -98.5668
5.28                    -4.98216        -106.437
5.3                     -5.15804         -114.31
5.32                    -5.32303        -122.236
5.34                    -5.49215        -130.307
5.36                    -5.69563        -138.418
5.38                    -5.94009         -146.31
5.4                     -6.20327        -153.825
5.42                    -6.47117        -161.006
5.44                     -6.7609        -167.864
5.46                    -7.08792        -174.168
5.48                    -7.42238        -179.627
5.5                     -7.70628         175.745
5.52                    -7.91727         171.658
5.54                    -8.07639         167.988
5.56                    -8.17928          164.88
5.58                    -8.17353         162.273
5.6                     -8.03775         159.681
5.62                    -7.82734         156.749
5.64                    -7.59471         153.629
5.66                     -7.3215         150.526
5.68                    -6.97743         147.208
5.7                     -6.60032         143.332
5.72                    -6.25452         139.011
5.74                    -5.94069         134.623
5.76                    -5.60827         130.185
5.78                    -5.25166         125.324
5.8                      -4.9318         119.906
5.82                     -4.6847         114.277
5.84                    -4.46753         108.715
5.86                    -4.23307         102.942
5.88                    -4.02314         96.5508
5.9                     -3.92026         89.7496
5.92                    -3.91452         83.2406
5.94                     -3.8731         77.2505
5.96                    -3.68403         70.9272
5.98                    -3.39414         63.1278
6                       -3.12222         53.3954
6.02                    -2.92301         41.5336
6.04                    -2.83084         26.7272
6.06                     -2.9799         7.57061
6.08                    -3.58985         -17.462
6.1                     -4.78148        -50.3519
6.12                    -6.16117        -93.8185
6.14                    -6.43419         -145.62
6.16                    -5.23015          167.08
6.18                    -3.87082         130.502
6.2                     -3.03341         102.484
6.22                    -2.66304         80.6463
6.24                    -2.51466         63.0446
6.26                    -2.43518         47.7183
6.28                    -2.42893         33.3159
6.3                     -2.52763         19.4387
6.32                    -2.69772         5.92984
6.34                    -2.90984        -7.71067
6.36                    -3.21533         -21.861
6.38                     -3.6603        -36.1456
6.4                     -4.13999        -49.9688
6.42                    -4.44787        -63.9202
6.44                      -4.566        -79.7694
6.46                    -4.73269        -98.1465
6.48                    -5.09115        -117.422
6.5                      -5.3581        -135.559
