! TOUCHSTONE file generated by CST MICROWAVE STUDIO
! Date and time: Fri Oct 28 16:01:52 2022
! Project name: L.cst
! Parameters = {Di=1.27; Epsilon_r=1.56; InnerDiameter=1.27; Length=2; Lf=10; Lg=60; OuterConductorThickness=0.2921; OuterDiameter=3.6; Wf=3; Wp=41.2; de=1.5; df=6.8; g=0.8; gx=3.65828; gy=0.519313; h=2.34; hf=1.524; px=13.5333; py=13.7148; w=9.7; wx=9.87506; wy=13.1955}
! Header version: 2018
! Port assignment regex: !\s*Touchstone port\s*([0-9]+)\s*=\s*(CST MWS port|CST DS port)\s*([0-9]+|Zmin|Zmax)\s*\(\"(.*)\"\)(\s*mode\s*([0-9]+))?.*
! Touchstone port assignment:
! Touchstone port 1 = CST MWS port 1 ("")
# GHz S DB R 50
4.5                     -2.35381          40.333
4.52                    -2.58743         35.9809
4.54                     -2.6992         30.2575
4.56                    -3.06126         23.8442
4.58                    -3.37153         17.6133
4.6                     -3.79456         9.47415
4.62                    -4.47013         1.45151
4.64                    -5.14371        -7.34984
4.66                    -6.14571        -17.4793
4.68                    -7.33875        -26.8537
4.7                     -8.58611        -37.5756
4.72                    -10.1888        -48.7734
4.74                    -11.6944        -59.7038
4.76                    -13.1464        -73.7935
4.78                    -14.6267        -88.6371
4.8                     -15.3823        -105.027
4.82                    -15.7023        -124.302
4.84                     -15.563        -140.975
4.86                    -14.7211        -156.323
4.88                     -13.921        -170.648
4.9                      -13.094         178.268
4.92                     -12.245         167.282
4.94                    -11.8099         157.066
4.96                    -11.6157         148.373
4.98                    -11.9796          140.19
5                       -13.2367         138.064
5.02                    -14.2055         149.836
5.04                    -12.2852         166.888
5.06                    -8.89835         167.825
5.08                    -6.47198         158.685
5.1                     -4.91892         147.964
5.12                     -3.8146         137.062
5.14                    -3.07088         126.365
5.16                    -2.50754         116.269
5.18                    -2.06827         105.965
5.2                     -1.79561         95.6654
5.22                    -1.59945         85.2563
5.24                    -1.53493         74.1947
5.26                    -1.62371         62.8861
5.28                    -1.81813         50.9404
5.3                     -2.21409         38.1635
5.32                    -2.79074         24.9423
5.34                    -3.53184         10.6286
5.36                    -4.53004        -4.77527
5.38                    -5.68496         -21.241
5.4                     -6.95535        -40.0572
5.42                    -8.31739        -61.3079
5.44                    -9.38531        -85.1087
5.46                    -9.90045        -111.736
5.48                    -9.81953        -137.928
5.5                     -9.09459        -161.251
5.52                    -8.09746         177.724
5.54                    -7.14562         159.537
5.56                    -6.15342         143.201
5.58                    -5.28089         126.935
5.6                     -4.58086         111.075
5.62                    -3.92035         94.3605
5.64                    -3.47641         75.4715
5.66                    -3.28081         54.4234
5.68                    -3.31331         29.2833
5.7                      -3.8219        -1.62232
5.72                    -4.74025        -38.5006
5.74                    -5.46672        -81.9128
5.76                    -5.41882        -129.047
5.78                    -4.65713        -172.927
5.8                     -3.57454          147.99
5.82                     -2.7466         108.748
5.84                    -2.94187         66.1231
5.86                    -4.45399         19.6162
5.88                    -6.65735        -32.5209
5.9                     -7.85728        -89.3969
5.92                     -7.2989        -137.986
5.94                     -5.8993        -171.893
5.96                    -4.23365         160.338
5.98                     -3.1527         133.789
6                       -2.31238         109.405
6.02                    -1.25387         76.6811
6.04                     -1.5625         25.1498
6.06                    -3.32067        -51.8529
6.08                    -2.48119        -140.234
6.1                    -0.940415         158.986
6.12                    -0.73858          123.27
6.14                    -0.45292         99.7458
6.16                    -0.52589         77.2553
6.18                     -1.2879         60.0912
6.2                     -1.68668         46.2252
6.22                    -2.39487         30.8461
6.24                    -3.37781         20.0149
6.26                    -3.82883         8.85743
6.28                     -4.8137        -3.51503
6.3                     -5.58833        -11.3546
6.32                    -5.99578        -23.1276
6.34                    -7.07568        -33.5313
6.36                    -7.37181        -41.5613
6.38                    -7.83916        -55.6879
6.4                     -8.77682        -65.7641
6.42                    -8.97234        -78.0972
6.44                    -10.3617        -92.3269
6.46                    -11.1441        -94.2544
6.48                    -10.5694        -105.786
6.5                     -11.4952        -116.083
