! TOUCHSTONE file generated by CST MICROWAVE STUDIO
! Date and time: Sat Oct 29 18:39:54 2022
! Project name: L.cst
! Parameters = {Di=1.27; Epsilon_r=1.56; InnerDiameter=1.27; Length=2; Lf=10; Lg=60; OuterConductorThickness=0.2921; OuterDiameter=3.6; Wf=3; Wp=41.2; de=1.5; df=6.8; g=0.8; gx=4.00839; gy=0.740336; h=2.34; hf=1.524; px=12.6474; py=9.33502; w=9.7; wx=8.63903; wy=8.59468}
! Header version: 2018
! Port assignment regex: !\s*Touchstone port\s*([0-9]+)\s*=\s*(CST MWS port|CST DS port)\s*([0-9]+|Zmin|Zmax)\s*\(\"(.*)\"\)(\s*mode\s*([0-9]+))?.*
! Touchstone port assignment:
! Touchstone port 1 = CST MWS port 1 ("")
# GHz S DB R 50
4.5                    -0.976539         66.9703
4.52                    -1.04159         64.7623
4.54                    -1.10561         62.5189
4.56                    -1.16852         60.2323
4.58                    -1.23038          57.895
4.6                     -1.29143            55.5
4.62                      -1.352         53.0409
4.64                    -1.41252         50.5119
4.66                     -1.4735         47.9081
4.68                    -1.53544         45.2252
4.7                     -1.59886         42.4597
4.72                    -1.66426         39.6087
4.74                    -1.73211           36.67
4.76                    -1.80279         33.6421
4.78                    -1.87665         30.5236
4.8                     -1.95392         27.3139
4.82                    -2.03476         24.0127
4.84                    -2.11925           20.62
4.86                    -2.20735         17.1361
4.88                    -2.29893         13.5615
4.9                     -2.39377         9.89709
4.92                    -2.49154           6.144
4.94                    -2.59183         2.30362
4.96                    -2.69413        -1.62231
4.98                    -2.79786         -5.6317
5                       -2.90235        -9.72203
5.02                    -3.00689        -13.8903
5.04                    -3.11068        -18.1331
5.06                    -3.21291        -22.4462
5.08                    -3.31273         -26.825
5.1                     -3.40929        -31.2641
5.12                    -3.50176        -35.7575
5.14                    -3.58932        -40.2983
5.16                    -3.67122        -44.8791
5.18                    -3.74678         -49.492
5.2                     -3.81543        -54.1284
5.22                    -3.87668        -58.7792
5.24                    -3.93018        -63.4351
5.26                    -3.97572        -68.0864
5.28                    -4.01322        -72.7239
5.3                     -4.04273         -77.338
5.32                    -4.06446        -81.9196
5.34                    -4.07871        -86.4598
5.36                    -4.08591        -90.9506
5.38                    -4.08658        -95.3844
5.4                     -4.08129        -99.7544
5.42                    -4.07071        -104.054
5.44                    -4.05549        -108.279
5.46                    -4.03634        -112.425
5.48                    -4.01395        -116.487
5.5                     -3.98897        -120.462
5.52                    -3.96206        -124.349
5.54                     -3.9338        -128.146
5.56                    -3.90473        -131.851
5.58                    -3.87536        -135.464
5.6                      -3.8461        -138.986
5.62                    -3.81732        -142.415
5.64                    -3.78933        -145.754
5.66                    -3.76235        -149.003
5.68                    -3.73658        -152.164
5.7                     -3.71214        -155.237
5.72                    -3.68911        -158.226
5.74                    -3.66752        -161.132
5.76                    -3.64737        -163.957
5.78                     -3.6286        -166.704
5.8                     -3.61116        -169.376
5.82                    -3.59497        -171.976
5.84                    -3.57993        -174.506
5.86                    -3.56594         -176.97
5.88                    -3.55291        -179.371
5.9                     -3.54075         178.288
5.92                     -3.5294         176.002
5.94                    -3.51881         173.768
5.96                    -3.50898         171.583
5.98                    -3.49992         169.444
6                        -3.4917         167.346
6.02                    -3.48439         165.286
6.04                    -3.47816         163.261
6.06                    -3.47316         161.268
6.08                    -3.46962         159.305
6.1                     -3.46778         157.369
6.12                    -3.46792         155.457
6.14                    -3.47035         153.569
6.16                    -3.47538         151.703
6.18                    -3.48334         149.858
6.2                     -3.49457         148.034
6.22                    -3.50936         146.232
6.24                    -3.52802         144.451
6.26                    -3.55079         142.694
6.28                     -3.5779         140.962
6.3                     -3.60947         139.257
6.32                    -3.64559         137.583
6.34                    -3.68623          135.94
6.36                    -3.73126         134.334
6.38                    -3.78045         132.767
6.4                     -3.83343         131.243
6.42                    -3.88971         129.764
6.44                    -3.94863         128.334
6.46                    -4.00942         126.955
6.48                    -4.07116         125.628
6.5                     -4.13283         124.354
