! TOUCHSTONE file generated by CST MICROWAVE STUDIO
! Date and time: Sat Oct 29 10:44:04 2022
! Project name: L.cst
! Parameters = {Di=1.27; Epsilon_r=1.56; InnerDiameter=1.27; Length=2; Lf=10; Lg=60; OuterConductorThickness=0.2921; OuterDiameter=3.6; Wf=3; Wp=41.2; de=1.5; df=6.8; g=0.8; gx=2.56056; gy=1.83408; h=2.34; hf=1.524; px=8.63213; py=13.9631; w=9.7; wx=6.07157; wy=12.129}
! Header version: 2018
! Port assignment regex: !\s*Touchstone port\s*([0-9]+)\s*=\s*(CST MWS port|CST DS port)\s*([0-9]+|Zmin|Zmax)\s*\(\"(.*)\"\)(\s*mode\s*([0-9]+))?.*
! Touchstone port assignment:
! Touchstone port 1 = CST MWS port 1 ("")
# GHz S DB R 50
4.5                    -0.567873         74.3803
4.52                   -0.557529         72.6765
4.54                   -0.588117         70.8359
4.56                   -0.623774         69.2382
4.58                   -0.622516         67.5716
4.6                    -0.637456          65.671
4.62                   -0.676815         63.8902
4.64                    -0.69028         62.1835
4.66                   -0.697269          60.264
4.68                   -0.731486         58.3207
4.7                    -0.758134         56.5022
4.72                   -0.765886         54.5601
4.74                   -0.791575         52.4909
4.76                   -0.825775         50.5136
4.78                   -0.840585         48.5117
4.8                    -0.859205         46.3463
4.82                   -0.894382         44.1912
4.84                   -0.918377         42.0749
4.86                    -0.93422         39.8194
4.88                   -0.965461         37.4871
4.9                    -0.996721         35.2011
4.92                    -1.01431         32.8318
4.94                    -1.03945         30.3258
4.96                    -1.07335         27.8223
4.98                    -1.09533         25.2869
5                       -1.11481         22.5955
5.02                    -1.14588         19.8314
5.04                    -1.17196         17.0512
5.06                    -1.18813         14.1276
5.08                    -1.21251         11.0513
5.1                     -1.24036          7.9229
5.12                     -1.2571         4.67022
5.14                    -1.27543         1.20109
5.16                      -1.304         -2.4044
5.18                    -1.32783        -6.13834
5.2                     -1.34842        -10.1264
5.22                    -1.38264        -14.3607
5.24                    -1.42436        -18.7734
5.26                    -1.46443        -23.4609
5.28                    -1.51854        -28.5053
5.3                     -1.59451        -33.8411
5.32                     -1.6805        -39.4963
5.34                    -1.78346        -45.6165
5.36                    -1.92451        -52.2151
5.38                    -2.10364        -59.2605
5.4                     -2.32108         -66.889
5.42                    -2.60652        -75.2236
5.44                    -2.98809        -84.2131
5.46                    -3.47552        -93.8571
5.48                    -4.09944        -104.265
5.5                     -4.91616        -115.351
5.52                    -5.95782        -126.805
5.54                    -7.22963        -138.417
5.56                    -8.76031        -150.025
5.58                    -10.5832        -161.093
5.6                     -12.6477        -170.835
5.62                    -14.8383        -178.857
5.64                     -17.062         175.321
5.66                    -19.0132         172.961
5.68                    -20.0135         172.686
5.7                     -19.8901         169.564
5.72                    -18.9567         161.864
5.74                     -17.329         149.452
5.76                    -15.2741         132.298
5.78                    -13.0498         112.035
5.8                     -10.6644         89.6016
5.82                    -8.20687         63.9362
5.84                    -6.01715         34.3094
5.86                     -4.4206         1.69778
5.88                    -3.55126        -31.9899
5.9                     -3.35074        -64.6458
5.92                    -3.56877         -94.467
5.94                    -3.81654         -121.02
5.96                    -3.85829        -145.766
5.98                    -3.81035        -169.862
6                       -3.79423         167.449
6.02                    -3.66679         146.525
6.04                      -3.414         125.438
6.06                     -3.5002          103.28
6.08                    -4.36188         83.6762
6.1                     -5.42714         73.4122
6.12                    -4.76019         68.6511
6.14                    -2.90632          53.494
6.16                    -1.72471         28.8323
6.18                    -1.54016        0.772973
6.2                     -1.97804        -28.1739
6.22                    -2.55492         -59.379
6.24                    -3.01066        -95.9849
6.26                    -3.20704        -138.402
6.28                    -3.01773         177.821
6.3                     -2.57877         138.745
6.32                    -2.09643          106.71
6.34                     -1.6359         80.3918
6.36                    -1.31719         57.5546
6.38                    -1.24861         37.6116
6.4                     -1.27743         20.6001
6.42                    -1.20119         4.83901
6.44                    -1.15804        -11.5095
6.46                    -1.31288        -27.8335
6.48                    -1.43297         -43.438
6.5                     -1.26445        -60.6664
