! TOUCHSTONE file generated by CST MICROWAVE STUDIO
! Date and time: Fri Oct 28 09:15:33 2022
! Project name: L.cst
! Parameters = {Di=1.27; Epsilon_r=1.56; InnerDiameter=1.27; Length=2; Lf=10; Lg=60; OuterConductorThickness=0.2921; OuterDiameter=3.6; Wf=3; Wp=41.2; de=1.5; df=6.8; g=0.8; gx=2.20139; gy=4.48393; h=2.34; hf=1.524; px=10.9348; py=13.668; w=9.7; wx=8.73342; wy=9.18408}
! Header version: 2018
! Port assignment regex: !\s*Touchstone port\s*([0-9]+)\s*=\s*(CST MWS port|CST DS port)\s*([0-9]+|Zmin|Zmax)\s*\(\"(.*)\"\)(\s*mode\s*([0-9]+))?.*
! Touchstone port assignment:
! Touchstone port 1 = CST MWS port 1 ("")
# GHz S DB R 50
4.5                    -0.482249         94.1039
4.52                   -0.497167         92.6692
4.54                    -0.51225         91.2224
4.56                   -0.527567         89.7634
4.58                   -0.543181         88.2918
4.6                    -0.559155         86.8076
4.62                   -0.575545         85.3106
4.64                   -0.592402         83.8007
4.66                    -0.60977          82.278
4.68                   -0.627691         80.7424
4.7                    -0.646195         79.1939
4.72                   -0.665313         77.6326
4.74                   -0.685068         76.0585
4.76                   -0.705476         74.4716
4.78                   -0.726555         72.8719
4.8                    -0.748314         71.2594
4.82                   -0.770762         69.6342
4.84                   -0.793905         67.9963
4.86                   -0.817747         66.3456
4.88                    -0.84229         64.6821
4.9                     -0.86754         63.0057
4.92                   -0.893496         61.3165
4.94                   -0.920161         59.6144
4.96                   -0.947538         57.8993
4.98                   -0.975631         56.1712
5                       -1.00444           54.43
5.02                    -1.03398         52.6757
5.04                    -1.06426         50.9081
5.06                    -1.09527         49.1273
5.08                    -1.12704         47.3332
5.1                     -1.15956         45.5258
5.12                    -1.19287          43.705
5.14                    -1.22696         41.8709
5.16                    -1.26185         40.0235
5.18                    -1.29756         38.1628
5.2                     -1.33411         36.2888
5.22                    -1.37151         34.4018
5.24                    -1.40978         32.5016
5.26                    -1.44894         30.5885
5.28                    -1.48901         28.6627
5.3                     -1.53001         26.7242
5.32                    -1.57194         24.7733
5.34                    -1.61484         22.8103
5.36                    -1.65872         20.8354
5.38                    -1.70359         18.8489
5.4                     -1.74948         16.8512
5.42                    -1.79638         14.8425
5.44                    -1.84432         12.8233
5.46                    -1.89331         10.7939
5.48                    -1.94335         8.75494
5.5                     -1.99445         6.70676
5.52                    -2.04662         4.64987
5.54                    -2.09985         2.58483
5.56                    -2.15415        0.512167
5.58                     -2.2095        -1.56752
5.6                     -2.26591        -3.65364
5.62                    -2.32336        -5.74556
5.64                    -2.38183        -7.84264
5.66                    -2.44131        -9.94423
5.68                    -2.50177        -12.0497
5.7                     -2.56319        -14.1582
5.72                    -2.62553        -16.2693
5.74                    -2.68877        -18.3821
5.76                    -2.75285         -20.496
5.78                    -2.81774        -22.6103
5.8                     -2.88338        -24.7244
5.82                    -2.94973        -26.8377
5.84                    -3.01672        -28.9495
5.86                     -3.0843        -31.0592
5.88                     -3.1524        -33.1663
5.9                     -3.22096        -35.2704
5.92                    -3.28991         -37.371
5.94                    -3.35918        -39.4678
5.96                    -3.42871        -41.5605
5.98                    -3.49843        -43.6488
6                       -3.56828        -45.7328
6.02                    -3.63822        -47.8124
6.04                    -3.70819        -49.8877
6.06                    -3.77818        -51.9589
6.08                    -3.84815        -54.0264
6.1                     -3.91812        -56.0905
6.12                     -3.9881        -58.1518
6.14                    -4.05814        -60.2109
6.16                    -4.12833        -62.2686
6.18                    -4.19878        -64.3256
6.2                     -4.26962        -66.3828
6.22                    -4.34107        -68.4411
6.24                    -4.41336        -70.5014
6.26                    -4.48678        -72.5643
6.28                    -4.56168        -74.6307
6.3                     -4.63847        -76.7014
6.32                    -4.71762        -78.7766
6.34                    -4.79965        -80.8566
6.36                    -4.88517        -82.9411
6.38                    -4.97485        -85.0296
6.4                     -5.06943        -87.1209
6.42                    -5.16971        -89.2134
6.44                    -5.27656        -91.3044
6.46                    -5.39091        -93.3907
6.48                    -5.51374        -95.4677
6.5                     -5.64608        -97.5297
