! TOUCHSTONE file generated by CST MICROWAVE STUDIO
! Date and time: Sat Oct 29 21:28:35 2022
! Project name: L.cst
! Parameters = {Di=1.27; Epsilon_r=1.56; InnerDiameter=1.27; Length=2; Lf=10; Lg=60; OuterConductorThickness=0.2921; OuterDiameter=3.6; Wf=3; Wp=41.2; de=1.5; df=6.8; g=0.8; gx=3.49613; gy=3.86963; h=2.34; hf=1.524; px=10.7065; py=10.7905; w=9.7; wx=7.21034; wy=6.92091}
! Header version: 2018
! Port assignment regex: !\s*Touchstone port\s*([0-9]+)\s*=\s*(CST MWS port|CST DS port)\s*([0-9]+|Zmin|Zmax)\s*\(\"(.*)\"\)(\s*mode\s*([0-9]+))?.*
! Touchstone port assignment:
! Touchstone port 1 = CST MWS port 1 ("")
# GHz S DB R 50
4.5                    -0.371458         94.5192
4.52                   -0.381685         93.0816
4.54                    -0.39223         91.6322
4.56                   -0.403102         90.1708
4.58                   -0.414311         88.6974
4.6                    -0.425862         87.2119
4.62                   -0.437752         85.7143
4.64                   -0.449982         84.2044
4.66                   -0.462548         82.6824
4.68                   -0.475443         81.1478
4.7                    -0.488662         79.6008
4.72                   -0.502198          78.041
4.74                   -0.516046         76.4684
4.76                   -0.530197         74.8829
4.78                    -0.54465         73.2842
4.8                      -0.5594         71.6721
4.82                   -0.574443         70.0465
4.84                   -0.589779         68.4073
4.86                   -0.605406         66.7542
4.88                   -0.621326          65.087
4.9                     -0.63754         63.4057
4.92                   -0.654053         61.7101
4.94                   -0.670866         60.0001
4.96                   -0.687984         58.2754
4.98                   -0.705412         56.5361
5                      -0.723156         54.7821
5.02                   -0.741222         53.0131
5.04                   -0.759614         51.2293
5.06                   -0.778337         49.4306
5.08                   -0.797396          47.617
5.1                    -0.816794         45.7884
5.12                   -0.836537          43.945
5.14                   -0.856625         42.0867
5.16                    -0.87706         40.2136
5.18                   -0.897842         38.3259
5.2                    -0.918971         36.4236
5.22                   -0.940445         34.5069
5.24                    -0.96226          32.576
5.26                   -0.984409          30.631
5.28                    -1.00689         28.6722
5.3                     -1.02969         26.6997
5.32                    -1.05281         24.7138
5.34                    -1.07622         22.7148
5.36                    -1.09993          20.703
5.38                    -1.12392         18.6787
5.4                     -1.14817         16.6423
5.42                    -1.17266          14.594
5.44                    -1.19739         12.5343
5.46                    -1.22233         10.4636
5.48                    -1.24746         8.38227
5.5                     -1.27277         6.29078
5.52                    -1.29824         4.18957
5.54                    -1.32384         2.07915
5.56                    -1.34954      -0.0399996
5.58                    -1.37534        -2.16735
5.6                     -1.40121        -4.30237
5.62                    -1.42712         -6.4445
5.64                    -1.45305        -8.59316
5.66                    -1.47897        -10.7478
5.68                    -1.50487        -12.9077
5.7                     -1.53072        -15.0724
5.72                    -1.55649        -17.2411
5.74                    -1.58217        -19.4133
5.76                    -1.60772        -21.5882
5.78                    -1.63313        -23.7653
5.8                     -1.65836        -25.9438
5.82                    -1.68341         -28.123
5.84                    -1.70823        -30.3024
5.86                    -1.73281         -32.481
5.88                    -1.75713        -34.6584
5.9                     -1.78115        -36.8338
5.92                    -1.80486        -39.0065
5.94                    -1.82824        -41.1759
5.96                    -1.85125        -43.3412
5.98                    -1.87387        -45.5018
6                       -1.89609        -47.6572
6.02                    -1.91788        -49.8066
6.04                     -1.9392        -51.9494
6.06                    -1.96005        -54.0852
6.08                    -1.98039        -56.2134
6.1                     -2.00021        -58.3333
6.12                    -2.01949        -60.4446
6.14                    -2.03819        -62.5469
6.16                    -2.05631        -64.6396
6.18                    -2.07382        -66.7224
6.2                     -2.09072        -68.7951
6.22                    -2.10698        -70.8572
6.24                    -2.12261        -72.9086
6.26                    -2.13758        -74.9491
6.28                    -2.15191        -76.9784
6.3                     -2.16559        -78.9966
6.32                    -2.17863        -81.0034
6.34                    -2.19105        -82.9989
6.36                    -2.20286         -84.983
6.38                    -2.21409        -86.9557
6.4                     -2.22479        -88.9171
6.42                    -2.23497        -90.8671
6.44                    -2.24471        -92.8059
6.46                    -2.25404        -94.7333
6.48                    -2.26304        -96.6496
6.5                     -2.27177        -98.5545
