! TOUCHSTONE file generated by CST MICROWAVE STUDIO
! Date and time: Fri Oct 28 13:23:11 2022
! Project name: L.cst
! Parameters = {Di=1.27; Epsilon_r=1.56; InnerDiameter=1.27; Length=2; Lf=10; Lg=60; OuterConductorThickness=0.2921; OuterDiameter=3.6; Wf=3; Wp=41.2; de=1.5; df=6.8; g=0.8; gx=1.74262; gy=1.21127; h=2.34; hf=1.524; px=10.7105; py=14.3579; w=9.7; wx=8.96785; wy=13.1466}
! Header version: 2018
! Port assignment regex: !\s*Touchstone port\s*([0-9]+)\s*=\s*(CST MWS port|CST DS port)\s*([0-9]+|Zmin|Zmax)\s*\(\"(.*)\"\)(\s*mode\s*([0-9]+))?.*
! Touchstone port assignment:
! Touchstone port 1 = CST MWS port 1 ("")
# GHz S DB R 50
4.5                     -1.63437         55.2202
4.52                    -1.70485         52.9716
4.54                    -1.78435          50.635
4.56                    -1.86965          48.179
4.58                    -1.95502         45.5884
4.6                     -2.03668         42.8637
4.62                    -2.11325         40.0242
4.64                    -2.18585         37.0789
4.66                    -2.25912         34.0226
4.68                    -2.33748         30.8343
4.7                     -2.42433          27.468
4.72                    -2.52177         23.8748
4.74                    -2.62896         20.0073
4.76                    -2.74527         15.8237
4.78                    -2.87113         11.2984
4.8                      -3.0093         6.40526
4.82                    -3.16712         1.11009
4.84                    -3.35559        -4.63701
4.86                    -3.58918        -10.9119
4.88                    -3.88636        -17.8063
4.9                     -4.26979        -25.4044
4.92                     -4.7677        -33.7515
4.94                    -5.41547        -42.8013
4.96                    -6.25146        -52.3548
4.98                    -7.30538        -62.0351
5                       -8.58022        -71.3152
5.02                     -10.029        -79.6451
5.04                    -11.5458        -86.6905
5.06                    -12.9819        -92.5322
5.08                    -14.1815        -97.7466
5.1                     -15.0366        -103.233
5.12                    -15.5126        -109.753
5.14                    -15.6307        -117.644
5.16                    -15.4453        -126.804
5.18                    -15.0173        -136.869
5.2                     -14.4024        -147.459
5.22                    -13.6506         -158.25
5.24                    -12.8033        -168.992
5.26                    -11.8981        -179.527
5.28                    -10.9729         170.211
5.3                     -10.0615         160.203
5.32                    -9.19079          150.34
5.34                    -8.38109         140.463
5.36                    -7.64461           130.4
5.38                    -6.98999          119.99
5.4                     -6.42977         109.112
5.42                    -5.98389         97.7263
5.44                    -5.67926         85.9457
5.46                    -5.50811         74.2363
5.48                    -5.24612         63.0824
5.5                     -4.43046         49.3082
5.52                    -3.55512          26.477
5.54                    -3.44629        -4.24108
5.56                    -3.91325        -40.4836
5.58                    -4.40642        -81.3799
5.6                     -4.40229        -123.616
5.62                    -3.84331        -162.131
5.64                     -3.0807         165.513
5.66                    -2.39959         138.778
5.68                    -1.91009         116.233
5.7                     -1.63532           96.52
5.72                    -1.57481         78.4261
5.74                      -1.742         60.5723
5.76                    -2.30361           40.18
5.78                    -5.89185         6.93891
5.8                     -5.22514         60.8695
5.82                    -3.37635         31.4427
5.84                    -3.49529         13.1962
5.86                    -3.86111        -2.08849
5.88                    -4.33108        -16.4498
5.9                     -4.88921        -30.8634
5.92                     -5.5288        -46.1779
5.94                    -6.22231        -63.3421
5.96                    -6.90648        -83.4834
5.98                    -7.47623        -108.065
6                       -7.77958        -139.511
6.02                    -7.50644         176.808
6.04                    -5.70788          109.59
6.06                    -2.39298         13.8903
6.08                     -1.6848        -69.6437
6.1                     -1.75957        -121.597
6.12                    -1.46681        -158.431
6.14                   -0.999983         171.657
6.16                    -0.58831         145.801
6.18                   -0.366809          122.97
6.2                    -0.373206         102.749
6.22                   -0.573199         84.8751
6.24                   -0.902212         69.0826
6.26                    -1.29892         55.1141
6.28                    -1.72153           42.73
6.3                     -2.15165         31.7034
6.32                    -2.58618         21.8015
6.34                    -3.02699         12.7737
6.36                    -3.47278          4.3759
6.38                    -3.91527         -3.5881
6.4                     -4.34163        -11.2314
6.42                      -4.742        -18.5723
6.44                    -5.11687        -25.5617
6.46                    -5.47943        -32.1503
6.48                    -5.85175        -38.3512
6.5                     -6.25425        -44.2595
