! TOUCHSTONE file generated by CST MICROWAVE STUDIO
! Date and time: Thu Oct 27 17:35:48 2022
! Project name: L.cst
! Parameters = {Di=1.27; Epsilon_r=1.56; InnerDiameter=1.27; Length=2; Lf=10; Lg=60; OuterConductorThickness=0.2921; OuterDiameter=3.6; Wf=3; Wp=41.2; de=1.5; df=6.8; g=0.8; gx=2.0929; gy=1.82006; h=2.34; hf=1.524; px=13.8613; py=11.8497; w=9.7; wx=11.7684; wy=10.0296}
! Header version: 2018
! Port assignment regex: !\s*Touchstone port\s*([0-9]+)\s*=\s*(CST MWS port|CST DS port)\s*([0-9]+|Zmin|Zmax)\s*\(\"(.*)\"\)(\s*mode\s*([0-9]+))?.*
! Touchstone port assignment:
! Touchstone port 1 = CST MWS port 1 ("")
# GHz S DB R 50
4.5                     -4.68171         50.2241
4.52                    -5.07983         47.8293
4.54                    -5.46098         45.4317
4.56                    -5.86149         42.7513
4.58                    -6.33305         39.9305
4.6                     -6.87286         37.3184
4.62                    -7.43367          34.986
4.64                    -7.99668         32.6443
4.66                    -8.60385         30.0879
4.68                    -9.30231         27.5154
4.7                     -10.0832         25.2727
4.72                    -10.9006         23.3874
4.74                    -11.7482         21.5495
4.76                    -12.6846         19.6165
4.78                    -13.7659         17.9255
4.8                     -14.9791         16.9504
4.82                    -16.2754         16.7474
4.84                    -17.6759         17.0255
4.86                    -19.2973         17.9776
4.88                    -21.2294         20.8469
4.9                     -23.3852         27.4578
4.92                    -25.4876         39.0912
4.94                    -27.1763          56.299
4.96                    -27.8142         78.5118
4.98                    -26.8733         99.2675
5                       -25.1637         112.179
5.02                    -23.6026         118.969
5.04                    -22.3609         123.063
5.06                    -21.3082         125.915
5.08                    -20.3799         127.575
5.1                     -19.6267         128.168
5.12                    -19.0811         128.367
5.14                    -18.6849         128.804
5.16                     -18.354         129.532
5.18                    -18.0731         130.275
5.2                     -17.8841         131.106
5.22                     -17.788          132.54
5.24                    -17.7032         134.957
5.26                    -17.5369         138.179
5.28                    -17.2623         141.828
5.3                     -16.8716         145.834
5.32                    -16.3009         150.101
5.34                    -15.4886         153.934
5.36                    -14.4839          156.41
5.38                    -13.4125         157.161
5.4                     -12.3713         156.363
5.42                    -11.4091         154.255
5.44                    -10.5672         150.991
5.46                     -9.8971         146.812
5.48                    -9.43741         142.153
5.5                     -9.19022         137.537
5.52                    -9.12338         133.379
5.54                    -9.19736         129.899
5.56                     -9.3881         127.253
5.58                    -9.67406         125.739
5.6                     -9.99204         125.777
5.62                    -10.2149         127.541
5.64                    -10.2036         130.569
5.66                    -9.89359         133.924
5.68                    -9.30386         136.728
5.7                     -8.49376          138.31
5.72                    -7.55865          138.18
5.74                    -6.62405         136.228
5.76                    -5.79436         132.823
5.78                    -5.10955         128.548
5.8                     -4.55304         123.836
5.82                    -4.09578         118.818
5.84                    -3.73301         113.481
5.86                    -3.47916         107.903
5.88                    -3.33357         102.303
5.9                     -3.26452         96.8157
5.92                    -3.23805         91.2982
5.94                    -3.26201         85.4476
5.96                    -3.38484          79.135
5.98                    -3.64466            72.5
6                       -4.03862          65.599
6.02                     -4.5771         57.9683
6.04                    -5.40414         48.7148
6.06                    -6.89693           37.18
6.08                    -9.83159         23.4484
6.1                     -16.6657         8.85719
6.12                     -24.426         162.964
6.14                    -11.4118          150.28
6.16                    -6.94539         133.835
6.18                    -4.72966         118.414
6.2                     -3.65794         105.091
6.22                    -3.20132         94.3776
6.24                    -2.99836         85.9605
6.26                    -2.85654         78.7771
6.28                    -2.76735         71.8697
6.3                     -2.79039         65.0523
6.32                    -2.93367         58.5836
6.34                    -3.15912         52.5259
6.36                    -3.46133         46.6933
6.38                     -3.8797         41.1834
6.4                     -4.39977         36.5662
6.42                    -4.87905         33.0749
6.44                     -5.1844         29.5752
6.46                    -5.44799         24.3451
6.48                    -6.02694         17.1651
6.5                     -7.23523         9.90257
