! TOUCHSTONE file generated by CST MICROWAVE STUDIO
! Date and time: Sat Oct 29 11:39:04 2022
! Project name: L.cst
! Parameters = {Di=1.27; Epsilon_r=1.56; InnerDiameter=1.27; Length=2; Lf=10; Lg=60; OuterConductorThickness=0.2921; OuterDiameter=3.6; Wf=3; Wp=41.2; de=1.5; df=6.8; g=0.8; gx=3.65547; gy=4.83924; h=2.34; hf=1.524; px=14.6052; py=13.3885; w=9.7; wx=10.9498; wy=8.54924}
! Header version: 2018
! Port assignment regex: !\s*Touchstone port\s*([0-9]+)\s*=\s*(CST MWS port|CST DS port)\s*([0-9]+|Zmin|Zmax)\s*\(\"(.*)\"\)(\s*mode\s*([0-9]+))?.*
! Touchstone port assignment:
! Touchstone port 1 = CST MWS port 1 ("")
# GHz S DB R 50
4.5                    -0.614093         94.5616
4.52                   -0.649644          93.131
4.54                   -0.660362          91.631
4.56                   -0.687444         89.9853
4.58                   -0.728455         88.4549
4.6                    -0.749339         86.9451
4.62                    -0.77328         85.2867
4.64                   -0.815755         83.6659
4.66                   -0.847023         82.1149
4.68                   -0.872047         80.4489
4.7                    -0.914208         78.7536
4.72                   -0.954737         77.1392
4.74                     -0.9846           75.46
4.76                    -1.02643         73.7072
4.78                    -1.07447         72.0167
4.8                      -1.1121         70.3112
4.82                    -1.15513         68.5155
4.84                    -1.20898         66.7466
4.86                    -1.25601         64.9993
4.88                    -1.30257          63.169
4.9                     -1.36121          61.326
4.92                    -1.41837         59.5229
4.94                    -1.47115         57.6604
4.96                     -1.5344         55.7514
4.98                    -1.60179         53.8813
5                       -1.66361         51.9838
5.02                    -1.73236           50.02
5.04                    -1.80971         48.0779
5.06                    -1.88298         46.1392
5.08                      -1.959         44.1311
5.1                      -2.0461         42.1182
5.12                    -2.13273         40.1308
5.14                    -2.21853         38.0874
5.16                    -2.31549         36.0112
5.18                    -2.41674         33.9687
5.2                     -2.51528         31.8954
5.22                    -2.62296         29.7678
5.24                     -2.7397         27.6675
5.26                    -2.85416         25.5675
5.28                    -2.97434         23.4048
5.3                     -3.10718         21.2505
5.32                    -3.24053         19.1256
5.34                    -3.37577         16.9463
5.36                    -3.52526         14.7487
5.38                    -3.68019         12.6005
5.4                     -3.83409         10.4236
5.42                    -4.00127         8.20283
5.44                    -4.17997         6.03631
5.46                     -4.3569         3.88112
5.48                    -4.54373         1.66661
5.5                     -4.74807       -0.506178
5.52                     -4.9532        -2.61932
5.54                    -5.16319         -4.7863
5.56                    -5.39512        -6.93914
5.58                     -5.6344        -8.98391
5.6                     -5.87339        -11.0444
5.62                    -6.13561        -13.1219
5.64                    -6.41542        -15.0487
5.66                    -6.69138        -16.9071
5.68                    -6.98641         -18.793
5.7                     -7.31008        -20.4912
5.72                    -7.62767        -21.9765
5.74                    -7.94927        -23.4475
5.76                    -8.30198        -24.7031
5.78                    -8.64076        -25.5619
5.8                      -8.9464         -26.331
5.82                    -9.26223        -26.9614
5.84                    -9.54605        -27.1368
5.86                    -9.74349        -27.2815
5.88                    -9.92166        -27.6623
5.9                     -10.0783         -27.835
5.92                    -10.1341        -28.1515
5.94                    -10.1735        -29.1856
5.96                    -10.2593         -30.311
5.98                    -10.2796        -31.4838
6                        -10.284        -33.6279
6.02                    -10.4169        -36.1813
6.04                    -10.5487         -38.456
6.06                     -10.628        -41.8367
6.08                    -10.9252          -46.48
6.1                     -11.3963        -50.7553
6.12                     -11.807        -56.6616
6.14                    -12.8309        -67.6702
6.16                    -15.9005        -80.4326
6.18                     -22.818        -73.2849
6.2                     -22.7827        -10.6841
6.22                    -18.6433         -4.3194
6.24                    -17.5244        -4.83085
6.26                    -16.7183       -0.496723
6.28                    -15.4671         1.81906
6.3                     -14.3297        0.198863
6.32                    -13.5708         -4.7852
6.34                    -13.6495        -12.3172
6.36                    -15.1261        -17.9651
6.38                    -18.2541         -9.5383
6.4                     -18.2875          30.939
6.42                    -12.8685         44.4772
6.44                    -9.32047          34.568
6.46                    -7.80513         22.2833
6.48                    -6.93853           15.23
6.5                     -5.51474         6.64578
