! TOUCHSTONE file generated by CST MICROWAVE STUDIO
! Date and time: Sat Oct 29 11:56:35 2022
! Project name: L.cst
! Parameters = {Di=1.27; Epsilon_r=1.56; InnerDiameter=1.27; Length=2; Lf=10; Lg=60; OuterConductorThickness=0.2921; OuterDiameter=3.6; Wf=3; Wp=41.2; de=1.5; df=6.8; g=0.8; gx=1.01641; gy=3.22199; h=2.34; hf=1.524; px=8.28094; py=10.9896; w=9.7; wx=7.26453; wy=7.76758}
! Header version: 2018
! Port assignment regex: !\s*Touchstone port\s*([0-9]+)\s*=\s*(CST MWS port|CST DS port)\s*([0-9]+|Zmin|Zmax)\s*\(\"(.*)\"\)(\s*mode\s*([0-9]+))?.*
! Touchstone port assignment:
! Touchstone port 1 = CST MWS port 1 ("")
# GHz S DB R 50
4.5                    -0.512803          87.663
4.52                   -0.529038         86.1928
4.54                   -0.545944         84.7093
4.56                   -0.563536         83.2125
4.58                   -0.581824         81.7027
4.6                    -0.600811         80.1796
4.62                   -0.620494         78.6434
4.64                   -0.640868          77.094
4.66                    -0.66193         75.5311
4.68                   -0.683668         73.9548
4.7                    -0.706081         72.3649
4.72                   -0.729158          70.761
4.74                   -0.752898         69.1431
4.76                     -0.7773          67.511
4.78                   -0.802364         65.8642
4.8                    -0.828094         64.2027
4.82                   -0.854499         62.5261
4.84                   -0.881585         60.8341
4.86                   -0.909368         59.1266
4.88                   -0.937862         57.4032
4.9                    -0.967086         55.6638
4.92                   -0.997057         53.9082
4.94                     -1.0278          52.136
4.96                    -1.05933         50.3472
4.98                    -1.09169         48.5416
5                       -1.12488         46.7191
5.02                    -1.15894         44.8796
5.04                    -1.19389         43.0229
5.06                    -1.22975          41.149
5.08                    -1.26655          39.258
5.1                     -1.30432         37.3498
5.12                    -1.34306         35.4244
5.14                     -1.3828          33.482
5.16                    -1.42356         31.5226
5.18                    -1.46534         29.5462
5.2                     -1.50817         27.5532
5.22                    -1.55205         25.5436
5.24                      -1.597         23.5176
5.26                      -1.643         21.4755
5.28                    -1.69007         19.4175
5.3                     -1.73821         17.3439
5.32                    -1.78741          15.255
5.34                    -1.83766         13.1512
5.36                    -1.88895         11.0327
5.38                    -1.94128         8.90002
5.4                     -1.99462         6.75351
5.42                    -2.04897         4.59362
5.44                    -2.10429         2.42081
5.46                    -2.16056         0.23557
5.48                    -2.21776        -1.96159
5.5                     -2.27586        -4.17012
5.52                    -2.33483        -6.38947
5.54                    -2.39464        -8.61903
5.56                    -2.45525        -10.8582
5.58                    -2.51663        -13.1063
5.6                     -2.57872        -15.3627
5.62                    -2.64151        -17.6267
5.64                    -2.70493        -19.8975
5.66                    -2.76895        -22.1745
5.68                    -2.83352        -24.4568
5.7                     -2.89859        -26.7436
5.72                    -2.96412        -29.0342
5.74                    -3.03004        -31.3278
5.76                    -3.09631        -33.6232
5.78                    -3.16287        -35.9199
5.8                     -3.22968        -38.2169
5.82                    -3.29666        -40.5133
5.84                    -3.36376        -42.8082
5.86                    -3.43093        -45.1007
5.88                     -3.4981        -47.3898
5.9                     -3.56521        -49.6747
5.92                    -3.63219        -51.9544
5.94                    -3.69898         -54.228
5.96                    -3.76552        -56.4947
5.98                    -3.83173        -58.7535
6                       -3.89756        -61.0037
6.02                    -3.96293        -63.2444
6.04                    -4.02778        -65.4748
6.06                    -4.09203        -67.6942
6.08                    -4.15563        -69.9018
6.1                     -4.21851         -72.097
6.12                     -4.2806        -74.2792
6.14                    -4.34185        -76.4478
6.16                    -4.40219        -78.6024
6.18                    -4.46157        -80.7424
6.2                     -4.51995        -82.8675
6.22                    -4.57727        -84.9774
6.24                    -4.63351        -87.0718
6.26                    -4.68863        -89.1504
6.28                    -4.74262        -91.2132
6.3                     -4.79545        -93.2601
6.32                    -4.84714        -95.2908
6.34                    -4.89769        -97.3055
6.36                    -4.94712         -99.304
6.38                    -4.99546        -101.286
6.4                     -5.04275        -103.253
6.42                    -5.08905        -105.202
6.44                    -5.13441        -107.136
6.46                    -5.17891        -109.053
6.48                     -5.2226        -110.953
6.5                     -5.26558        -112.836
