! TOUCHSTONE file generated by CST MICROWAVE STUDIO
! Date and time: Fri Oct 28 16:17:31 2022
! Project name: L.cst
! Parameters = {Di=1.27; Epsilon_r=1.56; InnerDiameter=1.27; Length=2; Lf=10; Lg=60; OuterConductorThickness=0.2921; OuterDiameter=3.6; Wf=3; Wp=41.2; de=1.5; df=6.8; g=0.8; gx=3.28368; gy=1.61217; h=2.34; hf=1.524; px=9.12658; py=10.1646; w=9.7; wx=5.84289; wy=8.5524}
! Header version: 2018
! Port assignment regex: !\s*Touchstone port\s*([0-9]+)\s*=\s*(CST MWS port|CST DS port)\s*([0-9]+|Zmin|Zmax)\s*\(\"(.*)\"\)(\s*mode\s*([0-9]+))?.*
! Touchstone port assignment:
! Touchstone port 1 = CST MWS port 1 ("")
# GHz S DB R 50
4.5                    -0.426038         81.1072
4.52                   -0.435208         79.5269
4.54                   -0.445226         77.9245
4.56                   -0.456145         76.3006
4.58                   -0.467986         74.6556
4.6                    -0.480746         72.9899
4.62                   -0.494401         71.3039
4.64                   -0.508909         69.5976
4.66                   -0.524219         67.8711
4.68                   -0.540272         66.1244
4.7                    -0.557001         64.3573
4.72                   -0.574341         62.5693
4.74                   -0.592225         60.7603
4.76                   -0.610591         58.9296
4.78                   -0.629381         57.0767
4.8                    -0.648545          55.201
4.82                   -0.668036         53.3017
4.84                   -0.687819         51.3782
4.86                   -0.707862         49.4297
4.88                   -0.728147         47.4556
4.9                    -0.748656         45.4549
4.92                   -0.769382          43.427
4.94                   -0.790325         41.3712
4.96                   -0.811485         39.2868
4.98                   -0.832873         37.1731
5                      -0.854497         35.0295
5.02                   -0.876372         32.8555
5.04                    -0.89851         30.6506
5.06                   -0.920927         28.4143
5.08                   -0.943635         26.1462
5.1                    -0.966648         23.8461
5.12                   -0.989971         21.5136
5.14                    -1.01361         19.1486
5.16                    -1.03758          16.751
5.18                    -1.06186         14.3208
5.2                     -1.08644         11.8579
5.22                    -1.11133         9.36244
5.24                     -1.1365          6.8346
5.26                    -1.16192         4.27467
5.28                    -1.18757         1.68284
5.3                     -1.21341       -0.940473
5.32                     -1.2394        -3.59481
5.34                     -1.2655        -6.27967
5.36                    -1.29166        -8.99444
5.38                    -1.31783        -11.7385
5.4                     -1.34395        -14.5111
5.42                    -1.36996        -17.3114
5.44                     -1.3958        -20.1385
5.46                     -1.4214        -22.9916
5.48                    -1.44672        -25.8695
5.5                     -1.47167        -28.7713
5.52                     -1.4962        -31.6956
5.54                    -1.52025        -34.6414
5.56                    -1.54376        -37.6073
5.58                    -1.56668         -40.592
5.6                     -1.58896         -43.594
5.62                    -1.61055         -46.612
5.64                    -1.63141        -49.6442
5.66                    -1.65152        -52.6893
5.68                    -1.67084        -55.7455
5.7                     -1.68936        -58.8113
5.72                    -1.70706        -61.8849
5.74                    -1.72394        -64.9646
5.76                    -1.74001        -68.0486
5.78                    -1.75527        -71.1353
5.8                     -1.76975         -74.223
5.82                    -1.78346        -77.3098
5.84                    -1.79644         -80.394
5.86                    -1.80873         -83.474
5.88                    -1.82037        -86.5479
5.9                     -1.83141        -89.6142
5.92                    -1.84189        -92.6712
5.94                    -1.85187        -95.7174
5.96                     -1.8614        -98.7512
5.98                    -1.87054        -101.771
6                       -1.87935        -104.776
6.02                    -1.88787        -107.764
6.04                    -1.89615        -110.734
6.06                    -1.90425        -113.686
6.08                     -1.9122        -116.617
6.1                     -1.92005        -119.528
6.12                    -1.92782        -122.416
6.14                    -1.93555        -125.283
6.16                    -1.94325        -128.126
6.18                    -1.95095        -130.946
6.2                     -1.95866        -133.742
6.22                    -1.96639        -136.514
6.24                    -1.97415        -139.262
6.26                    -1.98195        -141.986
6.28                    -1.98979        -144.687
6.3                     -1.99769        -147.365
6.32                    -2.00568        -150.021
6.34                    -2.01378        -152.655
6.36                    -2.02204        -155.268
6.38                    -2.03053        -157.863
6.4                     -2.03932        -160.439
6.42                    -2.04854        -162.998
6.44                     -2.0583        -165.541
6.46                     -2.0688         -168.07
6.48                    -2.08023        -170.587
6.5                     -2.09284        -173.093
