! TOUCHSTONE file generated by CST MICROWAVE STUDIO
! Date and time: Sat Oct 29 06:14:16 2022
! Project name: L.cst
! Parameters = {Di=1.27; Epsilon_r=1.56; InnerDiameter=1.27; Length=2; Lf=10; Lg=60; OuterConductorThickness=0.2921; OuterDiameter=3.6; Wf=3; Wp=41.2; de=1.5; df=6.8; g=0.8; gx=1.86093; gy=0.782775; h=2.34; hf=1.524; px=10.2402; py=9.63105; w=9.7; wx=8.37928; wy=8.84828}
! Header version: 2018
! Port assignment regex: !\s*Touchstone port\s*([0-9]+)\s*=\s*(CST MWS port|CST DS port)\s*([0-9]+|Zmin|Zmax)\s*\(\"(.*)\"\)(\s*mode\s*([0-9]+))?.*
! Touchstone port assignment:
! Touchstone port 1 = CST MWS port 1 ("")
# GHz S DB R 50
4.5                    -0.983629         62.4428
4.52                    -1.03403         60.3354
4.54                     -1.0869         58.2014
4.56                    -1.14195         56.0394
4.58                    -1.19889         53.8474
4.6                     -1.25754          51.623
4.62                    -1.31772         49.3639
4.64                    -1.37934         47.0674
4.66                    -1.44234         44.7307
4.68                    -1.50672         42.3513
4.7                     -1.57252         39.9264
4.72                    -1.63979         37.4536
4.74                    -1.70863         34.9304
4.76                    -1.77916         32.3549
4.78                    -1.85148         29.7248
4.8                     -1.92573         27.0385
4.82                    -2.00203         24.2945
4.84                    -2.08047         21.4913
4.86                    -2.16115         18.6279
4.88                    -2.24413         15.7033
4.9                     -2.32945          12.717
4.92                    -2.41712         9.66843
4.94                    -2.50712         6.55729
4.96                    -2.59937         3.38355
4.98                    -2.69379        0.147351
5                       -2.79021        -3.15097
5.02                    -2.88848        -6.51084
5.04                    -2.98835        -9.93148
5.06                    -3.08958        -13.4118
5.08                    -3.19187        -16.9507
5.1                     -3.29488        -20.5464
5.12                    -3.39827        -24.1971
5.14                    -3.50163        -27.9008
5.16                    -3.60457        -31.6549
5.18                    -3.70666        -35.4565
5.2                     -3.80747        -39.3026
5.22                    -3.90656        -43.1895
5.24                    -4.00351        -47.1134
5.26                     -4.0979        -51.0698
5.28                    -4.18933        -55.0544
5.3                     -4.27744         -59.062
5.32                    -4.36191        -63.0873
5.34                    -4.44243        -67.1249
5.36                    -4.51879         -71.169
5.38                    -4.59078        -75.2136
5.4                     -4.65829        -79.2527
5.42                    -4.72124        -83.2802
5.44                    -4.77962        -87.2901
5.46                    -4.83347        -91.2762
5.48                    -4.88288        -95.2329
5.5                     -4.92799        -99.1544
5.52                    -4.96899        -103.035
5.54                    -5.00608        -106.871
5.56                     -5.0395        -110.656
5.58                     -5.0695        -114.386
5.6                     -5.09635        -118.058
5.62                    -5.12031        -121.668
5.64                    -5.14162        -125.212
5.66                    -5.16053        -128.689
5.68                    -5.17725        -132.096
5.7                     -5.19197        -135.432
5.72                    -5.20487        -138.695
5.74                    -5.21605        -141.885
5.76                    -5.22564        -145.001
5.78                    -5.23369        -148.043
5.8                     -5.24025        -151.013
5.82                    -5.24532        -153.911
5.84                    -5.24892        -156.739
5.86                    -5.25101        -159.499
5.88                    -5.25159        -162.194
5.9                     -5.25064        -164.826
5.92                    -5.24815        -167.399
5.94                    -5.24415        -169.916
5.96                    -5.23869        -172.381
5.98                    -5.23188        -174.798
6                       -5.22388        -177.172
6.02                    -5.21491        -179.508
6.04                    -5.20525         178.191
6.06                     -5.1953          175.92
6.08                     -5.1855         173.674
6.1                     -5.17638          171.45
6.12                    -5.16859         169.244
6.14                    -5.16283         167.052
6.16                    -5.15989         164.872
6.18                    -5.16064         162.703
6.2                     -5.16602         160.543
6.22                    -5.17703         158.393
6.24                     -5.1947         156.252
6.26                    -5.22011         154.124
6.28                    -5.25436         152.012
6.3                     -5.29854          149.92
6.32                    -5.35373         147.856
6.34                    -5.42094         145.827
6.36                    -5.50111         143.844
6.38                    -5.59502         141.919
6.4                     -5.70329         140.067
6.42                    -5.82622         138.305
6.44                    -5.96377         136.653
6.46                    -6.11537         135.133
6.48                    -6.27975         133.772
6.5                     -6.45479         132.596
