! TOUCHSTONE file generated by CST MICROWAVE STUDIO
! Date and time: Wed Oct 26 21:30:38 2022
! Project name: L.cst
! Parameters = {Di=1.27; Epsilon_r=1.56; InnerDiameter=1.27; Length=2; Lf=10; Lg=60; OuterConductorThickness=0.2921; OuterDiameter=3.6; Wf=3; Wp=41.2; de=1.5; df=6.8; g=0.8; gx=2.35533; gy=0.642925; h=2.34; hf=1.524; px=9.37173; py=12.4734; w=9.7; wx=7.0164; wy=11.8305}
! Header version: 2018
! Port assignment regex: !\s*Touchstone port\s*([0-9]+)\s*=\s*(CST MWS port|CST DS port)\s*([0-9]+|Zmin|Zmax)\s*\(\"(.*)\"\)(\s*mode\s*([0-9]+))?.*
! Touchstone port assignment:
! Touchstone port 1 = CST MWS port 1 ("")
# GHz S DB R 50
4.5                    -0.819809         62.2599
4.52                   -0.880519         60.3142
4.54                   -0.892349         58.3968
4.56                   -0.905941         56.1203
4.58                   -0.962564         53.8674
4.6                     -1.00025         51.7974
4.62                    -1.01036         49.4991
4.64                    -1.05084         47.0083
4.66                    -1.10357         44.6602
4.68                    -1.12526         42.2668
4.7                     -1.15085         39.6026
4.72                    -1.20321         36.9211
4.74                    -1.24109         34.2995
4.76                    -1.26159         31.4615
4.78                     -1.3028         28.4397
4.8                     -1.35073          25.449
4.82                    -1.37665         22.3452
4.84                    -1.40546          18.968
4.86                    -1.45294         15.4869
4.88                    -1.49005         11.9442
4.9                      -1.5151          8.1282
4.92                    -1.55694         4.04501
4.94                    -1.60757       -0.156976
4.96                    -1.64607        -4.59007
4.98                     -1.6918        -9.39887
5                       -1.76142        -14.4729
5.02                    -1.83568        -19.7674
5.04                    -1.91164         -25.454
5.06                    -2.01519         -31.565
5.08                    -2.14728        -37.9763
5.1                     -2.29041        -44.7528
5.12                    -2.45853        -52.0532
5.14                    -2.67599        -59.8259
5.16                    -2.93632        -67.9889
5.18                    -3.23569        -76.6709
5.2                     -3.60643        -85.9578
5.22                    -4.07612        -95.6934
5.24                    -4.64287        -105.759
5.26                    -5.32216        -116.197
5.28                    -6.16394        -126.861
5.3                     -7.19463        -137.286
5.32                    -8.39946        -147.084
5.34                    -9.79036        -156.013
5.36                    -11.4132        -163.353
5.38                    -13.2185        -167.738
5.4                     -14.9986        -168.082
5.42                    -16.4859        -163.909
5.44                      -17.23        -155.418
5.46                    -16.8049        -146.749
5.48                    -15.6696        -142.557
5.5                     -14.4056        -142.185
5.52                     -13.122        -144.248
5.54                    -11.9038        -148.488
5.56                    -10.8673        -154.014
5.58                    -9.96139        -159.804
5.6                     -9.09622         -165.94
5.62                     -8.3198        -172.678
5.64                    -7.67208        -179.451
5.66                    -7.06998         173.981
5.68                    -6.48106         167.178
5.7                     -5.98879         160.035
5.72                    -5.59112         153.147
5.74                    -5.19419         146.375
5.76                    -4.84212         139.023
5.78                    -4.65294         131.423
5.8                     -4.57451         124.198
5.82                    -4.57606          116.51
5.84                    -4.99812         108.067
5.86                    -6.20304         102.989
5.88                     -7.3591         108.976
5.9                      -6.2731          119.02
5.92                    -4.16783         117.015
5.94                    -2.81827         107.737
5.96                     -2.2176         97.9943
5.98                    -1.88802         89.7032
6                       -1.60131          81.814
6.02                     -1.4235         73.8438
6.04                    -1.34033         66.3491
6.06                    -1.24858         59.1426
6.08                    -1.17317         51.6581
6.1                     -1.16483         44.1332
6.12                    -1.16441         36.7181
6.14                    -1.16425          28.909
6.16                     -1.2364         20.7644
6.18                     -1.3295         12.6217
6.2                     -1.40343         3.59745
6.22                    -1.70418         -6.7765
6.24                    -2.41586        -16.0367
6.26                    -3.02702        -21.3532
6.28                    -2.77376          -26.75
6.3                     -2.17361        -38.5609
6.32                    -2.06753        -55.4126
6.34                    -2.45227        -73.5627
6.36                    -2.79437        -93.0188
6.38                    -2.85549        -118.041
6.4                     -2.86975        -151.505
6.42                    -2.85961         167.992
6.44                    -2.60208         125.117
6.46                    -2.13744         85.0503
6.48                    -1.76431         50.3031
6.5                     -1.69009         21.1572
