! TOUCHSTONE file generated by CST MICROWAVE STUDIO
! Date and time: Sat Oct 29 16:23:35 2022
! Project name: L.cst
! Parameters = {Di=1.27; Epsilon_r=1.56; InnerDiameter=1.27; Length=2; Lf=10; Lg=60; OuterConductorThickness=0.2921; OuterDiameter=3.6; Wf=3; Wp=41.2; de=1.5; df=6.8; g=0.8; gx=1.76939; gy=3.94426; h=2.34; hf=1.524; px=13.5155; py=14.5587; w=9.7; wx=11.7461; wy=10.6144}
! Header version: 2018
! Port assignment regex: !\s*Touchstone port\s*([0-9]+)\s*=\s*(CST MWS port|CST DS port)\s*([0-9]+|Zmin|Zmax)\s*\(\"(.*)\"\)(\s*mode\s*([0-9]+))?.*
! Touchstone port assignment:
! Touchstone port 1 = CST MWS port 1 ("")
# GHz S DB R 50
4.5                     -1.50707         84.9667
4.52                    -1.59038           83.16
4.54                    -1.68732         81.6731
4.56                    -1.76425         79.9151
4.58                    -1.88114         78.3293
4.6                     -1.96299         76.6638
4.62                    -2.08919         74.9731
4.64                    -2.18733         73.3927
4.66                    -2.31451         71.6405
4.68                    -2.43562         70.1009
4.7                     -2.56153          68.357
4.72                     -2.7051         66.8066
4.74                    -2.83404          65.133
4.76                    -2.99378         63.5477
4.78                    -3.13294         61.9727
4.8                      -3.3013         60.3664
4.82                    -3.45624         58.8854
4.84                    -3.62766         57.2986
4.86                    -3.80002         55.8902
4.88                    -3.97181         54.3718
4.9                     -4.15878         53.0097
4.92                    -4.33109         51.6011
4.94                    -4.52585          50.266
4.96                    -4.70087         48.9846
4.98                    -4.89432          47.675
5                       -5.07387          46.501
5.02                    -5.25841          45.231
5.04                    -5.44131         44.1138
5.06                    -5.61361         42.8941
5.08                    -5.79553         41.7706
5.1                     -5.95675         40.5859
5.12                    -6.13313         39.3925
5.14                    -6.28849         38.1953
5.16                    -6.45755         36.8736
5.18                    -6.61616          35.586
5.2                     -6.78197         34.0849
5.22                    -6.95725         32.6046
5.24                     -7.1338         30.8847
5.26                    -7.34388         29.1046
5.28                    -7.55947         27.1304
5.3                     -7.83145         24.9738
5.32                    -8.13299         22.7156
5.34                    -8.51363         20.1853
5.36                    -8.97426         17.6729
5.38                    -9.54783         14.9423
5.4                     -10.2859         12.4427
5.42                    -11.2036         10.1544
5.44                    -12.4158         8.76099
5.46                    -13.9209         9.15335
5.48                    -15.8314         13.0884
5.5                     -17.8226         24.3124
5.52                    -18.9614         44.6117
5.54                    -17.9303         66.5294
5.56                    -15.7506         78.9885
5.58                    -13.5297         83.8307
5.6                     -11.6681         83.8918
5.62                    -10.1454         81.8723
5.64                    -8.89861         78.3171
5.66                    -7.90649         74.2143
5.68                    -7.07224         69.6357
5.7                     -6.41669         64.8543
5.72                    -5.85444         60.0475
5.74                    -5.40712         55.0366
5.76                    -5.03133         50.1555
5.78                    -4.71607         45.0117
5.8                     -4.47568         39.9116
5.82                    -4.25935         34.5342
5.84                    -4.12713         28.8788
5.86                    -4.02086         22.9082
5.88                    -4.00832          16.119
5.9                     -4.09693         8.68039
5.92                    -4.34027       -0.401419
5.94                    -4.95159        -11.3932
5.96                    -6.16504        -25.5424
5.98                    -9.04063        -45.2364
6                       -17.5144         -73.608
6.02                     -17.978          98.331
6.04                    -9.58408         69.8119
6.06                    -6.82716         50.8656
6.08                     -5.6956         34.1398
6.1                     -6.40366         18.6011
6.12                    -8.77005         19.2477
6.14                    -8.17983         36.4311
6.16                      -5.747         36.8353
6.18                    -4.38775         28.8783
6.2                     -3.77803         21.6388
6.22                    -3.25751          14.401
6.24                    -3.20271         6.68718
6.26                     -3.1236        0.491016
6.28                    -3.64846        -10.2112
6.3                      -5.9299        -9.58458
6.32                     -5.1344         3.49674
6.34                     -4.0745       -0.715602
6.36                    -3.58567        0.159487
6.38                    -2.20174         -5.4498
6.4                     -2.07069        -14.2281
6.42                    -1.91067        -18.4829
6.44                    -1.74896        -25.2408
6.46                    -1.85405        -29.8927
6.48                    -1.70494        -35.2948
6.5                     -1.85133         -41.078
