! TOUCHSTONE file generated by CST MICROWAVE STUDIO
! Date and time: Sat Oct 29 18:52:03 2022
! Project name: L.cst
! Parameters = {Di=1.27; Epsilon_r=1.56; InnerDiameter=1.27; Length=2; Lf=10; Lg=60; OuterConductorThickness=0.2921; OuterDiameter=3.6; Wf=3; Wp=41.2; de=1.5; df=6.8; g=0.8; gx=2.2856; gy=2.12599; h=2.34; hf=1.524; px=13.199; py=11.3073; w=9.7; wx=10.9134; wy=9.18126}
! Header version: 2018
! Port assignment regex: !\s*Touchstone port\s*([0-9]+)\s*=\s*(CST MWS port|CST DS port)\s*([0-9]+|Zmin|Zmax)\s*\(\"(.*)\"\)(\s*mode\s*([0-9]+))?.*
! Touchstone port assignment:
! Touchstone port 1 = CST MWS port 1 ("")
# GHz S DB R 50
4.5                     -2.06601         63.6929
4.52                    -2.19928         61.3693
4.54                    -2.33946          59.018
4.56                    -2.48564         56.6269
4.58                     -2.6384         54.1814
4.6                     -2.79964         51.6715
4.62                    -2.97171         49.0957
4.64                    -3.15648         46.4602
4.66                    -3.35473         43.7743
4.68                    -3.56619         41.0451
4.7                     -3.79005         38.2733
4.72                    -4.02576          35.453
4.74                    -4.27357         32.5742
4.76                    -4.53469         29.6279
4.78                    -4.81096         26.6086
4.8                     -5.10421         23.5173
4.82                     -5.4157         20.3582
4.84                    -5.74584         17.1361
4.86                    -6.09437          13.852
4.88                     -6.4608         10.5014
4.9                     -6.84497          7.0739
4.92                    -7.24741         3.55658
4.94                    -7.66931      -0.0630521
4.96                    -8.11217        -3.79429
4.98                    -8.57717        -7.64302
5                       -9.06472        -11.6138
5.02                    -9.57419        -15.7136
5.04                     -10.104        -19.9554
5.06                    -10.6522        -24.3602
5.08                    -11.2165        -28.9564
5.1                     -11.7948        -33.7763
5.12                    -12.3848        -38.8523
5.14                    -12.9833        -44.2126
5.16                    -13.5852        -49.8788
5.18                    -14.1827        -55.8655
5.2                     -14.7651        -62.1798
5.22                    -15.3186        -68.8203
5.24                    -15.8277        -75.7724
5.26                    -16.2767        -83.0012
5.28                    -16.6517        -90.4449
5.3                     -16.9425        -98.0087
5.32                    -17.1441        -105.569
5.34                    -17.2568        -112.987
5.36                    -17.2851        -120.123
5.38                    -17.2368        -126.863
5.4                     -17.1208        -133.124
5.42                    -16.9461         -138.87
5.44                    -16.7217        -144.101
5.46                    -16.4561        -148.846
5.48                    -16.1571        -153.148
5.5                     -15.8313        -157.053
5.52                    -15.4825        -160.609
5.54                    -15.1121        -163.865
5.56                    -14.7191        -166.885
5.58                    -14.3023        -169.752
5.6                     -13.8625        -172.568
5.62                    -13.4052        -175.442
5.64                    -12.9413        -178.474
5.66                    -12.4866         178.266
5.68                    -12.0595         174.749
5.7                     -11.6784         170.992
5.72                    -11.3596         167.048
5.74                    -11.1157         163.005
5.76                    -10.9555         158.971
5.78                    -10.8834         155.069
5.8                      -10.899         151.435
5.82                    -10.9971         148.214
5.84                    -11.1666         145.553
5.86                    -11.3891         143.603
5.88                    -11.6372         142.493
5.9                     -11.8733         142.313
5.92                    -12.0506         143.072
5.94                    -12.1175         144.654
5.96                    -12.0283          146.79
5.98                    -11.7559         149.084
6                       -11.3013         151.088
6.02                    -10.6928         152.414
6.04                    -9.97649         152.798
6.06                    -9.20351         152.127
6.08                      -8.421         150.404
6.1                     -7.66714         147.718
6.12                    -6.97003         144.198
6.14                    -6.34812         139.994
6.16                    -5.81152         135.251
6.18                    -5.36361         130.097
6.2                     -5.00301         124.629
6.22                    -4.72613         118.906
6.24                    -4.53026         112.944
6.26                    -4.41716         106.722
6.28                    -4.39628         100.197
6.3                      -4.4874         93.3272
6.32                    -4.72204         86.0996
6.34                    -5.14476         78.5606
6.36                    -5.81564         70.8517
6.38                    -6.81648         63.2713
6.4                     -8.26404         56.4236
6.42                     -10.332         51.6461
6.44                    -13.2402         52.4234
6.46                      -16.66          68.401
6.48                    -16.9127         103.233
6.5                     -13.5175         121.378
