! TOUCHSTONE file generated by CST MICROWAVE STUDIO
! Date and time: Fri Oct 28 14:33:48 2022
! Project name: L.cst
! Parameters = {Di=1.27; Epsilon_r=1.56; InnerDiameter=1.27; Length=2; Lf=10; Lg=60; OuterConductorThickness=0.2921; OuterDiameter=3.6; Wf=3; Wp=41.2; de=1.5; df=6.8; g=0.8; gx=0.639817; gy=4.52313; h=2.34; hf=1.524; px=12.6609; py=8.71787; w=9.7; wx=12.0211; wy=4.19474}
! Header version: 2018
! Port assignment regex: !\s*Touchstone port\s*([0-9]+)\s*=\s*(CST MWS port|CST DS port)\s*([0-9]+|Zmin|Zmax)\s*\(\"(.*)\"\)(\s*mode\s*([0-9]+))?.*
! Touchstone port assignment:
! Touchstone port 1 = CST MWS port 1 ("")
# GHz S DB R 50
4.5                     -2.62778         78.9159
4.52                    -2.85973          77.431
4.54                     -3.0188         75.9009
4.56                    -3.20586         73.8744
4.58                     -3.4842         72.0042
4.6                     -3.75919         70.6848
4.62                    -3.97818           69.31
4.64                    -4.23395         67.5882
4.66                    -4.56754         66.1397
4.68                    -4.88722         65.2328
4.7                     -5.15822         64.2884
4.72                    -5.46887          63.145
4.74                    -5.83885         62.4195
4.76                    -6.17299         62.2534
4.78                    -6.45293         62.0564
4.8                     -6.76411         61.7932
4.82                    -7.10011         62.0677
4.84                    -7.36133         62.8333
4.86                    -7.55281         63.4631
4.88                    -7.75625         64.0542
4.9                     -7.93789         65.1221
4.92                    -8.01079         66.3705
4.94                    -8.01642         67.2134
4.96                     -8.0282          67.903
4.98                    -7.99669         68.8095
5                       -7.86858         69.4998
5.02                    -7.71185         69.5918
5.04                    -7.57905         69.4704
5.06                     -7.4147         69.3793
5.08                    -7.19213         68.8962
5.1                     -6.98043         67.8388
5.12                    -6.80821         66.6238
5.14                    -6.61836          65.392
5.16                    -6.39759         63.7523
5.18                     -6.2084         61.6231
5.2                     -6.06426         59.3985
5.22                    -5.90849         57.1445
5.24                     -5.7347         54.4754
5.26                    -5.60233         51.3444
5.28                    -5.51797         48.1246
5.3                     -5.42392          44.831
5.32                    -5.31725         41.0428
5.34                    -5.26065         36.7004
5.36                    -5.26016         32.1708
5.38                    -5.25276         27.4252
5.4                     -5.23501         21.9291
5.42                    -5.28139         15.5185
5.44                     -5.4059         8.53312
5.46                    -5.53134        0.855744
5.48                    -5.63885         -8.3928
5.5                     -5.81866        -19.8426
5.52                    -6.09955        -33.4848
5.54                    -6.34529        -49.8081
5.56                    -6.39959        -70.5763
5.58                    -6.23853        -97.3934
5.6                     -5.90452         -129.58
5.62                    -5.50181        -164.013
5.64                     -5.2882         163.015
5.66                    -5.56618         134.258
5.68                    -6.47721         111.757
5.7                     -7.84718          97.358
5.72                    -9.13251         91.4133
5.74                    -9.84178         90.9322
5.76                    -9.97789         92.7022
5.78                    -9.56133         95.2819
5.8                     -8.64059         96.2452
5.82                    -7.60716         94.2386
5.84                     -6.7488         90.5562
5.86                     -6.0322         86.5596
5.88                    -5.36295         82.2559
5.9                     -4.77821         77.3446
5.92                    -4.33749         72.2389
5.94                    -3.99479         67.4872
5.96                    -3.67071          62.987
5.98                    -3.36952         58.3605
6                       -3.13503          53.687
6.02                    -2.94892         49.2684
6.04                    -2.76123         45.0048
6.06                    -2.58311         40.5779
6.08                    -2.46125         36.0675
6.1                     -2.38272         31.8141
6.12                    -2.28774         27.7689
6.14                    -2.17331         23.5126
6.16                    -2.10043         18.9689
6.18                    -2.08364         14.5306
6.2                     -2.05519          10.319
6.22                    -1.98082         5.80508
6.24                    -1.94048        0.601459
6.26                    -2.00606         -4.8324
6.28                    -2.09362        -9.99028
6.3                     -2.07792        -15.7598
6.32                     -2.1071        -23.8317
6.34                    -2.59142        -34.0913
6.36                    -3.81323        -43.4154
6.38                     -5.3418        -46.9154
6.4                     -5.73428        -47.0705
6.42                    -5.11959        -58.0109
6.44                    -5.20956        -84.7967
6.46                    -6.37936        -128.831
6.48                    -6.55726         170.013
6.5                     -4.37375         115.158
