! TOUCHSTONE file generated by CST MICROWAVE STUDIO
! Date and time: Thu Oct 27 01:02:13 2022
! Project name: L.cst
! Parameters = {Di=1.27; Epsilon_r=1.56; InnerDiameter=1.27; Length=2; Lf=10; Lg=60; OuterConductorThickness=0.2921; OuterDiameter=3.6; Wf=3; Wp=41.2; de=1.5; df=6.8; g=0.8; gx=4.13507; gy=4.05023; h=2.34; hf=1.524; px=11.8992; py=11.1306; w=9.7; wx=7.7641; wy=7.08034}
! Header version: 2018
! Port assignment regex: !\s*Touchstone port\s*([0-9]+)\s*=\s*(CST MWS port|CST DS port)\s*([0-9]+|Zmin|Zmax)\s*\(\"(.*)\"\)(\s*mode\s*([0-9]+))?.*
! Touchstone port assignment:
! Touchstone port 1 = CST MWS port 1 ("")
# GHz S DB R 50
4.5                    -0.375788         95.9267
4.52                   -0.386378         94.4813
4.54                   -0.397316         93.0239
4.56                   -0.408618         91.5543
4.58                   -0.420292         90.0726
4.6                    -0.432343         88.5788
4.62                   -0.444772         87.0728
4.64                   -0.457576         85.5545
4.66                    -0.47075         84.0238
4.68                   -0.484291         82.4807
4.7                    -0.498189         80.9249
4.72                   -0.512442         79.3564
4.74                    -0.52704          77.775
4.76                   -0.541979         76.1806
4.78                   -0.557256         74.5729
4.8                    -0.572864         72.9518
4.82                   -0.588805         71.3172
4.84                   -0.605076         69.6687
4.86                   -0.621678         68.0064
4.88                   -0.638614         66.3299
4.9                    -0.655887         64.6392
4.92                   -0.673502          62.934
4.94                   -0.691463         61.2143
4.96                   -0.709779         59.4799
4.98                   -0.728456         57.7307
5                      -0.747502         55.9666
5.02                   -0.766924         54.1876
5.04                   -0.786731         52.3936
5.06                    -0.80693         50.5845
5.08                   -0.827528         48.7604
5.1                    -0.848534         46.9212
5.12                   -0.869952         45.0671
5.14                   -0.891788          43.198
5.16                   -0.914046          41.314
5.18                    -0.93673         39.4152
5.2                    -0.959841         37.5019
5.22                    -0.98338         35.5739
5.24                    -1.00735         33.6317
5.26                    -1.03174         31.6754
5.28                    -1.05655         29.7051
5.3                     -1.08178         27.7212
5.32                    -1.10742         25.7238
5.34                    -1.13346         23.7132
5.36                     -1.1599         21.6898
5.38                    -1.18671         19.6539
5.4                      -1.2139         17.6059
5.42                    -1.24144          15.546
5.44                    -1.26932         13.4747
5.46                    -1.29753         11.3925
5.48                    -1.32605         9.29968
5.5                     -1.35486         7.19678
5.52                    -1.38394         5.08425
5.54                    -1.41327          2.9626
5.56                    -1.44284         0.83234
5.58                    -1.47262        -1.30599
5.6                     -1.50258        -3.45183
5.62                    -1.53272        -5.60461
5.64                      -1.563        -7.76373
5.66                     -1.5934        -9.92859
5.68                    -1.62389        -12.0986
5.7                     -1.65447         -14.273
5.72                    -1.68509        -16.4512
5.74                    -1.71573        -18.6326
5.76                    -1.74638        -20.8164
5.78                    -1.77701         -23.002
5.8                     -1.80758        -25.1887
5.82                    -1.83808        -27.3758
5.84                    -1.86848        -29.5625
5.86                    -1.89876        -31.7481
5.88                    -1.92888         -33.932
5.9                     -1.95883        -36.1133
5.92                    -1.98856        -38.2915
5.94                    -2.01807        -40.4658
5.96                    -2.04731        -42.6355
5.98                    -2.07627           -44.8
6                        -2.1049        -46.9585
6.02                     -2.1332        -49.1105
6.04                    -2.16111        -51.2553
6.06                    -2.18863        -53.3924
6.08                    -2.21571        -55.5211
6.1                     -2.24234        -57.6411
6.12                    -2.26848        -59.7516
6.14                    -2.29411        -61.8525
6.16                     -2.3192        -63.9431
6.18                    -2.34373        -66.0232
6.2                     -2.36768        -68.0924
6.22                    -2.39103        -70.1504
6.24                    -2.41377        -72.1971
6.26                    -2.43589        -74.2322
6.28                    -2.45738        -76.2556
6.3                     -2.47824        -78.2672
6.32                    -2.49848         -80.267
6.34                    -2.51811        -82.2549
6.36                    -2.53716         -84.231
6.38                    -2.55564        -86.1952
6.4                      -2.5736        -88.1478
6.42                    -2.59108        -90.0886
6.44                    -2.60814        -92.0178
6.46                    -2.62484        -93.9353
6.48                    -2.64125        -95.8414
6.5                     -2.65745        -97.7358
