! TOUCHSTONE file generated by CST MICROWAVE STUDIO
! Date and time: Fri Oct 28 22:04:03 2022
! Project name: L.cst
! Parameters = {Di=1.27; Epsilon_r=1.56; InnerDiameter=1.27; Length=2; Lf=10; Lg=60; OuterConductorThickness=0.2921; OuterDiameter=3.6; Wf=3; Wp=41.2; de=1.5; df=6.8; g=0.8; gx=4.9413; gy=4.75488; h=2.34; hf=1.524; px=13.4325; py=11.0745; w=9.7; wx=8.4912; wy=6.31962}
! Header version: 2018
! Port assignment regex: !\s*Touchstone port\s*([0-9]+)\s*=\s*(CST MWS port|CST DS port)\s*([0-9]+|Zmin|Zmax)\s*\(\"(.*)\"\)(\s*mode\s*([0-9]+))?.*
! Touchstone port assignment:
! Touchstone port 1 = CST MWS port 1 ("")
# GHz S DB R 50
4.5                    -0.368637         97.5798
4.52                   -0.379272         96.1288
4.54                   -0.390273         94.6662
4.56                   -0.401653         93.1919
4.58                   -0.413421         91.7059
4.6                    -0.425582         90.2081
4.62                   -0.438137         88.6987
4.64                   -0.451082         87.1774
4.66                   -0.464415         85.6442
4.68                   -0.478129         84.0991
4.7                    -0.492219          82.542
4.72                    -0.50668         80.9726
4.74                   -0.521504         79.3909
4.76                   -0.536687         77.7969
4.78                   -0.552228         76.1902
4.8                    -0.568121         74.5707
4.82                   -0.584367         72.9383
4.84                   -0.600967         71.2928
4.86                   -0.617922         69.6341
4.88                   -0.635237         67.9621
4.9                    -0.652917         66.2765
4.92                   -0.670968         64.5772
4.94                   -0.689397         62.8643
4.96                   -0.708216         61.1374
4.98                   -0.727431         59.3966
5                      -0.747053         57.6418
5.02                   -0.767094         55.8729
5.04                   -0.787563           54.09
5.06                   -0.808472         52.2929
5.08                   -0.829831         50.4818
5.1                    -0.851651         48.6566
5.12                    -0.87394         46.8174
5.14                   -0.896709         44.9642
5.16                   -0.919966         43.0973
5.18                   -0.943718         41.2166
5.2                    -0.967971         39.3224
5.22                    -0.99273         37.4148
5.24                      -1.018         35.4939
5.26                    -1.04378         33.5601
5.28                    -1.07008         31.6135
5.3                      -1.0969         29.6543
5.32                    -1.12423         27.6829
5.34                    -1.15207         25.6996
5.36                    -1.18043         23.7046
5.38                    -1.20928         21.6983
5.4                     -1.23864          19.681
5.42                    -1.26849         17.6532
5.44                    -1.29882         15.6152
5.46                    -1.32963         13.5674
5.48                     -1.3609         11.5103
5.5                     -1.39263         9.44435
5.52                    -1.42481         7.36999
5.54                    -1.45741         5.28773
5.56                    -1.49043         3.19807
5.58                    -1.52385         1.10156
5.6                     -1.55766        -1.00126
5.62                    -1.59184        -3.10983
5.64                    -1.62638        -5.22355
5.66                    -1.66127        -7.34185
5.68                    -1.69647        -9.46409
5.7                     -1.73198        -11.5897
5.72                    -1.76778        -13.7179
5.74                    -1.80385        -15.8482
5.76                    -1.84017        -17.9798
5.78                    -1.87672        -20.1121
5.8                     -1.91349        -22.2445
5.82                    -1.95044        -24.3762
5.84                    -1.98756        -26.5065
5.86                    -2.02482        -28.6347
5.88                    -2.06221        -30.7602
5.9                     -2.09969        -32.8822
5.92                    -2.13725        -35.0001
5.94                    -2.17486        -37.1132
5.96                    -2.21248        -39.2208
5.98                     -2.2501        -41.3222
6                       -2.28769        -43.4168
6.02                    -2.32521         -45.504
6.04                    -2.36264        -47.5832
6.06                    -2.39994        -49.6537
6.08                    -2.43709        -51.7151
6.1                     -2.47406        -53.7669
6.12                    -2.51081        -55.8085
6.14                    -2.54731        -57.8395
6.16                    -2.58354        -59.8595
6.18                    -2.61947        -61.8681
6.2                     -2.65508         -63.865
6.22                    -2.69034          -65.85
6.24                    -2.72524        -67.8228
6.26                    -2.75975        -69.7832
6.28                    -2.79387        -71.7312
6.3                     -2.82761        -73.6665
6.32                    -2.86095        -75.5892
6.34                    -2.89391        -77.4992
6.36                    -2.92651        -79.3965
6.38                    -2.95877        -81.2811
6.4                     -2.99074        -83.1531
6.42                    -3.02245        -85.0125
6.44                    -3.05396        -86.8593
6.46                    -3.08534        -88.6936
6.48                    -3.11666        -90.5152
6.5                       -3.148        -92.3241
