! TOUCHSTONE file generated by CST MICROWAVE STUDIO
! Date and time: Thu Oct 27 21:59:09 2022
! Project name: L.cst
! Parameters = {Di=1.27; Epsilon_r=1.56; InnerDiameter=1.27; Length=2; Lf=10; Lg=60; OuterConductorThickness=0.2921; OuterDiameter=3.6; Wf=3; Wp=41.2; de=1.5; df=6.8; g=0.8; gx=0.995264; gy=2.66845; h=2.34; hf=1.524; px=9.97374; py=10.6134; w=9.7; wx=8.97847; wy=7.9449}
! Header version: 2018
! Port assignment regex: !\s*Touchstone port\s*([0-9]+)\s*=\s*(CST MWS port|CST DS port)\s*([0-9]+|Zmin|Zmax)\s*\(\"(.*)\"\)(\s*mode\s*([0-9]+))?.*
! Touchstone port assignment:
! Touchstone port 1 = CST MWS port 1 ("")
# GHz S DB R 50
4.5                    -0.987986         78.4515
4.52                    -1.03905         76.7931
4.54                    -1.09082         75.1207
4.56                    -1.14333         73.4318
4.58                    -1.19667         71.7242
4.6                     -1.25099          69.996
4.62                    -1.30646         68.2453
4.64                    -1.36328         66.4704
4.66                    -1.42171         64.6699
4.68                    -1.48199         62.8428
4.7                     -1.54438         60.9881
4.72                    -1.60916         59.1051
4.74                     -1.6766         57.1934
4.76                    -1.74695         55.2528
4.78                    -1.82049         53.2831
4.8                     -1.89746         51.2843
4.82                    -1.97809         49.2568
4.84                     -2.0626         47.2008
4.86                     -2.1512         45.1168
4.88                    -2.24407         43.0052
4.9                      -2.3414         40.8667
4.92                    -2.44333         38.7019
4.94                    -2.55001         36.5114
4.96                    -2.66156          34.296
4.98                    -2.77811         32.0563
5                       -2.89974         29.7931
5.02                    -3.02654         27.5072
5.04                     -3.1586         25.1992
5.06                    -3.29596         22.8699
5.08                    -3.43867           20.52
5.1                     -3.58679         18.1504
5.12                    -3.74034         15.7618
5.14                    -3.89935         13.3548
5.16                    -4.06383         10.9304
5.18                    -4.23378         8.48931
5.2                      -4.4092         6.03231
5.22                    -4.59009         3.56031
5.24                    -4.77642         1.07414
5.26                    -4.96816        -1.42511
5.28                    -5.16528        -3.93657
5.3                     -5.36774        -6.45909
5.32                    -5.57548        -8.99147
5.34                    -5.78842        -11.5324
5.36                    -6.00651        -14.0805
5.38                    -6.22963        -16.6341
5.4                     -6.45769        -19.1915
5.42                    -6.69056        -21.7508
5.44                     -6.9281        -24.3098
5.46                    -7.17014        -26.8662
5.48                    -7.41648        -29.4173
5.5                     -7.66691        -31.9602
5.52                    -7.92115        -34.4917
5.54                    -8.17892        -37.0082
5.56                    -8.43986        -39.5057
5.58                    -8.70357        -41.9801
5.6                     -8.96958        -44.4265
5.62                    -9.23734        -46.8399
5.64                    -9.50621        -49.2148
5.66                    -9.77545        -51.5453
5.68                    -10.0442        -53.8252
5.7                     -10.3115        -56.0481
5.72                    -10.5762        -58.2073
5.74                    -10.8369        -60.2961
5.76                    -11.0922        -62.3078
5.78                    -11.3403        -64.2365
5.8                     -11.5793        -66.0764
5.82                     -11.807        -67.8232
5.84                    -12.0211        -69.4738
5.86                     -12.219        -71.0269
5.88                    -12.3981        -72.4839
5.9                     -12.5555        -73.8488
5.92                    -12.6884        -75.1287
5.94                    -12.7943        -76.3345
5.96                    -12.8706        -77.4803
5.98                    -12.9154         -78.584
6                       -12.9272        -79.6659
6.02                     -12.905        -80.7489
6.04                    -12.8486         -81.857
6.06                    -12.7587        -83.0146
6.08                    -12.6363        -84.2451
6.1                     -12.4835        -85.5701
6.12                    -12.3025        -87.0087
6.14                    -12.0963        -88.5771
6.16                     -11.868        -90.2877
6.18                    -11.6208        -92.1501
6.2                      -11.358        -94.1704
6.22                    -11.0829         -96.352
6.24                    -10.7984         -98.696
6.26                    -10.5077        -101.202
6.28                    -10.2133        -103.867
6.3                     -9.91786        -106.689
6.32                    -9.62357        -109.663
6.34                    -9.33261        -112.786
6.36                     -9.0469        -116.054
6.38                    -8.76824        -119.462
6.4                     -8.49831        -123.008
6.42                    -8.23868        -126.687
6.44                    -7.99084        -130.498
6.46                    -7.75625        -134.439
6.48                    -7.53633        -138.507
6.5                     -7.33252        -142.703
