! TOUCHSTONE file generated by CST MICROWAVE STUDIO
! Date and time: Thu Oct 27 09:35:23 2022
! Project name: L.cst
! Parameters = {Di=1.27; Epsilon_r=1.56; InnerDiameter=1.27; Length=2; Lf=10; Lg=60; OuterConductorThickness=0.2921; OuterDiameter=3.6; Wf=3; Wp=41.2; de=1.5; df=6.8; g=0.8; gx=4.70901; gy=3.31065; h=2.34; hf=1.524; px=8.56446; py=13.5864; w=9.7; wx=3.85545; wy=10.2758}
! Header version: 2018
! Port assignment regex: !\s*Touchstone port\s*([0-9]+)\s*=\s*(CST MWS port|CST DS port)\s*([0-9]+|Zmin|Zmax)\s*\(\"(.*)\"\)(\s*mode\s*([0-9]+))?.*
! Touchstone port assignment:
! Touchstone port 1 = CST MWS port 1 ("")
# GHz S DB R 50
4.5                    -0.265283         93.3722
4.52                   -0.280868         91.9198
4.54                    -0.29773         90.4842
4.56                   -0.314309         89.0639
4.58                    -0.32933         87.6543
4.6                    -0.341933         86.2484
4.62                   -0.351742         84.8384
4.64                   -0.358839         83.4165
4.66                   -0.363691         81.9763
4.68                   -0.367036         80.5132
4.7                    -0.369731          79.025
4.72                   -0.372629         77.5118
4.74                   -0.376456         75.9756
4.76                   -0.381734         74.4196
4.78                   -0.388735         72.8479
4.8                    -0.397477         71.2646
4.82                   -0.407752         69.6734
4.84                    -0.41918         68.0769
4.86                   -0.431278         66.4768
4.88                   -0.443532         64.8731
4.9                    -0.455478         63.2649
4.92                    -0.46675         61.6501
4.94                   -0.477125         60.0262
4.96                   -0.486541         58.3903
4.98                   -0.495088         56.7397
5                      -0.502986         55.0723
5.02                   -0.510541         53.3866
5.04                   -0.518102         51.6821
5.06                   -0.526004         49.9591
5.08                   -0.534528         48.2187
5.1                    -0.543864         46.4625
5.12                   -0.554097         44.6925
5.14                   -0.565193         42.9106
5.16                   -0.577013         41.1185
5.18                   -0.589338         39.3174
5.2                    -0.601899          37.508
5.22                   -0.614411         35.6904
5.24                   -0.626618         33.8636
5.26                   -0.638315         32.0267
5.28                   -0.649387          30.178
5.3                    -0.659807         28.3157
5.32                   -0.669648         26.4382
5.34                   -0.679062         24.5443
5.36                   -0.688264         22.6332
5.38                   -0.697499         20.7045
5.4                    -0.707008         18.7588
5.42                   -0.716995         16.7969
5.44                     -0.7276         14.8203
5.46                    -0.73888         12.8307
5.48                   -0.750796         10.8297
5.5                    -0.763219         8.81907
5.52                   -0.775946         6.79982
5.54                   -0.788721         4.77265
5.56                   -0.801269         2.73753
5.58                   -0.813332        0.693823
5.6                    -0.824706        -1.35973
5.62                    -0.83527        -3.42481
5.64                   -0.845004        -5.50333
5.66                   -0.854002        -7.59717
5.68                   -0.862462        -9.70791
5.7                     -0.87067        -11.8366
5.72                    -0.87896        -13.9836
5.74                   -0.887678        -16.1484
5.76                   -0.897137        -18.3296
5.78                   -0.907566        -20.5254
5.8                     -0.91908        -22.7333
5.82                   -0.931647        -24.9505
5.84                   -0.945084        -27.1747
5.86                   -0.959064        -29.4039
5.88                   -0.973146        -31.6369
5.9                    -0.986828        -33.8741
5.92                   -0.999603        -36.1168
5.94                    -1.01104        -38.3679
5.96                    -1.02087        -40.6315
5.98                      -1.029        -42.9124
6                       -1.03562        -45.2159
6.02                    -1.04119        -47.5468
6.04                    -1.04641        -49.9092
6.06                    -1.05217        -52.3055
6.08                    -1.05947        -54.7365
6.1                      -1.0693        -57.2003
6.12                     -1.0825        -59.6932
6.14                    -1.09965        -62.2097
6.16                     -1.1209        -64.7428
6.18                    -1.14595        -67.2858
6.2                     -1.17393         -69.833
6.22                    -1.20349        -72.3812
6.24                    -1.23286        -74.9317
6.26                    -1.26009        -77.4911
6.28                    -1.28331        -80.0729
6.3                     -1.30114        -82.6977
6.32                    -1.31308        -85.3924
6.34                    -1.31991         -88.189
6.36                    -1.32402        -91.1221
6.38                    -1.32959        -94.2257
6.4                     -1.34261        -97.5302
6.42                    -1.37081        -101.059
6.44                    -1.42345        -104.825
6.46                    -1.51107        -108.831
6.48                     -1.6454        -113.067
6.5                     -1.83917        -117.506
