! TOUCHSTONE file generated by CST MICROWAVE STUDIO
! Date and time: Sat Oct 29 21:17:17 2022
! Project name: L.cst
! Parameters = {Di=1.27; Epsilon_r=1.56; InnerDiameter=1.27; Length=2; Lf=10; Lg=60; OuterConductorThickness=0.2921; OuterDiameter=3.6; Wf=3; Wp=41.2; de=1.5; df=6.8; g=0.8; gx=4.04814; gy=1.71723; h=2.34; hf=1.524; px=10.0664; py=9.48309; w=9.7; wx=6.01821; wy=7.76585}
! Header version: 2018
! Port assignment regex: !\s*Touchstone port\s*([0-9]+)\s*=\s*(CST MWS port|CST DS port)\s*([0-9]+|Zmin|Zmax)\s*\(\"(.*)\"\)(\s*mode\s*([0-9]+))?.*
! Touchstone port assignment:
! Touchstone port 1 = CST MWS port 1 ("")
# GHz S DB R 50
4.5                    -0.406388         85.4539
4.52                   -0.416088         83.8705
4.54                    -0.42688         82.2656
4.56                   -0.438758         80.6398
4.58                   -0.451694         78.9936
4.6                    -0.465634         77.3274
4.62                   -0.480513         75.6413
4.64                   -0.496253         73.9353
4.66                   -0.512772         72.2093
4.68                   -0.529987          70.463
4.7                    -0.547813          68.696
4.72                   -0.566172         66.9078
4.74                   -0.584996         65.0978
4.76                   -0.604217         63.2653
4.78                   -0.623784         61.4095
4.8                    -0.643654         59.5295
4.82                   -0.663791         57.6247
4.84                   -0.684172          55.694
4.86                   -0.704784         53.7368
4.88                   -0.725621          51.752
4.9                    -0.746686          49.739
4.92                   -0.767988         47.6969
4.94                   -0.789541          45.625
4.96                   -0.811366         43.5227
4.98                   -0.833482         41.3893
5                      -0.855913         39.2244
5.02                   -0.878681         37.0273
5.04                   -0.901808         34.7978
5.06                   -0.925314         32.5355
5.08                   -0.949216         30.2402
5.1                    -0.973523         27.9116
5.12                   -0.998243         25.5498
5.14                    -1.02338         23.1547
5.16                    -1.04892         20.7263
5.18                    -1.07485         18.2649
5.2                     -1.10116         15.7706
5.22                    -1.12782         13.2437
5.24                    -1.15479         10.6847
5.26                    -1.18204         8.09408
5.28                    -1.20951         5.47222
5.3                     -1.23715         2.81983
5.32                     -1.2649        0.137601
5.34                    -1.29269        -2.57368
5.36                    -1.32046        -5.31315
5.38                    -1.34812        -8.07988
5.4                      -1.3756        -10.8728
5.42                    -1.40282        -13.6909
5.44                    -1.42969         -16.533
5.46                    -1.45614        -19.3977
5.48                    -1.48208        -22.2839
5.5                     -1.50743          -25.19
5.52                    -1.53211        -28.1145
5.54                    -1.55605         -31.056
5.56                    -1.57917        -34.0128
5.58                    -1.60142        -36.9832
5.6                     -1.62273        -39.9655
5.62                    -1.64305        -42.9578
5.64                    -1.66233        -45.9585
5.66                    -1.68054        -48.9655
5.68                    -1.69765        -51.9769
5.7                     -1.71363        -54.9909
5.72                    -1.72848        -58.0054
5.74                    -1.74219        -61.0186
5.76                    -1.75476        -64.0283
5.78                     -1.7662        -67.0328
5.8                     -1.77654        -70.0299
5.82                    -1.78579         -73.018
5.84                      -1.794        -75.9949
5.86                    -1.80118         -78.959
5.88                    -1.80739        -81.9083
5.9                     -1.81266        -84.8413
5.92                    -1.81703        -87.7562
5.94                    -1.82056        -90.6515
5.96                    -1.82327        -93.5256
5.98                    -1.82522        -96.3771
6                       -1.82644        -99.2049
6.02                    -1.82696        -102.008
6.04                    -1.82683        -104.784
6.06                    -1.82606        -107.534
6.08                    -1.82467        -110.255
6.1                     -1.82268        -112.948
6.12                    -1.82011        -115.612
6.14                    -1.81696        -118.246
6.16                    -1.81323        -120.851
6.18                    -1.80893        -123.426
6.2                     -1.80405         -125.97
6.22                     -1.7986        -128.486
6.24                    -1.79258        -130.972
6.26                    -1.78599        -133.429
6.28                    -1.77887        -135.858
6.3                     -1.77122         -138.26
6.32                    -1.76311        -140.636
6.34                    -1.75457        -142.986
6.36                    -1.74569        -145.313
6.38                    -1.73656        -147.616
6.4                     -1.72731        -149.898
6.42                    -1.71808        -152.159
6.44                    -1.70906        -154.402
6.46                    -1.70043        -156.625
6.48                    -1.69243        -158.832
6.5                     -1.68532        -161.022
