! TOUCHSTONE file generated by CST MICROWAVE STUDIO
! Date and time: Thu Oct 27 03:18:39 2022
! Project name: L.cst
! Parameters = {Di=1.27; Epsilon_r=1.56; InnerDiameter=1.27; Length=2; Lf=10; Lg=60; OuterConductorThickness=0.2921; OuterDiameter=3.6; Wf=3; Wp=41.2; de=1.5; df=6.8; g=0.8; gx=3.18344; gy=0.466146; h=2.34; hf=1.524; px=13.1557; py=12.3611; w=9.7; wx=9.97224; wy=11.8949}
! Header version: 2018
! Port assignment regex: !\s*Touchstone port\s*([0-9]+)\s*=\s*(CST MWS port|CST DS port)\s*([0-9]+|Zmin|Zmax)\s*\(\"(.*)\"\)(\s*mode\s*([0-9]+))?.*
! Touchstone port assignment:
! Touchstone port 1 = CST MWS port 1 ("")
# GHz S DB R 50
4.5                     -2.33727         43.0869
4.52                    -2.44662         39.3904
4.54                    -2.58821         35.2806
4.56                    -2.77663         30.9852
4.58                    -2.98628          26.649
4.6                     -3.18647         22.1567
4.62                     -3.3782         17.2626
4.64                    -3.59094         11.8475
4.66                    -3.84847         5.99623
4.68                    -4.14619       -0.159086
4.7                      -4.4612        -6.62421
4.72                    -4.78023        -13.5635
4.74                    -5.11375        -21.1491
4.76                    -5.48238        -29.4157
4.78                    -5.89334        -38.2701
4.8                      -6.3313        -47.6127
4.82                    -6.77016        -57.4356
4.84                    -7.19222        -67.7974
4.86                    -7.59571        -78.6996
4.88                    -7.98518        -89.9909
4.9                     -8.35671        -101.384
4.92                    -8.69324         -112.57
4.94                    -8.97456        -123.322
4.96                    -9.19304        -133.525
4.98                    -9.35978        -143.099
5                       -9.49372        -151.924
5.02                    -9.60333        -159.855
5.04                      -9.679        -166.816
5.06                    -9.70445        -172.891
5.08                    -9.67594         -178.28
5.1                     -9.60775         176.832
5.12                     -9.5182         172.365
5.14                    -9.41439         168.301
5.16                    -9.29375         164.581
5.18                    -9.15915         161.081
5.2                     -9.02845         157.699
5.22                    -8.92768         154.453
5.24                    -8.87524         151.506
5.26                    -8.86899         149.119
5.28                    -8.87627         147.585
5.3                     -8.82434           147.1
5.32                    -8.60638         147.507
5.34                    -8.13353         148.083
5.36                    -7.41273         147.769
5.38                    -6.55596         145.816
5.4                     -5.70113         142.145
5.42                    -4.93895          137.14
5.44                    -4.29747         131.276
5.46                    -3.76332          124.87
5.48                    -3.31118         118.018
5.5                     -2.92523         110.654
5.52                    -2.60562          102.65
5.54                     -2.3644         93.8722
5.56                    -2.22143         84.1841
5.58                    -2.20619         73.4384
5.6                      -2.3611         61.4978
5.62                       -2.74         48.2762
5.64                     -3.3998         33.7569
5.66                    -4.38844         17.9581
5.68                    -5.72989        0.842215
5.7                     -7.40115        -17.8246
5.72                    -9.28756        -38.6162
5.74                    -11.1066        -62.3176
5.76                    -12.3767        -88.8443
5.78                    -12.6986        -115.677
5.8                     -12.2017        -139.311
5.82                    -11.3514        -158.393
5.84                    -10.4811        -173.415
5.86                    -9.69842         174.728
5.88                    -8.98983         165.123
5.9                     -8.33057         156.858
5.92                    -7.73869         149.244
5.94                    -7.25198          142.06
5.96                    -6.87294         135.447
5.98                    -6.54787         129.513
6                       -6.20823         123.985
6.02                    -5.83848         118.311
6.04                    -5.48876         112.129
6.06                    -5.21133         105.533
6.08                    -4.99613         98.8076
6.1                     -4.77495         91.8981
6.12                    -4.49858         84.1488
6.14                    -4.21174         74.6397
6.16                    -4.03942         62.7367
6.18                    -4.11592         48.1852
6.2                     -4.54381         30.7436
6.22                    -5.39598         9.69302
6.24                    -6.70297        -16.6955
6.26                    -8.28343        -51.6455
6.28                    -9.24543        -97.6969
6.3                     -8.46375        -147.726
6.32                    -6.76235         168.669
6.34                    -5.46855         131.025
6.36                    -5.08935         95.4966
6.38                    -5.78156         58.7211
6.4                     -7.53052         16.3296
6.42                    -9.48225        -38.2826
6.44                     -9.1859         -99.844
6.46                    -7.18393        -147.189
6.48                    -5.61248        -179.512
6.5                     -4.68125         158.172
