! TOUCHSTONE file generated by CST MICROWAVE STUDIO
! Date and time: Sat Oct 29 03:34:34 2022
! Project name: L.cst
! Parameters = {Di=1.27; Epsilon_r=1.56; InnerDiameter=1.27; Length=2; Lf=10; Lg=60; OuterConductorThickness=0.2921; OuterDiameter=3.6; Wf=3; Wp=41.2; de=1.5; df=6.8; g=0.8; gx=0.897606; gy=3.68685; h=2.34; hf=1.524; px=13.5257; py=13.1163; w=9.7; wx=12.6281; wy=9.4294}
! Header version: 2018
! Port assignment regex: !\s*Touchstone port\s*([0-9]+)\s*=\s*(CST MWS port|CST DS port)\s*([0-9]+|Zmin|Zmax)\s*\(\"(.*)\"\)(\s*mode\s*([0-9]+))?.*
! Touchstone port assignment:
! Touchstone port 1 = CST MWS port 1 ("")
# GHz S DB R 50
4.5                     -4.82062         89.0513
4.52                    -4.91694         89.0025
4.54                    -5.00258         89.0605
4.56                    -5.04418         89.1432
4.58                    -5.05872         89.0285
4.6                     -5.07077         88.8292
4.62                    -5.05826         88.6165
4.64                    -5.01849          88.195
4.66                    -4.98096         87.5598
4.68                     -4.9414         86.8481
4.7                     -4.88621         85.9654
4.72                    -4.83522         84.8277
4.74                    -4.79891          83.541
4.76                    -4.76505         82.1167
4.78                    -4.73881         80.4512
4.8                     -4.73848         78.5651
4.82                    -4.76247         76.5307
4.84                    -4.80712         74.2741
4.86                     -4.8925         71.7329
4.88                    -5.03393          68.974
4.9                     -5.23473         65.9822
4.92                    -5.52111         62.6649
4.94                    -5.93935         59.0599
4.96                    -6.53834         55.2868
4.98                    -7.39986         51.5006
5                        -8.6784         48.2821
5.02                    -10.5974         47.5437
5.04                     -13.261         54.8274
5.06                    -15.0905         80.0694
5.08                    -12.8742         105.707
5.1                      -9.6804         111.127
5.12                    -7.46819         106.706
5.14                    -6.17031         99.2958
5.16                    -5.52549         91.4039
5.18                    -5.36209         83.9184
5.2                     -5.60052         77.3384
5.22                    -6.20325         72.3132
5.24                    -7.11391          69.886
5.26                    -8.15146         71.5072
5.28                     -8.8623          77.916
5.3                     -8.72394         86.4607
5.32                    -7.83296         92.4718
5.34                    -6.71934         94.5239
5.36                    -5.69276         93.7671
5.38                    -4.82949         91.3517
5.4                     -4.13657         87.9883
5.42                    -3.59575         84.1698
5.44                    -3.17442         80.1671
5.46                    -2.84852         76.0963
5.48                    -2.60025         72.0488
5.5                     -2.40808         68.0731
5.52                    -2.25466         64.1298
5.54                    -2.13601         60.1653
5.56                    -2.04892         56.1822
5.58                    -1.98239         52.1403
5.6                     -1.93508         47.9279
5.62                    -1.91465         43.4793
5.64                    -1.91985         38.7293
5.66                    -1.95091         33.4841
5.68                    -2.02644         27.4677
5.7                     -2.17418         20.3322
5.72                    -2.43455          11.405
5.74                    -2.91144       -0.691311
5.76                    -3.86672        -18.7899
5.78                    -5.90048        -49.9557
5.8                     -9.04328        -114.674
5.82                    -6.97529         159.248
5.84                    -4.06745         112.866
5.86                     -2.6742         90.7002
5.88                    -1.80922         74.7638
5.9                     -1.44704          63.501
5.92                    -1.24795         55.1195
5.94                    -1.11954         48.3403
5.96                    -1.04577         42.5937
5.98                   -0.997746         37.6747
6                      -0.943551         33.2499
6.02                   -0.903047          29.032
6.04                   -0.892776         25.1411
6.06                   -0.868944         21.6025
6.08                   -0.824141          18.017
6.1                    -0.820711         14.3714
6.12                   -0.837643         11.1076
6.14                   -0.788096         7.87123
6.16                   -0.751713          3.8547
6.18                   -0.873676       -0.455221
6.2                     -1.03674        -5.27743
6.22                    -4.12283         11.9223
6.24                    -0.83637       0.0500356
6.26                   -0.648704        -6.28002
6.28                   -0.753523         -10.442
6.3                    -0.776924        -13.1426
6.32                   -0.691354        -16.2901
6.34                   -0.706005        -19.8712
6.36                   -0.775348        -22.7465
6.38                    -0.74577        -25.4169
6.4                     -0.71507        -28.7361
6.42                   -0.782465        -31.9481
6.44                   -0.817731        -34.5961
6.46                   -0.781621        -37.6306
6.48                   -0.823288         -41.115
6.5                    -0.922245        -44.0983
