! TOUCHSTONE file generated by CST MICROWAVE STUDIO
! Date and time: Sat Oct 29 19:47:40 2022
! Project name: L.cst
! Parameters = {Di=1.27; Epsilon_r=1.56; InnerDiameter=1.27; Length=2; Lf=10; Lg=60; OuterConductorThickness=0.2921; OuterDiameter=3.6; Wf=3; Wp=41.2; de=1.5; df=6.8; g=0.8; gx=1.35774; gy=2.92887; h=2.34; hf=1.524; px=14.9908; py=8.04796; w=9.7; wx=13.633; wy=5.11909}
! Header version: 2018
! Port assignment regex: !\s*Touchstone port\s*([0-9]+)\s*=\s*(CST MWS port|CST DS port)\s*([0-9]+|Zmin|Zmax)\s*\(\"(.*)\"\)(\s*mode\s*([0-9]+))?.*
! Touchstone port assignment:
! Touchstone port 1 = CST MWS port 1 ("")
# GHz S DB R 50
4.5                     -12.4639         102.884
4.52                    -12.1456         108.522
4.54                     -11.637         113.079
4.56                    -11.0608         116.165
4.58                     -10.471         118.295
4.6                     -9.87577          119.38
4.62                     -9.3368         119.695
4.64                    -8.82831         119.499
4.66                    -8.36824         118.722
4.68                    -7.96378         117.653
4.7                     -7.59102          116.27
4.72                    -7.27054         114.606
4.74                    -6.98604         112.811
4.76                     -6.7336         110.785
4.78                    -6.52357         108.628
4.8                     -6.33762         106.349
4.82                    -6.18566         103.884
4.84                    -6.06579         101.324
4.86                    -5.96954         98.5944
4.88                    -5.91038         95.6906
4.9                     -5.88089         92.6426
4.92                    -5.88605         89.3528
4.94                    -5.93725         85.8499
4.96                    -6.03119         82.0859
4.98                    -6.18642         77.9754
5                       -6.41549         73.5286
5.02                    -6.73265         68.6192
5.04                    -7.17801         63.1651
5.06                    -7.78838         57.0954
5.08                    -8.63434         50.1923
5.1                     -9.83891         42.3163
5.12                     -11.593         33.2011
5.14                    -14.3149         22.2458
5.16                    -19.0983         7.74051
5.18                    -31.2404        -35.6945
5.2                     -23.0224        -171.414
5.22                    -16.5849         168.278
5.24                    -13.6962         154.174
5.26                    -12.4873         142.256
5.28                    -12.6042         132.851
5.3                     -14.2103         129.728
5.32                    -16.8625         148.741
5.34                    -13.7467        -172.918
5.36                    -8.14344        -170.232
5.38                     -4.5722         177.234
5.4                     -2.59983         162.357
5.42                    -1.57832         148.981
5.44                    -1.06628         137.819
5.46                   -0.814284         128.587
5.48                   -0.699075         120.789
5.5                    -0.678661         114.073
5.52                     -0.7319         108.665
5.54                   -0.617546         103.978
5.56                   -0.573153         98.7306
5.58                   -0.586011          93.878
5.6                    -0.625017         89.2457
5.62                   -0.706756         84.7084
5.64                   -0.942224         80.5647
5.66                   -0.923998         79.0915
5.68                   -0.745312         74.5359
5.7                    -0.745573         69.8249
5.72                   -0.790043         65.1009
5.74                   -0.853133          60.116
5.76                   -0.944577         54.5702
5.78                     -1.0793         48.1473
5.8                     -1.28214         40.1356
5.82                    -1.64012         29.1772
5.84                    -2.34619         12.1154
5.86                     -3.9732        -20.7308
5.88                    -6.41445        -100.695
5.9                     -3.18482         162.622
5.92                    -1.14882         117.665
5.94                   -0.561813           95.54
5.96                   -0.377794          82.322
5.98                   -0.326596         73.3226
6                      -0.292163         66.4874
6.02                   -0.297132         60.7131
6.04                   -0.321028         56.0232
6.06                   -0.266005          51.078
6.08                   -0.237205         49.7938
6.1                     -0.29882         44.6353
6.12                   -0.322035         41.3881
6.14                   -0.298352         37.9841
6.16                   -0.326736         34.7646
6.18                   -0.320739         31.8325
6.2                    -0.317754         28.7374
6.22                   -0.334916         25.8783
6.24                   -0.321021         23.0459
6.26                   -0.329666          20.141
6.28                   -0.333554         17.4506
6.3                    -0.321645         14.6445
6.32                   -0.335031         11.8953
6.34                   -0.326284         9.25856
6.36                   -0.323246         6.47293
6.38                   -0.333056         3.84986
6.4                    -0.317278         1.19165
6.42                   -0.324927        -1.53821
6.44                   -0.323672        -4.08738
6.46                   -0.310301        -6.79643
6.48                    -0.32392        -9.42806
6.5                    -0.309406        -11.9765
