! TOUCHSTONE file generated by CST MICROWAVE STUDIO
! Date and time: Thu Oct 27 03:35:13 2022
! Project name: L.cst
! Parameters = {Di=1.27; Epsilon_r=1.56; InnerDiameter=1.27; Length=2; Lf=10; Lg=60; OuterConductorThickness=0.2921; OuterDiameter=3.6; Wf=3; Wp=41.2; de=1.5; df=6.8; g=0.8; gx=3.88694; gy=2.21232; h=2.34; hf=1.524; px=13.9087; py=8.0377; w=9.7; wx=10.0217; wy=5.82538}
! Header version: 2018
! Port assignment regex: !\s*Touchstone port\s*([0-9]+)\s*=\s*(CST MWS port|CST DS port)\s*([0-9]+|Zmin|Zmax)\s*\(\"(.*)\"\)(\s*mode\s*([0-9]+))?.*
! Touchstone port assignment:
! Touchstone port 1 = CST MWS port 1 ("")
# GHz S DB R 50
4.5                     -1.00831          76.304
4.52                    -1.05707         74.2185
4.54                    -1.11034         72.0906
4.56                     -1.1681         69.9252
4.58                    -1.22998         67.7254
4.6                     -1.29542         65.4924
4.62                    -1.36383         63.2251
4.64                    -1.43471         60.9204
4.66                     -1.5078         58.5737
4.68                    -1.58307         56.1799
4.7                     -1.66079         53.7342
4.72                    -1.74138         51.2325
4.74                    -1.82542         48.6722
4.76                    -1.91346          46.052
4.78                    -2.00599         43.3719
4.8                     -2.10335         40.6326
4.82                     -2.2057         37.8354
4.84                    -2.31301         34.9814
4.86                    -2.42512         32.0712
4.88                    -2.54176         29.1046
4.9                      -2.6626         26.0805
4.92                    -2.78736         22.9971
4.94                     -2.9158          19.852
4.96                    -3.04776         16.6427
4.98                    -3.18316         13.3668
5                       -3.32199         10.0225
5.02                    -3.46426         6.60869
5.04                    -3.60994         3.12531
5.06                    -3.75893        -0.42688
5.08                    -3.91101        -4.04632
5.1                     -4.06581        -7.73082
5.12                     -4.2228        -11.4778
5.14                     -4.3813        -15.2847
5.16                    -4.54053        -19.1488
5.18                    -4.69961        -23.0677
5.2                     -4.85763         -27.039
5.22                    -5.01368        -31.0605
5.24                    -5.16691        -35.1297
5.26                    -5.31655        -39.2436
5.28                    -5.46193         -43.399
5.3                     -5.60245        -47.5912
5.32                     -5.7376        -51.8146
5.34                    -5.86693        -56.0626
5.36                    -5.99002        -60.3274
5.38                    -6.10645        -64.6003
5.4                      -6.2158        -68.8723
5.42                    -6.31765        -73.1341
5.44                    -6.41157        -77.3766
5.46                    -6.49719        -81.5915
5.48                    -6.57421        -85.7712
5.5                     -6.64244        -89.9094
5.52                    -6.70186        -94.0007
5.54                    -6.75265         -98.041
5.56                    -6.79519        -102.027
5.58                    -6.83005        -105.955
5.6                     -6.85797        -109.822
5.62                     -6.8798        -113.625
5.64                     -6.8964        -117.362
5.66                    -6.90861        -121.027
5.68                    -6.91713        -124.619
5.7                     -6.92253        -128.133
5.72                    -6.92516        -131.567
5.74                    -6.92521         -134.92
5.76                    -6.92275        -138.193
5.78                    -6.91781        -141.386
5.8                     -6.91045        -144.506
5.82                    -6.90089        -147.556
5.84                    -6.88958        -150.544
5.86                    -6.87723        -153.477
5.88                    -6.86481         -156.36
5.9                      -6.8535        -159.198
5.92                    -6.84455        -161.993
5.94                    -6.83915        -164.747
5.96                    -6.83833        -167.456
5.98                    -6.84276        -170.119
6                       -6.85276        -172.732
6.02                    -6.86825        -175.291
6.04                     -6.8889        -177.798
6.06                    -6.91426         179.746
6.08                    -6.94409         177.335
6.1                     -6.97857          174.96
6.12                    -7.01865         172.612
6.14                    -7.06612         170.282
6.16                     -7.1237         167.965
6.18                    -7.19481         165.664
6.2                      -7.2832         163.392
6.22                    -7.39232         161.173
6.24                    -7.52461         159.045
6.26                    -7.68053         157.056
6.28                    -7.85766         155.262
6.3                     -8.04977         153.721
6.32                    -8.24621         152.479
6.34                    -8.43212         151.557
6.36                    -8.58982         150.934
6.38                    -8.70198         150.534
6.4                     -8.75604         150.221
6.42                    -8.74885         149.824
6.44                    -8.68915         149.161
6.46                    -8.59705         148.087
6.48                    -8.50051         146.511
6.5                     -8.43091         144.418
