! TOUCHSTONE file generated by CST MICROWAVE STUDIO
! Date and time: Sat Oct 29 04:07:46 2022
! Project name: L.cst
! Parameters = {Di=1.27; Epsilon_r=1.56; InnerDiameter=1.27; Length=2; Lf=10; Lg=60; OuterConductorThickness=0.2921; OuterDiameter=3.6; Wf=3; Wp=41.2; de=1.5; df=6.8; g=0.8; gx=3.27921; gy=3.81001; h=2.34; hf=1.524; px=13.3097; py=8.69658; w=9.7; wx=10.0305; wy=4.88658}
! Header version: 2018
! Port assignment regex: !\s*Touchstone port\s*([0-9]+)\s*=\s*(CST MWS port|CST DS port)\s*([0-9]+|Zmin|Zmax)\s*\(\"(.*)\"\)(\s*mode\s*([0-9]+))?.*
! Touchstone port assignment:
! Touchstone port 1 = CST MWS port 1 ("")
# GHz S DB R 50
4.5                    -0.602709         89.5066
4.52                   -0.630181         87.8407
4.54                   -0.659209         86.1621
4.56                   -0.689628         84.4706
4.58                   -0.721292         82.7656
4.6                    -0.754071         81.0466
4.62                   -0.787862         79.3127
4.64                   -0.822583          77.563
4.66                   -0.858178         75.7964
4.68                   -0.894617          74.012
4.7                    -0.931892         72.2085
4.72                   -0.970018         70.3848
4.74                    -1.00903         68.5401
4.76                    -1.04898         66.6733
4.78                    -1.08994         64.7832
4.8                       -1.132         62.8692
4.82                    -1.17524         60.9303
4.84                    -1.21977         58.9659
4.86                    -1.26569         56.9754
4.88                    -1.31313         54.9582
4.9                     -1.36218         52.9139
4.92                    -1.41297         50.8421
4.94                    -1.46559         48.7425
4.96                    -1.52017         46.6151
4.98                    -1.57679         44.4596
5                       -1.63556          42.276
5.02                    -1.69657         40.0643
5.04                    -1.75988         37.8246
5.06                    -1.82557         35.5571
5.08                    -1.89372         33.2619
5.1                     -1.96436         30.9392
5.12                    -2.03754         28.5893
5.14                     -2.1133         26.2125
5.16                    -2.19166         23.8091
5.18                    -2.27265         21.3794
5.2                     -2.35626         18.9238
5.22                     -2.4425         16.4427
5.24                    -2.53135         13.9366
5.26                     -2.6228         11.4059
5.28                    -2.71683         8.85089
5.3                      -2.8134         6.27224
5.32                    -2.91247          3.6704
5.34                      -3.014         1.04591
5.36                    -3.11793        -1.60069
5.38                     -3.2242         -4.2688
5.4                     -3.33276        -6.95783
5.42                    -3.44353        -9.66713
5.44                    -3.55645         -12.396
5.46                    -3.67145        -15.1438
5.48                    -3.78844        -17.9097
5.5                     -3.90734        -20.6929
5.52                    -4.02809        -23.4927
5.54                     -4.1506         -26.308
5.56                    -4.27478        -29.1381
5.58                    -4.40058        -31.9819
5.6                      -4.5279        -34.8384
5.62                    -4.65667        -37.7065
5.64                    -4.78684        -40.5851
5.66                    -4.91833         -43.473
5.68                     -5.0511        -46.3689
5.7                     -5.18508        -49.2716
5.72                    -5.32025        -52.1797
5.74                    -5.45656        -55.0918
5.76                      -5.594        -58.0064
5.78                    -5.73255         -60.922
5.8                     -5.87223         -63.837
5.82                    -6.01304        -66.7498
5.84                    -6.15502        -69.6588
5.86                    -6.29821        -72.5621
5.88                    -6.44267         -75.458
5.9                     -6.58849        -78.3447
5.92                    -6.73576        -81.2201
5.94                     -6.8846        -84.0825
5.96                    -7.03516        -86.9296
5.98                    -7.18757        -89.7593
6                       -7.34204        -92.5695
6.02                    -7.49875        -95.3577
6.04                    -7.65794        -98.1215
6.06                    -7.81983        -100.858
6.08                    -7.98469        -103.565
6.1                     -8.15282        -106.239
6.12                    -8.32449        -108.877
6.14                    -8.50004        -111.475
6.16                    -8.67978         -114.03
6.18                    -8.86404        -116.536
6.2                     -9.05316         -118.99
6.22                    -9.24744        -121.385
6.24                    -9.44718        -123.716
6.26                    -9.65263        -125.974
6.28                    -9.86397        -128.154
6.3                     -10.0813        -130.246
6.32                    -10.3046        -132.239
6.34                    -10.5336        -134.124
6.36                    -10.7679        -135.887
6.38                    -11.0066        -137.514
6.4                     -11.2487        -138.992
6.42                    -11.4925        -140.305
6.44                    -11.7355        -141.436
6.46                    -11.9748        -142.371
6.48                    -12.2064        -143.095
6.5                     -12.4254        -143.597
