! TOUCHSTONE file generated by CST MICROWAVE STUDIO
! Date and time: Fri Oct 28 02:47:09 2022
! Project name: L.cst
! Parameters = {Di=1.27; Epsilon_r=1.56; InnerDiameter=1.27; Length=2; Lf=10; Lg=60; OuterConductorThickness=0.2921; OuterDiameter=3.6; Wf=3; Wp=41.2; de=1.5; df=6.8; g=0.8; gx=2.58743; gy=0.887365; h=2.34; hf=1.524; px=14.2776; py=10.3888; w=9.7; wx=11.6901; wy=9.50141}
! Header version: 2018
! Port assignment regex: !\s*Touchstone port\s*([0-9]+)\s*=\s*(CST MWS port|CST DS port)\s*([0-9]+|Zmin|Zmax)\s*\(\"(.*)\"\)(\s*mode\s*([0-9]+))?.*
! Touchstone port assignment:
! Touchstone port 1 = CST MWS port 1 ("")
# GHz S DB R 50
4.5                     -6.85526         24.9176
4.52                     -7.4639         20.7342
4.54                    -8.12186         15.9974
4.56                    -8.86811         11.2787
4.58                    -9.63142         6.09369
4.6                     -10.5159        0.484322
4.62                    -11.4278        -5.43468
4.64                    -12.4377        -12.3589
4.66                    -13.5239        -19.7743
4.68                    -14.6259        -28.6823
4.7                     -15.8092        -38.9596
4.72                    -16.8638        -50.9542
4.74                    -17.7805        -65.3465
4.76                    -18.3572         -80.791
4.78                    -18.4282        -97.1257
4.8                     -18.1429        -112.452
4.82                    -17.4882        -125.675
4.84                    -16.7087         -137.22
4.86                    -15.9043        -146.504
4.88                    -15.0847         -154.51
4.9                     -14.3655        -161.291
4.92                    -13.6731         -167.06
4.94                    -13.0693         -172.32
4.96                    -12.5248        -176.805
4.98                    -12.0279         178.968
5                       -11.6064          175.23
5.02                    -11.2081         171.764
5.04                    -10.8781          168.52
5.06                    -10.5709         165.616
5.08                    -10.3079          162.78
5.1                     -10.0811         160.283
5.12                    -9.87184         157.854
5.14                    -9.70835         155.667
5.16                     -9.5483         153.656
5.18                    -9.42731         151.762
5.2                      -9.3119         150.158
5.22                    -9.21307         148.615
5.24                     -9.1282         147.394
5.26                    -9.03225         146.282
5.28                    -8.94855          145.42
5.3                     -8.83061         144.758
5.32                      -8.704         144.198
5.34                    -8.52876          143.84
5.36                    -8.31183         143.359
5.38                    -8.04841         142.876
5.4                     -7.72723         141.997
5.42                    -7.39309         140.742
5.44                    -7.03448         138.933
5.46                    -6.72248         136.504
5.48                    -6.45636         133.684
5.5                     -6.27667         130.379
5.52                    -6.19687         127.047
5.54                    -6.19514         123.613
5.56                    -6.30511         120.381
5.58                    -6.46632         117.443
5.6                     -6.71896         114.723
5.62                    -7.01562          112.61
5.64                    -7.36144          110.71
5.66                    -7.76925         109.619
5.68                    -8.16529          108.95
5.7                     -8.63754         109.139
5.72                    -9.01522         110.299
5.74                     -9.4168         112.087
5.76                    -9.60442         115.509
5.78                    -9.61875         118.459
5.8                      -9.2761         122.553
5.82                     -8.5682         120.565
5.84                    -9.32746         116.538
5.86                    -10.2343         126.236
5.88                    -9.04302         134.469
5.9                     -8.02996         135.676
5.92                    -7.05712         136.085
5.94                    -6.20856         134.169
5.96                    -5.51328         132.142
5.98                    -4.84853         129.087
6                       -4.35351         125.769
6.02                    -3.87313         122.238
6.04                    -3.51689          118.24
6.06                    -3.20429         114.418
6.08                    -2.94859         110.101
6.1                     -2.77516         105.911
6.12                    -2.61377         101.376
6.14                    -2.55574         96.5887
6.16                    -2.52431         91.5748
6.18                    -2.61241         85.7677
6.2                     -2.84954         79.5204
6.22                     -3.3368         72.0161
6.24                    -4.38935         63.8042
6.26                    -6.42708          56.084
6.28                    -10.6043          58.087
6.3                     -12.7177         101.903
6.32                    -7.85155         119.327
6.34                    -4.94288         113.084
6.36                     -3.5929          104.13
6.38                    -2.94334         96.4749
6.4                     -2.59899         89.6818
6.42                    -2.47728         83.9216
6.44                    -2.39021         78.8184
6.46                    -2.40224         73.8595
6.48                    -2.39018         69.1391
6.5                     -2.55671         63.0399
