! TOUCHSTONE file generated by CST MICROWAVE STUDIO
! Date and time: Thu Oct 27 03:46:50 2022
! Project name: L.cst
! Parameters = {Di=1.27; Epsilon_r=1.56; InnerDiameter=1.27; Length=2; Lf=10; Lg=60; OuterConductorThickness=0.2921; OuterDiameter=3.6; Wf=3; Wp=41.2; de=1.5; df=6.8; g=0.8; gx=3.80128; gy=4.66305; h=2.34; hf=1.524; px=13.5568; py=9.57511; w=9.7; wx=9.75552; wy=4.91206}
! Header version: 2018
! Port assignment regex: !\s*Touchstone port\s*([0-9]+)\s*=\s*(CST MWS port|CST DS port)\s*([0-9]+|Zmin|Zmax)\s*\(\"(.*)\"\)(\s*mode\s*([0-9]+))?.*
! Touchstone port assignment:
! Touchstone port 1 = CST MWS port 1 ("")
# GHz S DB R 50
4.5                    -0.461268         95.2411
4.52                   -0.476462         93.7225
4.54                   -0.492459         92.1905
4.56                   -0.509254         90.6453
4.58                   -0.526836         89.0871
4.6                    -0.545187         87.5158
4.62                   -0.564288         85.9314
4.64                   -0.584115          84.334
4.66                   -0.604647         82.7232
4.68                   -0.625866         81.0991
4.7                    -0.647754         79.4613
4.72                   -0.670296         77.8097
4.74                   -0.693487         76.1438
4.76                    -0.71732         74.4634
4.78                   -0.741797         72.7683
4.8                    -0.766925          71.058
4.82                   -0.792714         69.3322
4.84                    -0.81918         67.5907
4.86                   -0.846345         65.8331
4.88                   -0.874232         64.0592
4.9                     -0.90287         62.2687
4.92                    -0.93229         60.4613
4.94                   -0.962525         58.6368
4.96                   -0.993612          56.795
4.98                    -1.02559         54.9359
5                       -1.05849         53.0592
5.02                    -1.09236         51.1649
5.04                    -1.12723         49.2529
5.06                    -1.16315         47.3232
5.08                    -1.20014         45.3759
5.1                     -1.23825         43.4109
5.12                    -1.27751         41.4283
5.14                    -1.31795         39.4282
5.16                    -1.35961         37.4109
5.18                    -1.40251         35.3764
5.2                     -1.44668         33.3249
5.22                    -1.49214         31.2566
5.24                    -1.53892         29.1719
5.26                    -1.58704         27.0709
5.28                    -1.63651          24.954
5.3                     -1.68735         22.8215
5.32                    -1.73958         20.6738
5.34                    -1.79319         18.5111
5.36                    -1.84821         16.3339
5.38                    -1.90465         14.1427
5.4                     -1.96249         11.9378
5.42                    -2.02176         9.71969
5.44                    -2.08246         7.48889
5.46                    -2.14458         5.24589
5.48                    -2.20813         2.99122
5.5                     -2.27312        0.725423
5.52                    -2.33953        -1.55092
5.54                    -2.40738        -3.83721
5.56                    -2.47666        -6.13282
5.58                    -2.54738         -8.4371
5.6                     -2.61953        -10.7494
5.62                    -2.69312         -13.069
5.64                    -2.76816        -15.3951
5.66                    -2.84464         -17.727
5.68                    -2.92258         -20.064
5.7                     -3.00198        -22.4051
5.72                    -3.08285        -24.7496
5.74                     -3.1652        -27.0966
5.76                    -3.24905        -29.4451
5.78                     -3.3344        -31.7943
5.8                     -3.42128        -34.1431
5.82                    -3.50971        -36.4905
5.84                     -3.5997        -38.8355
5.86                    -3.69128         -41.177
5.88                    -3.78447        -43.5138
5.9                      -3.8793        -45.8449
5.92                     -3.9758        -48.1689
5.94                    -4.07398        -50.4846
5.96                    -4.17389        -52.7908
5.98                    -4.27555         -55.086
6                       -4.37898        -57.3689
6.02                    -4.48421        -59.6381
6.04                    -4.59128         -61.892
6.06                    -4.70019         -64.129
6.08                    -4.81097        -66.3477
6.1                     -4.92362        -68.5463
6.12                    -5.03816         -70.723
6.14                    -5.15458        -72.8762
6.16                    -5.27286        -75.0038
6.18                    -5.39297        -77.1042
6.2                     -5.51488        -79.1752
6.22                    -5.63852        -81.2148
6.24                    -5.76381        -83.2211
6.26                    -5.89063        -85.1918
6.28                    -6.01887        -87.1248
6.3                     -6.14834        -89.0181
6.32                    -6.27885        -90.8694
6.34                    -6.41014        -92.6767
6.36                    -6.54194        -94.4379
6.38                    -6.67389         -96.151
6.4                     -6.80562        -97.8143
6.42                    -6.93666        -99.4263
6.44                    -7.06651        -100.986
6.46                    -7.19461        -102.492
6.48                    -7.32032        -103.944
6.5                     -7.44296        -105.342
