! TOUCHSTONE file generated by CST MICROWAVE STUDIO
! Date and time: Fri Oct 28 07:52:29 2022
! Project name: L.cst
! Parameters = {Di=1.27; Epsilon_r=1.56; InnerDiameter=1.27; Length=2; Lf=10; Lg=60; OuterConductorThickness=0.2921; OuterDiameter=3.6; Wf=3; Wp=41.2; de=1.5; df=6.8; g=0.8; gx=2.92407; gy=4.59872; h=2.34; hf=1.524; px=14.2924; py=9.56321; w=9.7; wx=11.3683; wy=4.96449}
! Header version: 2018
! Port assignment regex: !\s*Touchstone port\s*([0-9]+)\s*=\s*(CST MWS port|CST DS port)\s*([0-9]+|Zmin|Zmax)\s*\(\"(.*)\"\)(\s*mode\s*([0-9]+))?.*
! Touchstone port assignment:
! Touchstone port 1 = CST MWS port 1 ("")
# GHz S DB R 50
4.5                    -0.725062         91.1422
4.52                   -0.789542         89.4861
4.54                   -0.818235         88.0113
4.56                   -0.832691          86.245
4.58                   -0.889835         84.4457
4.6                     -0.93898         82.8712
4.62                   -0.960073           81.15
4.64                    -1.00886         79.2708
4.66                    -1.07101         77.5628
4.68                    -1.10606          75.846
4.7                      -1.1502         73.9321
4.72                    -1.21876         72.0876
4.74                    -1.27113         70.3265
4.76                     -1.3172          68.402
4.78                    -1.38795         66.4427
4.8                     -1.45704          64.595
4.82                    -1.51209          62.658
4.84                    -1.58459         60.6146
4.86                    -1.66792         58.6579
4.88                    -1.73741         56.6907
4.9                     -1.81395         54.5907
4.92                    -1.90877         52.5187
4.94                    -1.99638         50.4954
4.96                    -2.08154         48.3583
4.98                    -2.18594         46.1823
5                       -2.29304         44.0773
5.02                    -2.39251         41.9084
5.04                    -2.50681         39.6508
5.06                    -2.63324         37.4494
5.08                     -2.7523         35.2441
5.1                     -2.87875         32.9303
5.12                    -3.02369           30.63
5.14                     -3.1668         28.3766
5.16                    -3.30972          26.032
5.18                    -3.47238         23.6471
5.2                      -3.6421         21.3321
5.22                    -3.80716         18.9741
5.24                     -3.9881         16.5327
5.26                    -4.18533          14.151
5.28                    -4.37828         11.7894
5.3                     -4.57962         9.32844
5.32                    -4.80387         6.88637
5.34                    -5.02983          4.5228
5.36                    -5.25572         2.08413
5.38                    -5.50568       -0.392953
5.4                     -5.76759        -2.76029
5.42                    -6.02354        -5.14043
5.44                    -6.29824        -7.61075
5.46                    -6.59648        -9.98232
5.48                    -6.88867        -12.2792
5.5                     -7.18833        -14.6886
5.52                    -7.52052        -17.0605
5.54                    -7.85501        -19.2727
5.56                    -8.18312        -21.5669
5.58                    -8.54564        -23.9263
5.6                      -8.9279        -26.0847
5.62                    -9.29419         -28.234
5.64                    -9.68788        -30.5656
5.66                    -10.1276         -32.735
5.68                    -10.5565        -34.7437
5.7                     -10.9992        -37.0083
5.72                    -11.5227        -39.2458
5.74                    -12.0721        -41.1005
5.76                     -12.626        -43.0905
5.78                    -13.3014        -45.1742
5.8                     -14.0851        -46.4457
5.82                    -14.8698        -47.1399
5.84                    -15.7802        -47.6142
5.86                    -16.8658        -46.1744
5.88                    -17.8003        -42.2292
5.9                     -18.5437        -37.4062
5.92                    -19.1598        -30.2978
5.94                    -19.0658        -21.5401
5.96                     -18.452        -16.1793
5.98                     -17.887         -12.617
6                       -17.0269        -9.68941
6.02                    -16.0204        -10.6369
6.04                    -15.4014        -13.5539
6.06                    -14.8161        -15.5139
6.08                     -13.969        -19.7133
6.1                     -13.4586         -27.187
6.12                     -13.295        -33.6974
6.14                    -12.6947        -40.9844
6.16                    -12.1737        -56.4903
6.18                    -13.2757        -79.4632
6.2                      -17.702        -100.901
6.22                    -26.0425        -62.9964
6.24                    -18.2851        -33.8604
6.26                    -15.0118        -56.2348
6.28                    -14.3299        -79.6408
6.3                     -14.0949        -99.6548
6.32                    -13.2513        -121.538
6.34                    -12.0877        -148.201
6.36                     -10.879        -176.158
6.38                    -9.53808         157.464
6.4                     -8.12743         132.444
6.42                    -6.97138         108.318
6.44                     -6.2815         85.9476
6.46                    -5.99856         66.0379
6.48                    -6.00934         48.0547
6.5                     -6.31583         31.0541
