! TOUCHSTONE file generated by CST MICROWAVE STUDIO
! Date and time: Fri Oct 28 01:29:52 2022
! Project name: L.cst
! Parameters = {Di=1.27; Epsilon_r=1.56; InnerDiameter=1.27; Length=2; Lf=10; Lg=60; OuterConductorThickness=0.2921; OuterDiameter=3.6; Wf=3; Wp=41.2; de=1.5; df=6.8; g=0.8; gx=2.98649; gy=1.30221; h=2.34; hf=1.524; px=13.6087; py=11.0579; w=9.7; wx=10.6222; wy=9.75565}
! Header version: 2018
! Port assignment regex: !\s*Touchstone port\s*([0-9]+)\s*=\s*(CST MWS port|CST DS port)\s*([0-9]+|Zmin|Zmax)\s*\(\"(.*)\"\)(\s*mode\s*([0-9]+))?.*
! Touchstone port assignment:
! Touchstone port 1 = CST MWS port 1 ("")
# GHz S DB R 50
4.5                     -2.44605           51.32
4.52                    -2.61158         48.3142
4.54                     -2.7902         45.2315
4.56                    -2.97988         42.0712
4.58                    -3.17926         38.8177
4.6                     -3.38896           35.45
4.62                    -3.61135         31.9534
4.64                    -3.84899         28.3254
4.66                    -4.10309         24.5716
4.68                    -4.37302         20.6961
4.7                     -4.65711         16.6927
4.72                    -4.95396         12.5447
4.74                    -5.26341         8.23065
4.76                    -5.58629         3.73319
4.78                    -5.92335       -0.956701
4.8                     -6.27395        -5.84134
4.82                    -6.63554        -10.9236
4.84                    -7.00409        -16.2132
4.86                    -7.37507        -21.7273
4.88                    -7.74425        -27.4855
4.9                     -8.10769        -33.5011
4.92                    -8.46104        -39.7745
4.94                    -8.79859        -46.2917
4.96                    -9.11288        -53.0279
4.98                    -9.39539        -59.9521
5                       -9.63795        -67.0293
5.02                    -9.83426        -74.2182
5.04                    -9.98088        -81.4677
5.06                    -10.0772        -88.7142
5.08                    -10.1245         -95.886
5.1                     -10.1257        -102.912
5.12                    -10.0842        -109.731
5.14                    -10.0045        -116.302
5.16                    -9.89243        -122.601
5.18                    -9.75494        -128.619
5.2                     -9.59965        -134.351
5.22                    -9.43354        -139.795
5.24                      -9.262        -144.949
5.26                    -9.08847        -149.815
5.28                    -8.91504        -154.408
5.3                     -8.74337        -158.746
5.32                    -8.57551        -162.853
5.34                    -8.41383        -166.747
5.36                    -8.26039         -170.44
5.38                    -8.11606        -173.937
5.4                     -7.98024        -177.243
5.42                    -7.85143         179.633
5.44                    -7.72823         176.673
5.46                    -7.61013         173.858
5.48                    -7.49748         171.173
5.5                     -7.39063         168.613
5.52                    -7.28897         166.175
5.54                     -7.1906         163.856
5.56                      -7.093         161.645
5.58                    -6.99427         159.521
5.6                     -6.89395         157.461
5.62                    -6.79292         155.445
5.64                    -6.69224         153.464
5.66                     -6.5922          151.51
5.68                    -6.49225         149.573
5.7                     -6.39219         147.633
5.72                    -6.29381         145.662
5.74                    -6.20155         143.639
5.76                    -6.12163         141.562
5.78                    -6.05977          139.45
5.8                     -6.01922         137.341
5.82                    -6.00004         135.271
5.84                    -6.00031         133.266
5.86                     -6.0181         131.342
5.88                    -6.05282         129.509
5.9                     -6.10454          127.79
5.92                    -6.17164         126.221
5.94                    -6.24872         124.841
5.96                    -6.32678         123.665
5.98                    -6.39666         122.673
6                       -6.45378          121.82
6.02                    -6.49998         121.065
6.04                    -6.53983         120.418
6.06                    -6.57263         119.934
6.08                    -6.58581         119.673
6.1                     -6.55657         119.616
6.12                    -6.46433         119.619
6.14                    -6.30743         119.446
6.16                    -6.11009         118.894
6.18                    -5.91191         117.915
6.2                     -5.74666          116.65
6.22                    -5.62421          115.35
6.24                     -5.5241         114.243
6.26                    -5.40486         113.393
6.28                    -5.22777         112.633
6.3                      -4.9831         111.641
6.32                    -4.69854         110.131
6.34                    -4.42228         108.016
6.36                    -4.19633         105.419
6.38                     -4.0389         102.576
6.4                     -3.94231         99.6987
6.42                    -3.88446          96.871
6.44                    -3.84823         94.0229
6.46                    -3.83847         91.0079
6.48                    -3.88569         87.7432
6.5                     -4.03388         84.3285
