! TOUCHSTONE file generated by CST MICROWAVE STUDIO
! Date and time: Fri Oct 28 13:06:41 2022
! Project name: L.cst
! Parameters = {Di=1.27; Epsilon_r=1.56; InnerDiameter=1.27; Length=2; Lf=10; Lg=60; OuterConductorThickness=0.2921; OuterDiameter=3.6; Wf=3; Wp=41.2; de=1.5; df=6.8; g=0.8; gx=3.42505; gy=1.64698; h=2.34; hf=1.524; px=8.14175; py=8.0222; w=9.7; wx=4.71671; wy=6.37522}
! Header version: 2018
! Port assignment regex: !\s*Touchstone port\s*([0-9]+)\s*=\s*(CST MWS port|CST DS port)\s*([0-9]+|Zmin|Zmax)\s*\(\"(.*)\"\)(\s*mode\s*([0-9]+))?.*
! Touchstone port assignment:
! Touchstone port 1 = CST MWS port 1 ("")
# GHz S DB R 50
4.5                    -0.341319         85.2469
4.52                   -0.349996         83.7682
4.54                   -0.358974          82.276
4.56                   -0.368262         80.7702
4.58                   -0.377868         79.2508
4.6                    -0.387787         77.7178
4.62                   -0.398016         76.1711
4.64                   -0.408544         74.6106
4.66                   -0.419361         73.0363
4.68                   -0.430454          71.448
4.7                    -0.441809         69.8455
4.72                   -0.453413         68.2286
4.74                   -0.465252         66.5973
4.76                   -0.477311         64.9514
4.78                   -0.489582         63.2905
4.8                    -0.502052         61.6145
4.82                   -0.514714         59.9232
4.84                    -0.52756         58.2165
4.86                   -0.540585          56.494
4.88                   -0.553784         54.7556
4.9                    -0.567155         53.0011
4.92                   -0.580697         51.2303
4.94                   -0.594409         49.4432
4.96                   -0.608293         47.6395
4.98                   -0.622347         45.8191
5                      -0.636574          43.982
5.02                   -0.650976         42.1281
5.04                   -0.665553         40.2574
5.06                   -0.680307         38.3698
5.08                   -0.695238         36.4653
5.1                    -0.710345          34.544
5.12                   -0.725628         32.6059
5.14                   -0.741083         30.6512
5.16                   -0.756706         28.6799
5.18                   -0.772494         26.6923
5.2                    -0.788439         24.6884
5.22                   -0.804532         22.6685
5.24                   -0.820766         20.6329
5.26                   -0.837127         18.5818
5.28                   -0.853605         16.5154
5.3                    -0.870184         14.4342
5.32                   -0.886851         12.3383
5.34                   -0.903588         10.2283
5.36                   -0.920376         8.10447
5.38                   -0.937197         5.96728
5.4                    -0.954032         3.81717
5.42                   -0.970857         1.65462
5.44                   -0.987654       -0.519872
5.46                     -1.0044        -2.70578
5.48                    -1.02106        -4.90256
5.5                     -1.03764        -7.10964
5.52                    -1.05408        -9.32642
5.54                    -1.07039        -11.5523
5.56                    -1.08653        -13.7866
5.58                    -1.10247        -16.0287
5.6                      -1.1182        -18.2779
5.62                     -1.1337        -20.5336
5.64                    -1.14894        -22.7949
5.66                    -1.16391        -25.0612
5.68                    -1.17858        -27.3317
5.7                     -1.19293        -29.6058
5.72                    -1.20695        -31.8825
5.74                    -1.22062        -34.1612
5.76                    -1.23392        -36.4409
5.78                    -1.24683        -38.7211
5.8                     -1.25936        -41.0009
5.82                    -1.27147        -43.2794
5.84                    -1.28316        -45.5559
5.86                    -1.29441        -47.8296
5.88                    -1.30522        -50.0997
5.9                     -1.31558        -52.3655
5.92                    -1.32547        -54.6261
5.94                    -1.33488        -56.8809
5.96                    -1.34381        -59.1291
5.98                    -1.35224        -61.3699
6                       -1.36017        -63.6028
6.02                    -1.36759         -65.827
6.04                     -1.3745         -68.042
6.06                    -1.38087         -70.247
6.08                    -1.38672        -72.4416
6.1                     -1.39202        -74.6252
6.12                    -1.39678        -76.7973
6.14                    -1.40098        -78.9575
6.16                    -1.40463        -81.1054
6.18                    -1.40771        -83.2406
6.2                     -1.41023        -85.3629
6.22                    -1.41219        -87.4718
6.24                    -1.41359        -89.5673
6.26                    -1.41443        -91.6491
6.28                    -1.41472        -93.7171
6.3                     -1.41448        -95.7712
6.32                    -1.41371        -97.8115
6.34                    -1.41245        -99.8378
6.36                    -1.41072         -101.85
6.38                    -1.40855        -103.849
6.4                     -1.40597        -105.833
6.42                    -1.40304        -107.805
6.44                    -1.39979        -109.762
6.46                     -1.3963        -111.706
6.48                    -1.39261        -113.636
6.5                     -1.38879        -115.553
