! TOUCHSTONE file generated by CST MICROWAVE STUDIO
! Date and time: Fri Oct 28 14:57:15 2022
! Project name: L.cst
! Parameters = {Di=1.27; Epsilon_r=1.56; InnerDiameter=1.27; Length=2; Lf=10; Lg=60; OuterConductorThickness=0.2921; OuterDiameter=3.6; Wf=3; Wp=41.2; de=1.5; df=6.8; g=0.8; gx=1.53657; gy=1.29911; h=2.34; hf=1.524; px=8.07726; py=12.408; w=9.7; wx=6.54069; wy=11.1089}
! Header version: 2018
! Port assignment regex: !\s*Touchstone port\s*([0-9]+)\s*=\s*(CST MWS port|CST DS port)\s*([0-9]+|Zmin|Zmax)\s*\(\"(.*)\"\)(\s*mode\s*([0-9]+))?.*
! Touchstone port assignment:
! Touchstone port 1 = CST MWS port 1 ("")
# GHz S DB R 50
4.5                     -0.68276         67.6249
4.52                   -0.671889          65.908
4.54                   -0.672063         63.9975
4.56                   -0.697128         62.0128
4.58                   -0.742316         60.0878
4.6                    -0.790153         58.2789
4.62                   -0.824011         56.5356
4.64                   -0.839623         54.7478
4.66                   -0.846518         52.8305
4.68                   -0.859455         50.7787
4.7                    -0.887546         48.6591
4.72                   -0.928839         46.5539
4.74                   -0.973002         44.5028
4.76                    -1.00933         42.4791
4.78                    -1.03425         40.4146
4.8                     -1.05307         38.2507
4.82                     -1.0753         35.9775
4.84                    -1.10759         33.6339
4.86                    -1.14952          31.275
4.88                    -1.19456         28.9318
4.9                     -1.23506         26.5908
4.92                    -1.26769         24.2059
4.94                    -1.29535          21.732
4.96                    -1.32467         19.1551
4.98                    -1.36104          16.498
5                       -1.40501         13.8002
5.02                    -1.45223         11.0882
5.04                    -1.49675         8.35655
5.06                    -1.53515         5.57151
5.08                    -1.56882         2.69436
5.1                     -1.60265       -0.293453
5.12                    -1.64149        -3.38081
5.14                    -1.68681        -6.53829
5.16                    -1.73589         -9.7414
5.18                    -1.78387        -12.9895
5.2                     -1.82723        -16.3078
5.22                    -1.86627        -19.7316
5.24                     -1.9049        -23.2842
5.26                    -1.94798        -26.9628
5.28                    -1.99814        -30.7438
5.3                     -2.05415        -34.6001
5.32                    -2.11195        -38.5213
5.34                    -2.16741        -42.5218
5.36                     -2.2192        -46.6322
5.38                    -2.26964        -50.8803
5.4                     -2.32308        -55.2735
5.42                    -2.38287        -59.7961
5.44                      -2.449        -64.4216
5.46                     -2.5179        -69.1341
5.48                    -2.58469        -73.9423
5.5                     -2.64639          -78.88
5.52                    -2.70416        -83.9901
5.54                    -2.76302        -89.3024
5.56                    -2.82924        -94.8217
5.58                    -2.90726        -100.531
5.6                     -2.99802         -106.41
5.62                    -3.09991        -112.457
5.64                    -3.21209          -118.7
5.66                    -3.33811        -125.188
5.68                     -3.4881        -131.968
5.7                     -3.67791        -139.058
5.72                    -3.92614        -146.431
5.74                    -4.25055        -154.014
5.76                    -4.66581        -161.699
5.78                    -5.18335        -169.362
5.8                      -5.8131        -176.864
5.82                    -6.56609         175.954
5.84                    -7.45575         169.308
5.86                     -8.4948         163.533
5.88                    -9.68278         159.148
5.9                     -10.9764         156.897
5.92                    -12.2386         157.588
5.94                    -13.2028         161.422
5.96                    -13.5875         167.013
5.98                    -13.3635         171.831
6                       -12.7732         174.307
6.02                    -12.0606         174.506
6.04                    -11.3304         173.105
6.06                    -10.5893         170.558
6.08                     -9.8252         166.918
6.1                     -9.05582         162.045
6.12                    -8.33015          155.89
6.14                     -7.7005         148.629
6.16                    -7.19407         140.615
6.18                    -6.79822         132.228
6.2                     -6.46133          123.69
6.22                    -6.11235         114.892
6.24                    -5.69937         105.341
6.26                    -5.22639         94.3274
6.28                    -4.75582         81.2263
6.3                     -4.37534         65.6855
6.32                    -4.16014         47.5877
6.34                    -4.15151         26.9179
6.36                    -4.34751         3.67296
6.38                    -4.69708        -22.1108
6.4                     -5.10087        -50.1732
6.42                     -5.4396        -79.7444
6.44                    -5.64152        -109.435
6.46                    -5.73765        -137.585
6.48                    -5.82952        -162.782
6.5                     -5.98795         175.982
