! TOUCHSTONE file generated by CST MICROWAVE STUDIO
! Date and time: Thu Oct 27 11:37:29 2022
! Project name: L.cst
! Parameters = {Di=1.27; Epsilon_r=1.56; InnerDiameter=1.27; Length=2; Lf=10; Lg=60; OuterConductorThickness=0.2921; OuterDiameter=3.6; Wf=3; Wp=41.2; de=1.5; df=6.8; g=0.8; gx=2.12895; gy=2.31668; h=2.34; hf=1.524; px=9.7427; py=11.996; w=9.7; wx=7.61376; wy=9.6793}
! Header version: 2018
! Port assignment regex: !\s*Touchstone port\s*([0-9]+)\s*=\s*(CST MWS port|CST DS port)\s*([0-9]+|Zmin|Zmax)\s*\(\"(.*)\"\)(\s*mode\s*([0-9]+))?.*
! Touchstone port assignment:
! Touchstone port 1 = CST MWS port 1 ("")
# GHz S DB R 50
4.5                    -0.578084         80.7757
4.52                   -0.592626         79.1865
4.54                   -0.608375         77.5728
4.56                   -0.625452         75.9354
4.58                   -0.643928         74.2751
4.6                     -0.66384         72.5925
4.62                   -0.685185         70.8884
4.64                   -0.707937         69.1631
4.66                   -0.732044         67.4169
4.68                   -0.757441         65.6501
4.7                    -0.784051         63.8625
4.72                   -0.811789          62.054
4.74                   -0.840573         60.2242
4.76                   -0.870318         58.3726
4.78                    -0.90095         56.4986
4.8                    -0.932399         54.6013
4.82                   -0.964609         52.6799
4.84                   -0.997532         50.7335
4.86                    -1.03114          48.761
4.88                     -1.0654         46.7615
4.9                     -1.10031         44.7338
4.92                    -1.13589         42.6769
4.94                    -1.17213         40.5896
4.96                    -1.20908          38.471
4.98                    -1.24676           36.32
5                       -1.28522         34.1357
5.02                     -1.3245          31.917
5.04                    -1.36466         29.6633
5.06                    -1.40575         27.3737
5.08                    -1.44782         25.0475
5.1                     -1.49093          22.684
5.12                    -1.53513         20.2827
5.14                    -1.58046         17.8431
5.16                    -1.62696         15.3647
5.18                    -1.67466         12.8473
5.2                     -1.72359         10.2906
5.22                    -1.77375         7.69433
5.24                    -1.82515         5.05842
5.26                    -1.87777         2.38288
5.28                    -1.93161       -0.332403
5.3                     -1.98663         -3.0873
5.32                    -2.04278        -5.88165
5.34                    -2.10001        -8.71525
5.36                    -2.15826        -11.5878
5.38                    -2.21743         -14.499
5.4                     -2.27744        -17.4484
5.42                    -2.33819        -20.4356
5.44                    -2.39957          -23.46
5.46                    -2.46144        -26.5209
5.48                    -2.52369        -29.6178
5.5                     -2.58617        -32.7498
5.52                    -2.64874        -35.9162
5.54                    -2.71124         -39.116
5.56                    -2.77353        -42.3484
5.58                    -2.83544        -45.6121
5.6                     -2.89682        -48.9063
5.62                    -2.95751        -52.2296
5.64                    -3.01736        -55.5809
5.66                    -3.07621        -58.9588
5.68                    -3.13393        -62.3621
5.7                     -3.19038        -65.7894
5.72                    -3.24543        -69.2392
5.74                    -3.29896        -72.7101
5.76                    -3.35088        -76.2004
5.78                     -3.4011        -79.7091
5.8                     -3.44954        -83.2344
5.82                    -3.49616         -86.775
5.84                    -3.54091        -90.3294
5.86                    -3.58378        -93.8962
5.88                    -3.62478        -97.4743
5.9                     -3.66393        -101.062
5.92                    -3.70129        -104.659
5.94                    -3.73692        -108.264
5.96                    -3.77092        -111.876
5.98                    -3.80341        -115.493
6                       -3.83454        -119.117
6.02                    -3.86445        -122.745
6.04                    -3.89336        -126.379
6.06                    -3.92148        -130.017
6.08                    -3.94903         -133.66
6.1                      -3.9763        -137.307
6.12                    -4.00358        -140.961
6.14                    -4.03118         -144.62
6.16                    -4.05944        -148.286
6.18                    -4.08876         -151.96
6.2                     -4.11952        -155.643
6.22                    -4.15216        -159.336
6.24                    -4.18716        -163.041
6.26                    -4.22502        -166.759
6.28                    -4.26627        -170.493
6.3                      -4.3115        -174.244
6.32                    -4.36133        -178.014
6.34                    -4.41643         178.195
6.36                    -4.47752         174.379
6.38                    -4.54538         170.537
6.4                     -4.62084         166.665
6.42                    -4.70481         162.762
6.44                    -4.79828         158.824
6.46                    -4.90231         154.848
6.48                    -5.01806         150.832
6.5                     -5.14681         146.771
