! TOUCHSTONE file generated by CST MICROWAVE STUDIO
! Date and time: Wed Oct 26 19:08:34 2022
! Project name: L.cst
! Parameters = {Di=1.27; Epsilon_r=1.56; InnerDiameter=1.27; Length=2; Lf=10; Lg=60; OuterConductorThickness=0.2921; OuterDiameter=3.6; Wf=3; Wp=41.2; de=1.5; df=6.8; g=0.8; gx=0.615818; gy=3.04157; h=2.34; hf=1.524; px=14.8725; py=8.99888; w=9.7; wx=14.2567; wy=5.95731}
! Header version: 2018
! Port assignment regex: !\s*Touchstone port\s*([0-9]+)\s*=\s*(CST MWS port|CST DS port)\s*([0-9]+|Zmin|Zmax)\s*\(\"(.*)\"\)(\s*mode\s*([0-9]+))?.*
! Touchstone port assignment:
! Touchstone port 1 = CST MWS port 1 ("")
# GHz S DB R 50
4.5                     -3.00671         104.827
4.52                    -2.99074         102.136
4.54                    -3.00047          99.176
4.56                    -3.04321         95.9658
4.58                    -3.11677         92.4742
4.6                     -3.22466          88.576
4.62                    -3.38389         84.1128
4.64                    -3.62164         78.9183
4.66                    -3.97251         72.7812
4.68                    -4.48294          65.321
4.7                     -5.23724         55.7901
4.72                    -6.39958         42.7268
4.74                    -8.26613         22.7867
4.76                    -11.0339        -13.4743
4.78                    -11.6719         -79.604
4.8                      -7.5462        -136.105
4.82                    -4.17772        -171.042
4.84                    -2.38686          163.85
4.86                    -1.61344         144.747
4.88                    -1.42448         129.718
4.9                      -1.6042         117.352
4.92                    -2.09621         106.692
4.94                    -2.96144         97.3537
4.96                    -4.35924         89.9303
4.98                    -6.45905         87.2171
5                       -8.84244         95.7829
5.02                    -9.30138         115.971
5.04                    -7.44631         128.466
5.06                    -5.52216         130.051
5.08                    -4.14753         127.031
5.1                     -3.22045         122.527
5.12                    -2.59983         117.621
5.14                    -2.20013         112.609
5.16                    -2.00913         107.398
5.18                    -2.25629         101.979
5.2                     -2.99917         106.005
5.22                     -1.6367         105.518
5.24                     -1.2132         100.204
5.26                    -1.05415         95.8916
5.28                   -0.965694         92.1411
5.3                    -0.905366         88.6838
5.32                   -0.859075         85.3714
5.34                   -0.823405          82.105
5.36                   -0.799025         78.8309
5.38                   -0.785059         75.5118
5.4                    -0.780105         72.1014
5.42                    -0.78241          68.533
5.44                   -0.793133         64.7034
5.46                   -0.816993         60.4854
5.48                   -0.860647         55.7022
5.5                    -0.932824          50.061
5.52                    -1.04991         43.0264
5.54                     -1.2502         33.5281
5.56                    -1.63307         19.2087
5.58                    -2.46256        -6.01841
5.6                     -4.11334        -59.8644
5.62                    -3.62008        -154.283
5.64                    -1.42409         142.161
5.66                   -0.642834         111.873
5.68                   -0.399409         95.3212
5.7                    -0.312118         84.7569
5.72                   -0.275628         77.1754
5.74                   -0.257597         71.2576
5.76                   -0.247319         66.3404
5.78                   -0.243472         62.0703
5.8                    -0.245019         58.2621
5.82                   -0.247955         54.8041
5.84                   -0.246307         51.5965
5.86                   -0.240437         48.5236
5.88                   -0.241208         45.5238
5.9                    -0.258749         42.6163
5.92                   -0.401477         39.8306
5.94                   -0.248087         37.5987
5.96                   -0.244647         34.9957
5.98                   -0.233215         32.3951
6                      -0.230523         29.7937
6.02                   -0.235112         27.2621
6.04                   -0.236327         24.8018
6.06                   -0.230761         22.3497
6.08                   -0.225533         19.8714
6.1                    -0.225756          17.402
6.12                   -0.226695         14.9728
6.14                   -0.223379         12.5573
6.16                   -0.218529         10.1224
6.18                   -0.216751         7.67928
6.2                    -0.216606         5.25688
6.22                   -0.213477         2.84583
6.24                   -0.208613        0.414332
6.26                   -0.206872        -2.03058
6.28                   -0.207366        -4.45561
6.3                    -0.204547        -6.86404
6.32                   -0.198238        -9.29594
6.34                   -0.194933        -11.7581
6.36                   -0.196657        -14.2061
6.38                    -0.19667        -16.6192
6.4                    -0.190684        -19.0398
6.42                   -0.184622        -21.5036
6.44                   -0.184915        -23.9762
6.46                   -0.187235          -26.41
6.48                   -0.184058        -28.8278
6.5                    -0.178055        -31.2793
