! TOUCHSTONE file generated by CST MICROWAVE STUDIO
! Date and time: Thu Oct 27 14:16:27 2022
! Project name: L.cst
! Parameters = {Di=1.27; Epsilon_r=1.56; InnerDiameter=1.27; Length=2; Lf=10; Lg=60; OuterConductorThickness=0.2921; OuterDiameter=3.6; Wf=3; Wp=41.2; de=1.5; df=6.8; g=0.8; gx=0.815768; gy=4.50887; h=2.34; hf=1.524; px=10.9141; py=13.1602; w=9.7; wx=10.0984; wy=8.6513}
! Header version: 2018
! Port assignment regex: !\s*Touchstone port\s*([0-9]+)\s*=\s*(CST MWS port|CST DS port)\s*([0-9]+|Zmin|Zmax)\s*\(\"(.*)\"\)(\s*mode\s*([0-9]+))?.*
! Touchstone port assignment:
! Touchstone port 1 = CST MWS port 1 ("")
# GHz S DB R 50
4.5                      -1.0587         89.2895
4.52                     -1.1023         87.8979
4.54                    -1.13674         86.4459
4.56                     -1.1682         84.9074
4.58                    -1.20349         83.2813
4.6                     -1.24812         81.5883
4.62                      -1.305          79.862
4.64                    -1.37406         78.1381
4.66                    -1.45269         76.4455
4.68                    -1.53668         74.7985
4.7                     -1.62162         73.1951
4.72                     -1.7041         71.6192
4.74                    -1.78268          70.046
4.76                    -1.85809         68.4507
4.78                    -1.93295         66.8152
4.8                      -2.0108         65.1332
4.82                    -2.09512         63.4113
4.84                    -2.18839         61.6662
4.86                     -2.2915         59.9198
4.88                    -2.40366         58.1933
4.9                     -2.52274         56.5021
4.92                    -2.64589         54.8519
4.94                    -2.77041         53.2388
4.96                    -2.89451         51.6503
4.98                    -3.01775         50.0708
5                       -3.14116         48.4862
5.02                    -3.26683         46.8888
5.04                    -3.39728         45.2804
5.06                    -3.53464          43.672
5.08                    -3.67997         42.0813
5.1                     -3.83291          40.529
5.12                    -3.99163         39.0328
5.14                    -4.15319         37.6035
5.16                    -4.31422         36.2422
5.18                    -4.47173           34.94
5.2                     -4.62386         33.6806
5.22                    -4.77022         32.4458
5.24                    -4.91186         31.2206
5.26                    -5.05073         29.9985
5.28                    -5.18883         28.7826
5.3                      -5.3273         27.5854
5.32                    -5.46574         26.4239
5.34                    -5.60193         25.3131
5.36                    -5.73212         24.2596
5.38                    -5.85188         23.2561
5.4                     -5.95723           22.28
5.42                    -6.04596         21.2963
5.44                    -6.11836         20.2646
5.46                    -6.17736         19.1483
5.48                    -6.22789         17.9231
5.5                     -6.27554         16.5811
5.52                    -6.32522         15.1303
5.54                     -6.3799         13.5886
5.56                    -6.44017         11.9746
5.58                    -6.50448         10.2971
5.6                     -6.57033         8.54588
5.62                    -6.63617          6.6883
5.64                    -6.70353         4.67153
5.66                    -6.77887         2.43293
5.68                    -6.87462      -0.0846745
5.7                     -7.00903        -2.91645
5.72                    -7.20535        -6.06128
5.74                     -7.4907        -9.47081
5.76                    -7.89524        -13.0392
5.78                    -8.45196        -16.5881
5.8                     -9.19667        -19.8364
5.82                    -10.1668        -22.3383
5.84                    -11.3937        -23.3621
5.86                    -12.8718        -21.6795
5.88                    -14.4543        -15.3957
5.9                     -15.6298        -2.89328
5.92                    -15.5994         13.2425
5.94                    -14.3259         25.9836
5.96                    -12.6001         32.3369
5.98                    -10.9674         33.7997
6                       -9.59419         32.3111
6.02                    -8.49446         29.1539
6.04                    -7.64136         25.1044
6.06                    -7.00072         20.6495
6.08                    -6.53892         16.1149
6.1                     -6.22355          11.729
6.12                    -6.02256         7.65135
6.14                     -5.9037         3.98037
6.16                     -5.8353        0.752006
6.18                    -5.78867        -2.06243
6.2                      -5.7415        -4.54899
6.22                    -5.68121        -6.82895
6.24                    -5.60606        -9.02457
6.26                    -5.52327        -11.2241
6.28                    -5.44457        -13.4596
6.3                     -5.38083        -15.7036
6.32                    -5.33744         -17.884
6.34                    -5.31141        -19.9106
6.36                    -5.29075        -21.7095
6.38                    -5.25654        -23.2567
6.4                     -5.18803        -24.6033
6.42                    -5.06982        -25.8776
6.44                    -4.89853        -27.2557
6.46                    -4.68548         -28.908
6.48                    -4.45381         -30.946
6.5                     -4.23178        -33.3923
