! TOUCHSTONE file generated by CST MICROWAVE STUDIO
! Date and time: Fri Oct 28 18:59:41 2022
! Project name: L.cst
! Parameters = {Di=1.27; Epsilon_r=1.56; InnerDiameter=1.27; Length=2; Lf=10; Lg=60; OuterConductorThickness=0.2921; OuterDiameter=3.6; Wf=3; Wp=41.2; de=1.5; df=6.8; g=0.8; gx=4.76435; gy=2.09814; h=2.34; hf=1.524; px=10.2579; py=13.3482; w=9.7; wx=5.49355; wy=11.25}
! Header version: 2018
! Port assignment regex: !\s*Touchstone port\s*([0-9]+)\s*=\s*(CST MWS port|CST DS port)\s*([0-9]+|Zmin|Zmax)\s*\(\"(.*)\"\)(\s*mode\s*([0-9]+))?.*
! Touchstone port assignment:
! Touchstone port 1 = CST MWS port 1 ("")
# GHz S DB R 50
4.5                    -0.402152         87.0279
4.52                   -0.417496         85.6562
4.54                   -0.406737         84.1495
4.56                   -0.407722         82.4463
4.58                   -0.435111          80.761
4.6                    -0.461767         79.2177
4.62                    -0.46579         77.6728
4.64                   -0.463321         75.9698
4.66                    -0.47863         74.1784
4.68                   -0.506111         72.4563
4.7                    -0.522717         70.7959
4.72                   -0.525419         69.0549
4.74                   -0.533435         67.1896
4.76                   -0.556053         65.3082
4.78                   -0.579632         63.4853
4.8                    -0.591103         61.6493
4.82                   -0.598077         59.7066
4.84                   -0.614914          57.686
4.86                   -0.639934         55.6795
4.88                   -0.659621         53.6919
4.9                    -0.670643         51.6393
4.92                   -0.684094         49.4843
4.94                    -0.70704         47.2872
4.96                   -0.731973          45.101
4.98                   -0.749653         42.8871
5                      -0.763627         40.5787
5.02                   -0.783776         38.1836
5.04                   -0.810523         35.7626
5.06                   -0.834844         33.3275
5.08                   -0.852955         30.8211
5.1                    -0.871967         28.2059
5.12                    -0.89825         25.5165
5.14                   -0.927623         22.7962
5.16                   -0.952466         20.0237
5.18                   -0.973878         17.1425
5.2                    -0.999748         14.1442
5.22                    -1.03236         11.0722
5.24                    -1.06527         7.94491
5.26                    -1.09385         4.71948
5.28                    -1.12286         1.35151
5.3                     -1.15918        -2.14444
5.32                    -1.20156        -5.72826
5.34                    -1.24324        -9.40675
5.36                    -1.28321        -13.2326
5.38                    -1.32851        -17.2322
5.4                     -1.38415        -21.3746
5.42                    -1.44628         -25.629
5.44                    -1.50909        -30.0218
5.46                    -1.57485        -34.6049
5.48                    -1.65159        -39.3838
5.5                     -1.74186        -44.3147
5.52                    -1.83954        -49.3765
5.54                    -1.93973        -54.6092
5.56                    -2.04695        -60.0586
5.58                     -2.1689        -65.7095
5.6                     -2.30489        -71.5091
5.62                    -2.44621        -77.4482
5.64                    -2.58851        -83.5812
5.66                    -2.73828        -89.9504
5.68                     -2.9031        -96.5223
5.7                     -3.07954        -103.235
5.72                    -3.25691        -110.089
5.74                    -3.43265        -117.153
5.76                    -3.61729        -124.459
5.78                    -3.82045        -131.937
5.8                     -4.03722        -139.495
5.82                    -4.25509        -147.121
5.84                    -4.47365        -154.879
5.86                    -4.70858        -162.767
5.88                    -4.97148        -170.643
5.9                     -5.25169        -178.339
5.92                    -5.52681         174.185
5.94                    -5.79079         166.854
5.96                    -6.05858         159.689
5.98                    -6.33388         152.896
6                       -6.58209         146.667
6.02                    -6.75342         140.908
6.04                    -6.83402         135.317
6.06                    -6.84804          129.75
6.08                    -6.80031         124.315
6.1                     -6.65021         118.989
6.12                    -6.36822          113.35
6.14                    -5.99375         106.905
6.16                    -5.59874         99.5537
6.18                    -5.21285         91.4844
6.2                     -4.81606         82.6983
6.22                    -4.39856         72.8111
6.24                    -4.00456         61.3097
6.26                    -3.71439         47.8252
6.28                    -3.61192         32.0745
6.3                     -3.78498         13.6559
6.32                    -4.33975        -8.06798
6.34                    -5.38129        -34.0742
6.36                    -6.90179        -65.9255
6.38                    -8.47218         -105.31
6.4                     -9.04279         -149.52
6.42                    -8.17955         171.355
6.44                    -6.58327         141.979
6.46                    -4.73088          118.56
6.48                    -2.94237         95.9826
6.5                     -1.63875         71.6935
