! TOUCHSTONE file generated by CST MICROWAVE STUDIO
! Date and time: Thu Oct 27 14:26:07 2022
! Project name: L.cst
! Parameters = {Di=1.27; Epsilon_r=1.56; InnerDiameter=1.27; Length=2; Lf=10; Lg=60; OuterConductorThickness=0.2921; OuterDiameter=3.6; Wf=3; Wp=41.2; de=1.5; df=6.8; g=0.8; gx=1.95441; gy=2.7219; h=2.34; hf=1.524; px=10.2214; py=14.443; w=9.7; wx=8.267; wy=11.7211}
! Header version: 2018
! Port assignment regex: !\s*Touchstone port\s*([0-9]+)\s*=\s*(CST MWS port|CST DS port)\s*([0-9]+|Zmin|Zmax)\s*\(\"(.*)\"\)(\s*mode\s*([0-9]+))?.*
! Touchstone port assignment:
! Touchstone port 1 = CST MWS port 1 ("")
# GHz S DB R 50
4.5                    -0.682108         80.0922
4.52                   -0.687284         78.3656
4.54                   -0.732937         76.8084
4.56                   -0.735161         75.1693
4.58                   -0.779155         73.4631
4.6                    -0.791256         71.8779
4.62                   -0.824463          70.076
4.64                   -0.851748         68.4742
4.66                   -0.873289         66.6465
4.68                   -0.912776         64.9603
4.7                    -0.929046          63.155
4.72                   -0.972432          61.353
4.74                   -0.992556         59.5718
4.76                    -1.03195         57.6708
4.78                    -1.06188         55.8755
4.8                     -1.09431         53.9186
4.82                    -1.13403          52.059
4.84                    -1.16238         50.0827
4.86                    -1.20762         48.1291
4.88                    -1.23722          46.144
4.9                     -1.28277         44.0941
4.92                    -1.31821         42.0846
4.94                     -1.3606         39.9556
4.96                    -1.40397           37.89
4.98                    -1.44301         35.7079
5                       -1.49293         33.5543
5.02                    -1.53146         31.3365
5.04                    -1.58385         29.0762
5.06                    -1.62631         26.8168
5.08                     -1.6773         24.4549
5.1                     -1.72647         22.1264
5.12                     -1.7748         19.6796
5.14                    -1.83027         17.2473
5.16                    -1.87786          14.726
5.18                    -1.93705         12.1638
5.2                     -1.98743         9.56078
5.22                     -2.0475         6.85666
5.24                    -2.10413         4.14577
5.26                    -2.16372         1.29862
5.28                    -2.22853        -1.56042
5.3                      -2.2892        -4.55032
5.32                    -2.36205        -7.60065
5.34                    -2.42843        -10.7457
5.36                    -2.50811        -14.0207
5.38                     -2.5862        -17.3591
5.4                     -2.67325        -20.8833
5.42                    -2.76876        -24.4791
5.44                    -2.86832        -28.2825
5.46                    -2.98734        -32.2163
5.48                    -3.11105        -36.3523
5.5                     -3.26354        -40.7127
5.52                    -3.43219        -45.2665
5.54                    -3.63841        -50.1371
5.56                    -3.88596        -55.2111
5.58                    -4.18518        -60.6396
5.6                     -4.56308        -66.2941
5.62                    -5.01967        -72.2395
5.64                    -5.59892        -78.4017
5.66                    -6.30096        -84.7032
5.68                    -7.17902        -91.1857
5.7                     -8.26258        -97.7315
5.72                    -9.66898        -104.631
5.74                    -11.6189        -111.868
5.76                    -14.8321        -120.203
5.78                    -22.6869        -126.423
5.8                     -21.5223         22.1341
5.82                    -10.3202         2.48872
5.84                    -5.73077        -27.0746
5.86                    -4.24903        -55.6062
5.88                    -4.37218        -77.1352
5.9                     -4.80181        -93.0292
5.92                    -5.35079        -106.995
5.94                     -5.8524        -119.418
5.96                    -6.25124        -133.087
5.98                    -6.69261        -147.873
6                       -6.88856        -165.562
6.02                    -7.00123         171.549
6.04                    -6.69508         143.204
6.06                    -5.66352         106.265
6.08                    -4.37188         62.7068
6.1                     -3.42366         18.8626
6.12                    -3.32205        -20.0026
6.14                    -3.98497        -49.6109
6.16                    -4.58777        -70.6562
6.18                    -5.08726        -88.0973
6.2                     -5.42792        -100.961
6.22                    -5.23778        -114.262
6.24                    -5.33209        -127.951
6.26                    -5.06437         -140.09
6.28                     -4.8964        -155.597
6.3                     -4.86661        -168.147
6.32                    -4.25762         176.115
6.34                    -4.33076         159.293
6.36                     -3.6202         144.627
6.38                    -3.13266         120.934
6.4                     -3.21759         102.185
6.42                    -1.56305         71.9865
6.44                    -2.58292          13.127
6.46                    -9.24536        -94.6583
6.48                    -4.81594         124.825
6.5                     -3.06806         56.8891
