! TOUCHSTONE file generated by CST MICROWAVE STUDIO
! Date and time: Sat Oct 29 20:20:44 2022
! Project name: L.cst
! Parameters = {Di=1.27; Epsilon_r=1.56; InnerDiameter=1.27; Length=2; Lf=10; Lg=60; OuterConductorThickness=0.2921; OuterDiameter=3.6; Wf=3; Wp=41.2; de=1.5; df=6.8; g=0.8; gx=2.82838; gy=2.74975; h=2.34; hf=1.524; px=9.82436; py=10.1999; w=9.7; wx=6.99598; wy=7.4502}
! Header version: 2018
! Port assignment regex: !\s*Touchstone port\s*([0-9]+)\s*=\s*(CST MWS port|CST DS port)\s*([0-9]+|Zmin|Zmax)\s*\(\"(.*)\"\)(\s*mode\s*([0-9]+))?.*
! Touchstone port assignment:
! Touchstone port 1 = CST MWS port 1 ("")
# GHz S DB R 50
4.5                    -0.421986         87.6527
4.52                   -0.433921         86.1463
4.54                   -0.446297          84.626
4.56                   -0.459124         83.0918
4.58                   -0.472406         81.5436
4.6                    -0.486142         79.9814
4.62                   -0.500326         78.4052
4.64                   -0.514948         76.8148
4.66                   -0.529997         75.2101
4.68                   -0.545461          73.591
4.7                    -0.561329         71.9572
4.72                   -0.577586         70.3086
4.74                   -0.594223          68.645
4.76                   -0.611228         66.9662
4.78                   -0.628595         65.2718
4.8                    -0.646318         63.5616
4.82                   -0.664389         61.8355
4.84                   -0.682809          60.093
4.86                   -0.701576         58.3341
4.88                    -0.72069         56.5584
4.9                    -0.740156         54.7658
4.92                   -0.759976          52.956
4.94                   -0.780156         51.1289
4.96                   -0.800702         49.2842
4.98                   -0.821619         47.4219
5                      -0.842914         45.5418
5.02                   -0.864594         43.6438
5.04                   -0.886664         41.7279
5.06                   -0.909129         39.7939
5.08                   -0.931994         37.8419
5.1                    -0.955262         35.8719
5.12                   -0.978933          33.884
5.14                    -1.00301         31.8781
5.16                    -1.02749         29.8544
5.18                    -1.05236          27.813
5.2                     -1.07763         25.7541
5.22                    -1.10328         23.6778
5.24                    -1.12931         21.5843
5.26                     -1.1557          19.474
5.28                    -1.18244         17.3471
5.3                     -1.20952         15.2037
5.32                     -1.2369         13.0444
5.34                    -1.26458         10.8693
5.36                    -1.29254         8.67901
5.38                    -1.32074         6.47379
5.4                     -1.34916         4.25412
5.42                    -1.37778         2.02046
5.44                    -1.40657       -0.226707
5.46                    -1.43549        -2.48686
5.48                    -1.46452        -4.75947
5.5                     -1.49362        -7.04395
5.52                    -1.52277        -9.33971
5.54                    -1.55193        -11.6461
5.56                    -1.58107        -13.9626
5.58                    -1.61015        -16.2884
5.6                     -1.63914        -18.6228
5.62                    -1.66801        -20.9653
5.64                    -1.69673        -23.3149
5.66                    -1.72525         -25.671
5.68                    -1.75356        -28.0327
5.7                     -1.78162        -30.3994
5.72                     -1.8094        -32.7701
5.74                    -1.83687        -35.1441
5.76                      -1.864        -37.5206
5.78                    -1.89076        -39.8987
5.8                     -1.91713        -42.2775
5.82                    -1.94308        -44.6562
5.84                    -1.96858        -47.0341
5.86                    -1.99361        -49.4101
5.88                    -2.01815        -51.7835
5.9                     -2.04218        -54.1534
5.92                    -2.06566        -56.5191
5.94                    -2.08859        -58.8797
5.96                    -2.11093        -61.2344
5.98                    -2.13268        -63.5824
6                        -2.1538        -65.9231
6.02                    -2.17429        -68.2557
6.04                    -2.19411        -70.5795
6.06                    -2.21327        -72.8939
6.08                    -2.23173        -75.1983
6.1                     -2.24949        -77.4922
6.12                    -2.26653         -79.775
6.14                    -2.28283        -82.0463
6.16                    -2.29839        -84.3057
6.18                    -2.31319        -86.5528
6.2                     -2.32724        -88.7874
6.22                    -2.34053        -91.0092
6.24                    -2.35306        -93.2181
6.26                    -2.36483        -95.4138
6.28                    -2.37586        -97.5965
6.3                     -2.38617         -99.766
6.32                    -2.39577        -101.922
6.34                     -2.4047        -104.066
6.36                      -2.413        -106.196
6.38                    -2.42071        -108.314
6.4                     -2.42788        -110.419
6.42                    -2.43458        -112.512
6.44                    -2.44088        -114.592
6.46                    -2.44685         -116.66
6.48                     -2.4526        -118.717
6.5                     -2.45821        -120.761
