! TOUCHSTONE file generated by CST MICROWAVE STUDIO
! Date and time: Fri Oct 28 14:52:48 2022
! Project name: L.cst
! Parameters = {Di=1.27; Epsilon_r=1.56; InnerDiameter=1.27; Length=2; Lf=10; Lg=60; OuterConductorThickness=0.2921; OuterDiameter=3.6; Wf=3; Wp=41.2; de=1.5; df=6.8; g=0.8; gx=2.03838; gy=4.58757; h=2.34; hf=1.524; px=14.2521; py=14.1622; w=9.7; wx=12.2137; wy=9.57463}
! Header version: 2018
! Port assignment regex: !\s*Touchstone port\s*([0-9]+)\s*=\s*(CST MWS port|CST DS port)\s*([0-9]+|Zmin|Zmax)\s*\(\"(.*)\"\)(\s*mode\s*([0-9]+))?.*
! Touchstone port assignment:
! Touchstone port 1 = CST MWS port 1 ("")
# GHz S DB R 50
4.5                     -1.39916         88.5079
4.52                      -1.477         86.8843
4.54                    -1.55768         85.2582
4.56                    -1.64246         83.6381
4.58                    -1.73145         82.0254
4.6                     -1.82599         80.4176
4.62                    -1.92665         78.8189
4.64                    -2.03321         77.2238
4.66                    -2.14669         75.6311
4.68                    -2.26634         74.0451
4.7                     -2.39174         72.4604
4.72                    -2.52314         70.8836
4.74                     -2.6591         69.3185
4.76                    -2.79994         67.7652
4.78                    -2.94526         66.2363
4.8                     -3.09419          64.733
4.82                    -3.24739         63.2616
4.84                    -3.40394         61.8298
4.86                    -3.56382         60.4352
4.88                    -3.72712         59.0841
4.9                      -3.8926         57.7759
4.92                    -4.06011         56.5062
4.94                     -4.2287         55.2765
4.96                    -4.39683         54.0795
4.98                    -4.56399         52.9093
5                       -4.72861         51.7631
5.02                    -4.88945         50.6281
5.04                    -5.04641         49.4973
5.06                    -5.19832         48.3607
5.08                    -5.34582         47.2006
5.1                      -5.4899         46.0075
5.12                    -5.63146         44.7607
5.14                    -5.77392         43.4396
5.16                    -5.92045         42.0275
5.18                     -6.0759         40.4977
5.2                     -6.24717         38.8322
5.22                    -6.44181         37.0114
5.24                    -6.67106         35.0173
5.26                     -6.9491         32.8491
5.28                    -7.29398         30.5178
5.3                     -7.73075         28.0676
5.32                    -8.29152         25.6062
5.34                    -9.01722         23.3407
5.36                    -9.95777         21.6739
5.38                    -11.1597         21.3541
5.4                     -12.6307         23.6895
5.42                    -14.2281         30.7241
5.44                    -15.4276         44.2203
5.46                     -15.405         61.7263
5.48                    -14.0628         76.1737
5.5                     -12.1618          84.099
5.52                    -10.2845         86.6034
5.54                    -8.65339         85.5414
5.56                    -7.32067         82.3486
5.58                    -6.26636         78.0001
5.6                     -5.44537         73.0937
5.62                    -4.80966         67.9695
5.64                    -4.31651         62.7926
5.66                    -3.93323         57.6165
5.68                    -3.63639         52.4334
5.7                     -3.41016         47.1825
5.72                    -3.24767         41.7526
5.74                    -3.15154         35.9689
5.76                    -3.14169         29.5276
5.78                     -3.2877          21.872
5.8                     -3.87085         12.0708
5.82                    -5.99201         5.65936
5.84                    -5.66759         8.57452
5.86                    -6.65683        -12.0927
5.88                    -12.8381        -47.5207
5.9                     -15.1016         135.989
5.92                    -6.30878         93.5604
5.94                    -3.75789         71.8431
5.96                    -2.73155         57.9319
5.98                    -2.21999         48.0661
6                       -1.91747         40.4467
6.02                    -1.71284         34.1563
6.04                    -1.56114         28.6808
6.06                    -1.44363          23.681
6.08                    -1.35647         18.8381
6.1                     -1.31881         13.6191
6.12                    -1.49699          6.1675
6.14                     -6.2733         7.21294
6.16                    -1.44221         17.2437
6.18                    -1.11171         9.90511
6.2                     -1.02886         5.35541
6.22                   -0.991088         1.59579
6.24                   -0.969253        -1.84633
6.26                   -0.953749        -5.13761
6.28                   -0.939201        -8.34805
6.3                     -0.92219        -11.5059
6.32                   -0.900796        -14.6178
6.34                   -0.874633        -17.6795
6.36                   -0.844826        -20.6829
6.38                   -0.814044        -23.6224
6.4                    -0.786181        -26.4976
6.42                   -0.766185        -29.3169
6.44                   -0.760439        -32.0925
6.46                   -0.776722        -34.8236
6.48                   -0.820971         -37.448
6.5                    -0.872254        -39.8277
