! TOUCHSTONE file generated by CST MICROWAVE STUDIO
! Date and time: Sat Oct 29 11:52:55 2022
! Project name: L.cst
! Parameters = {Di=1.27; Epsilon_r=1.56; InnerDiameter=1.27; Length=2; Lf=10; Lg=60; OuterConductorThickness=0.2921; OuterDiameter=3.6; Wf=3; Wp=41.2; de=1.5; df=6.8; g=0.8; gx=4.88311; gy=3.25414; h=2.34; hf=1.524; px=9.94151; py=13.7861; w=9.7; wx=5.0584; wy=10.532}
! Header version: 2018
! Port assignment regex: !\s*Touchstone port\s*([0-9]+)\s*=\s*(CST MWS port|CST DS port)\s*([0-9]+|Zmin|Zmax)\s*\(\"(.*)\"\)(\s*mode\s*([0-9]+))?.*
! Touchstone port assignment:
! Touchstone port 1 = CST MWS port 1 ("")
# GHz S DB R 50
4.5                    -0.327153         93.6025
4.52                   -0.333887         92.2266
4.54                   -0.336372         90.8193
4.56                   -0.337527         89.3694
4.58                   -0.340417         87.8795
4.6                    -0.347039          86.363
4.62                   -0.357696          84.837
4.64                    -0.37111         83.3153
4.66                   -0.385128         81.8031
4.68                   -0.397674         80.2961
4.7                    -0.407559         78.7833
4.72                   -0.414852         77.2516
4.74                   -0.420703         75.6918
4.76                    -0.42677         74.1012
4.78                     -0.4345         72.4839
4.8                    -0.444592         70.8485
4.82                   -0.456798          69.204
4.84                   -0.470116         67.5563
4.86                   -0.483258         65.9057
4.88                   -0.495185         64.2477
4.9                    -0.505499         62.5746
4.92                   -0.514551          60.879
4.94                   -0.523236         59.1565
4.96                   -0.532598         57.4074
4.98                   -0.543405         55.6355
5                      -0.555859         53.8469
5.02                   -0.569561          52.047
5.04                   -0.583699         50.2382
5.06                   -0.597398         48.4192
5.08                   -0.610068         46.5855
5.1                    -0.621629         44.7313
5.12                   -0.632515         42.8518
5.14                   -0.643478         40.9446
5.16                   -0.655273          39.011
5.18                   -0.668356         37.0548
5.2                    -0.682707         35.0807
5.22                   -0.697852         33.0924
5.24                   -0.713059         31.0906
5.26                   -0.727638         29.0732
5.28                   -0.741213         27.0354
5.3                    -0.753875          24.972
5.32                    -0.76614         22.8792
5.34                   -0.778736         20.7557
5.36                    -0.79232         18.6034
5.38                   -0.807207         16.4262
5.4                    -0.823244         14.2285
5.42                   -0.839871          12.013
5.44                    -0.85634         9.77955
5.46                   -0.872023         7.52465
5.48                   -0.886678         5.24287
5.5                    -0.900569         2.92854
5.52                   -0.914394        0.577872
5.54                   -0.929026        -1.80969
5.56                   -0.945184        -4.23135
5.58                   -0.963147         -6.6822
5.6                    -0.982632        -9.15742
5.62                     -1.0029        -11.6545
5.64                    -1.02303        -14.1748
5.66                    -1.04234        -16.7237
5.68                    -1.06066        -19.3088
5.7                     -1.07854        -21.9379
5.72                    -1.09707        -24.6158
5.74                    -1.11752        -27.3425
5.76                    -1.14088        -30.1136
5.78                    -1.16749         -32.922
5.8                     -1.19679        -35.7612
5.82                    -1.22758        -38.6286
5.84                    -1.25842        -41.5283
5.86                    -1.28826        -44.4708
5.88                    -1.31704         -47.471
5.9                     -1.34589        -50.5435
5.92                    -1.37695         -53.698
5.94                    -1.41271        -56.9362
5.96                     -1.4552        -60.2515
5.98                    -1.50519        -63.6322
6                       -1.56182        -67.0682
6.02                    -1.62287        -70.5578
6.04                    -1.68563        -74.1134
6.06                     -1.7483        -77.7633
6.08                    -1.81135         -81.547
6.1                     -1.87829        -85.5061
6.12                    -1.95557        -89.6729
6.14                    -2.05132        -94.0612
6.16                    -2.17349        -98.6631
6.18                    -2.32773        -103.454
6.2                       -2.516        -108.406
6.22                    -2.73617        -113.507
6.24                     -2.9835        -118.783
6.26                    -3.25411        -124.315
6.28                    -3.55008        -130.246
6.3                      -3.8849        -136.771
6.32                     -4.2877        -144.114
6.34                    -4.80528        -152.505
6.36                    -5.50348        -162.186
6.38                    -6.47079        -173.451
6.4                     -7.82898         173.202
6.42                    -9.75439         156.695
6.44                    -12.4854         134.132
6.46                    -15.9144         96.9278
6.48                    -16.7934          37.057
6.5                     -13.3621        -10.5468
