! TOUCHSTONE file generated by CST MICROWAVE STUDIO
! Date and time: Thu Oct 27 04:35:10 2022
! Project name: L.cst
! Parameters = {Di=1.27; Epsilon_r=1.56; InnerDiameter=1.27; Length=2; Lf=10; Lg=60; OuterConductorThickness=0.2921; OuterDiameter=3.6; Wf=3; Wp=41.2; de=1.5; df=6.8; g=0.8; gx=1.86334; gy=4.06463; h=2.34; hf=1.524; px=8.37906; py=13.5185; w=9.7; wx=6.51573; wy=9.45383}
! Header version: 2018
! Port assignment regex: !\s*Touchstone port\s*([0-9]+)\s*=\s*(CST MWS port|CST DS port)\s*([0-9]+|Zmin|Zmax)\s*\(\"(.*)\"\)(\s*mode\s*([0-9]+))?.*
! Touchstone port assignment:
! Touchstone port 1 = CST MWS port 1 ("")
# GHz S DB R 50
4.5                    -0.381686         93.0717
4.52                   -0.387443         91.6627
4.54                   -0.393979          90.236
4.56                   -0.401549         88.7936
4.58                     -0.4103         87.3375
4.6                     -0.42028         85.8698
4.62                   -0.431446         84.3921
4.64                   -0.443688         82.9062
4.66                   -0.456841         81.4131
4.68                    -0.47071         79.9136
4.7                    -0.485084          78.408
4.72                   -0.499762         76.8961
4.74                    -0.51456         75.3777
4.76                   -0.529326          73.852
4.78                    -0.54395         72.3179
4.8                    -0.558362         70.7746
4.82                   -0.572538         69.2208
4.84                   -0.586495         67.6557
4.86                   -0.600286         66.0783
4.88                    -0.61399         64.4878
4.9                    -0.627707         62.8838
4.92                   -0.641549         61.2658
4.94                   -0.655627         59.6338
4.96                   -0.670046         57.9879
4.98                     -0.6849         56.3283
5                      -0.700261         54.6554
5.02                   -0.716179         52.9697
5.04                   -0.732681         51.2719
5.06                   -0.749768         49.5624
5.08                   -0.767419         47.8418
5.1                    -0.785594         46.1106
5.12                   -0.804234         44.3692
5.14                   -0.823271         42.6179
5.16                   -0.842632         40.8567
5.18                   -0.862239         39.0859
5.2                    -0.882025         37.3052
5.22                   -0.901925         35.5145
5.24                   -0.921893         33.7136
5.26                   -0.941896         31.9021
5.28                   -0.961917         30.0798
5.3                    -0.981958         28.2462
5.32                    -1.00204         26.4012
5.34                    -1.02219         24.5445
5.36                    -1.04247          22.676
5.38                    -1.06292         20.7958
5.4                      -1.0836         18.9039
5.42                    -1.10458         17.0006
5.44                     -1.1259         15.0862
5.46                    -1.14762         13.1613
5.48                    -1.16976         11.2264
5.5                     -1.19235         9.28219
5.52                    -1.21537         7.32935
5.54                    -1.23883         5.36859
5.56                    -1.26267         3.40058
5.58                    -1.28684         1.42598
5.6                     -1.31128       -0.554666
5.62                    -1.33591         -2.5409
5.64                    -1.36064         -4.5324
5.66                    -1.38539        -6.52896
5.68                    -1.41006        -8.53053
5.7                     -1.43461        -10.5372
5.72                    -1.45896        -12.5491
5.74                    -1.48308        -14.5666
5.76                    -1.50697        -16.5898
5.78                    -1.53064        -18.6194
5.8                     -1.55414        -20.6554
5.82                    -1.57753        -22.6983
5.84                    -1.60092         -24.748
5.86                    -1.62442        -26.8044
5.88                    -1.64816        -28.8674
5.9                     -1.67226        -30.9364
5.92                    -1.69686        -33.0107
5.94                    -1.72206        -35.0893
5.96                    -1.74793         -37.171
5.98                    -1.77452        -39.2544
6                       -1.80182        -41.3381
6.02                    -1.82976        -43.4207
6.04                     -1.8582        -45.5009
6.06                    -1.88696        -47.5774
6.08                    -1.91577        -49.6497
6.1                     -1.94434        -51.7176
6.12                    -1.97231        -53.7814
6.14                    -1.99935        -55.8425
6.16                    -2.02511        -57.9031
6.18                    -2.04931        -59.9663
6.2                     -2.07175        -62.0362
6.22                     -2.0924        -64.1179
6.24                    -2.11137        -66.2174
6.26                    -2.12903        -68.3407
6.28                    -2.14601         -70.495
6.3                     -2.16323        -72.6868
6.32                    -2.18193        -74.9221
6.34                    -2.20367        -77.2062
6.36                    -2.23034        -79.5429
6.38                    -2.26414        -81.9339
6.4                     -2.30753        -84.3785
6.42                    -2.36321         -86.873
6.44                    -2.43406        -89.4101
6.46                     -2.5231        -91.9785
6.48                    -2.63337        -94.5621
6.5                     -2.76786        -97.1393
