! TOUCHSTONE file generated by CST MICROWAVE STUDIO
! Date and time: Fri Oct 28 22:18:52 2022
! Project name: L.cst
! Parameters = {Di=1.27; Epsilon_r=1.56; InnerDiameter=1.27; Length=2; Lf=10; Lg=60; OuterConductorThickness=0.2921; OuterDiameter=3.6; Wf=3; Wp=41.2; de=1.5; df=6.8; g=0.8; gx=4.34315; gy=3.88228; h=2.34; hf=1.524; px=14.7894; py=10.0736; w=9.7; wx=10.4462; wy=6.19133}
! Header version: 2018
! Port assignment regex: !\s*Touchstone port\s*([0-9]+)\s*=\s*(CST MWS port|CST DS port)\s*([0-9]+|Zmin|Zmax)\s*\(\"(.*)\"\)(\s*mode\s*([0-9]+))?.*
! Touchstone port assignment:
! Touchstone port 1 = CST MWS port 1 ("")
# GHz S DB R 50
4.5                    -0.648118         91.6832
4.52                   -0.679431         90.1107
4.54                     -0.7054          88.518
4.56                    -0.72862         86.8759
4.58                   -0.753708         85.1772
4.6                    -0.784273         83.4377
4.62                   -0.820936         81.6831
4.64                   -0.861394         79.9322
4.66                   -0.902209          78.186
4.68                   -0.941045          76.429
4.7                    -0.977993         74.6403
4.72                    -1.01528         72.8063
4.74                    -1.05572         70.9278
4.76                    -1.10101         69.0178
4.78                    -1.15089         67.0916
4.8                     -1.20353         65.1574
4.82                    -1.25688         63.2117
4.84                    -1.30993         61.2421
4.86                    -1.36334         59.2353
4.88                    -1.41891          57.185
4.9                     -1.47849         55.0948
4.92                    -1.54289         52.9748
4.94                    -1.61156         50.8349
4.96                    -1.68306         48.6784
4.98                    -1.75609         46.5002
5                       -1.83031         44.2901
5.02                     -1.9066          42.039
5.04                    -1.98651         39.7443
5.06                    -2.07138         37.4109
5.08                     -2.1616         35.0476
5.1                     -2.25647         32.6615
5.12                    -2.35476         30.2538
5.14                    -2.45554         27.8185
5.16                    -2.55881         25.3469
5.18                    -2.66557          22.832
5.2                     -2.77726         20.2735
5.22                    -2.89495         17.6772
5.24                    -3.01877          15.052
5.26                    -3.14788         12.4039
5.28                    -3.28106         9.73284
5.3                     -3.41751          7.0323
5.32                    -3.55742         4.29356
5.34                    -3.70193         1.51105
5.36                    -3.85253        -1.31392
5.38                    -4.01017         -4.1735
5.4                     -4.17471        -7.05768
5.42                    -4.34499        -9.96006
5.44                    -4.51951        -12.8818
5.46                     -4.6974        -15.8311
5.48                    -4.87899        -18.8182
5.5                     -5.06575        -21.8486
5.52                    -5.25945        -24.9191
5.54                    -5.46107        -28.0184
5.56                    -5.67013        -31.1332
5.58                    -5.88484        -34.2556
5.6                     -6.10305        -37.3886
5.62                     -6.3236        -40.5449
5.64                    -6.54716        -43.7392
5.66                    -6.77606        -46.9792
5.68                    -7.01303        -50.2584
5.7                     -7.25951        -53.5582
5.72                    -7.51459        -56.8572
5.74                    -7.77527        -60.1437
5.76                    -8.03811        -63.4242
5.78                    -8.30154         -66.722
5.8                     -8.56742         -70.063
5.82                    -8.84066        -73.4586
5.84                    -9.12693        -76.8929
5.86                    -9.42937        -80.3251
5.88                    -9.74636        -83.7077
5.9                     -10.0718        -87.0124
5.92                    -10.3987        -90.2489
5.94                    -10.7237        -93.4628
5.96                    -11.0517        -96.7052
5.98                    -11.3946        -99.9885
6                       -11.7653        -103.254
6.02                    -12.1698        -106.374
6.04                    -12.5989        -109.198
6.06                    -13.0282        -111.633
6.08                    -13.4267        -113.719
6.1                     -13.7763        -115.638
6.12                    -14.0867        -117.604
6.14                    -14.3934        -119.689
6.16                    -14.7319        -121.697
6.18                    -15.1002        -123.199
6.2                     -15.4257        -123.777
6.22                    -15.5688        -123.502
6.24                    -15.4084        -123.335
6.26                    -14.9681        -124.769
6.28                     -14.426        -128.845
6.3                     -14.0017        -135.706
6.32                    -13.8743        -144.907
6.34                    -14.1822        -155.814
6.36                    -15.0617        -167.754
6.38                    -16.7077        -179.926
6.4                     -19.4984         169.085
6.42                    -24.3862         164.048
6.44                    -32.5429        -157.422
6.46                    -26.4226        -96.4126
6.48                    -21.3065        -97.1953
6.5                     -18.6876        -105.899
