! TOUCHSTONE file generated by CST MICROWAVE STUDIO
! Date and time: Fri Oct 28 20:59:43 2022
! Project name: L.cst
! Parameters = {Di=1.27; Epsilon_r=1.56; InnerDiameter=1.27; Length=2; Lf=10; Lg=60; OuterConductorThickness=0.2921; OuterDiameter=3.6; Wf=3; Wp=41.2; de=1.5; df=6.8; g=0.8; gx=2.45247; gy=1.93889; h=2.34; hf=1.524; px=9.5327; py=10.8823; w=9.7; wx=7.08023; wy=8.94341}
! Header version: 2018
! Port assignment regex: !\s*Touchstone port\s*([0-9]+)\s*=\s*(CST MWS port|CST DS port)\s*([0-9]+|Zmin|Zmax)\s*\(\"(.*)\"\)(\s*mode\s*([0-9]+))?.*
! Touchstone port assignment:
! Touchstone port 1 = CST MWS port 1 ("")
# GHz S DB R 50
4.5                    -0.532054         79.4103
4.52                   -0.544564         77.7696
4.54                   -0.558662         76.1039
4.56                   -0.574374         74.4142
4.58                   -0.591682         72.7016
4.6                    -0.610533         70.9668
4.62                    -0.63085         69.2103
4.64                   -0.652535         67.4324
4.66                   -0.675481         65.6333
4.68                   -0.699572         63.8127
4.7                    -0.724695         61.9705
4.72                   -0.750738         60.1061
4.74                   -0.777598         58.2188
4.76                   -0.805182         56.3079
4.78                   -0.833409         54.3725
4.8                    -0.862211         52.4116
4.82                   -0.891536         50.4243
4.84                   -0.921344         48.4093
4.86                    -0.95161         46.3656
4.88                   -0.982321         44.2922
4.9                     -1.01348         42.1879
4.92                    -1.04509         40.0516
4.94                    -1.07718         37.8825
4.96                    -1.10977         35.6795
4.98                    -1.14289         33.4418
5                       -1.17658         31.1685
5.02                    -1.21087         28.8589
5.04                     -1.2458         26.5125
5.06                     -1.2814         24.1285
5.08                     -1.3177         21.7066
5.1                     -1.35473         19.2464
5.12                     -1.3925         16.7476
5.14                    -1.43103           14.21
5.16                    -1.47032         11.6336
5.18                    -1.51035         9.01819
5.2                     -1.55112         6.36401
5.22                     -1.5926         3.67119
5.24                    -1.63475        0.940002
5.26                    -1.67752        -1.82913
5.28                    -1.72087        -4.63588
5.3                      -1.7647        -7.47965
5.32                    -1.80897        -10.3598
5.34                    -1.85356        -13.2756
5.36                     -1.8984        -16.2261
5.38                    -1.94339        -19.2106
5.4                     -1.98841        -22.2278
5.42                    -2.03335        -25.2768
5.44                     -2.0781        -28.3562
5.46                    -2.12254        -31.4647
5.48                    -2.16655        -34.6008
5.5                     -2.21002        -37.7631
5.52                    -2.25281        -40.9499
5.54                    -2.29483        -44.1594
5.56                    -2.33595        -47.3897
5.58                    -2.37608         -50.639
5.6                     -2.41512        -53.9053
5.62                    -2.45298        -57.1864
5.64                    -2.48959        -60.4802
5.66                    -2.52486        -63.7845
5.68                    -2.55875         -67.097
5.7                     -2.59122        -70.4155
5.72                    -2.62221        -73.7375
5.74                    -2.65172        -77.0609
5.76                    -2.67974         -80.383
5.78                    -2.70625        -83.7018
5.8                     -2.73128        -87.0149
5.82                    -2.75485        -90.3201
5.84                    -2.77699        -93.6152
5.86                    -2.79772         -96.898
5.88                    -2.81711        -100.166
5.9                      -2.8352        -103.419
5.92                    -2.85203        -106.653
5.94                    -2.86768        -109.867
5.96                    -2.88218         -113.06
5.98                    -2.89561         -116.23
6                         -2.908        -119.377
6.02                    -2.91943        -122.497
6.04                    -2.92993        -125.592
6.06                    -2.93956         -128.66
6.08                    -2.94835        -131.701
6.1                     -2.95635        -134.714
6.12                     -2.9636        -137.699
6.14                    -2.97014        -140.657
6.16                    -2.97601        -143.587
6.18                    -2.98125         -146.49
6.2                     -2.98592        -149.367
6.22                    -2.99008         -152.22
6.24                     -2.9938        -155.048
6.26                    -2.99718        -157.853
6.28                    -3.00034        -160.638
6.3                     -3.00341        -163.403
6.32                    -3.00658         -166.15
6.34                    -3.01004        -168.883
6.36                    -3.01406        -171.601
6.38                    -3.01893        -174.309
6.4                     -3.02499        -177.006
6.42                    -3.03262        -179.696
6.44                    -3.04229          177.62
6.46                    -3.05448          174.94
6.48                    -3.06975         172.264
6.5                     -3.08871         169.591
