! TOUCHSTONE file generated by CST MICROWAVE STUDIO
! Date and time: Thu Oct 27 19:25:45 2022
! Project name: L.cst
! Parameters = {Di=1.27; Epsilon_r=1.56; InnerDiameter=1.27; Length=2; Lf=10; Lg=60; OuterConductorThickness=0.2921; OuterDiameter=3.6; Wf=3; Wp=41.2; de=1.5; df=6.8; g=0.8; gx=2.25661; gy=4.03472; h=2.34; hf=1.524; px=10.0889; py=10.599; w=9.7; wx=7.83231; wy=6.56424}
! Header version: 2018
! Port assignment regex: !\s*Touchstone port\s*([0-9]+)\s*=\s*(CST MWS port|CST DS port)\s*([0-9]+|Zmin|Zmax)\s*\(\"(.*)\"\)(\s*mode\s*([0-9]+))?.*
! Touchstone port assignment:
! Touchstone port 1 = CST MWS port 1 ("")
# GHz S DB R 50
4.5                    -0.413944         93.7035
4.52                   -0.426074          92.259
4.54                   -0.438581         90.8032
4.56                   -0.451479         89.3361
4.58                   -0.464773         87.8577
4.6                    -0.478465         86.3681
4.62                   -0.492556          84.867
4.64                   -0.507044         83.3544
4.66                   -0.521927         81.8303
4.68                   -0.537202         80.2946
4.7                    -0.552863         78.7471
4.72                   -0.568909         77.1877
4.74                   -0.585336         75.6163
4.76                   -0.602142         74.0327
4.78                   -0.619326         72.4369
4.8                    -0.636888         70.8286
4.82                   -0.654831         69.2077
4.84                   -0.673157         67.5741
4.86                    -0.69187         65.9276
4.88                   -0.710975         64.2682
4.9                    -0.730478         62.5957
4.92                   -0.750387           60.91
4.94                   -0.770709         59.2111
4.96                   -0.791453         57.4988
4.98                   -0.812627         55.7731
5                       -0.83424         54.0339
5.02                   -0.856302         52.2813
5.04                   -0.878821         50.5152
5.06                   -0.901806         48.7357
5.08                   -0.925265         46.9428
5.1                    -0.949203         45.1366
5.12                   -0.973629          43.317
5.14                   -0.998547         41.4843
5.16                    -1.02396         39.6386
5.18                    -1.04988         37.7799
5.2                      -1.0763         35.9084
5.22                    -1.10322         34.0244
5.24                    -1.13064         32.1281
5.26                    -1.15856         30.2195
5.28                    -1.18698         28.2991
5.3                      -1.2159          26.367
5.32                     -1.2453         24.4235
5.34                    -1.27517         22.4689
5.36                    -1.30552         20.5035
5.38                    -1.33633         18.5277
5.4                     -1.36759         16.5418
5.42                    -1.39928         14.5462
5.44                    -1.43139         12.5413
5.46                    -1.46391         10.5275
5.48                    -1.49682         8.50519
5.5                     -1.53011         6.47484
5.52                    -1.56375         4.43691
5.54                    -1.59773         2.39187
5.56                    -1.63203        0.340215
5.58                    -1.66663        -1.71754
5.6                     -1.70151        -3.78086
5.62                    -1.73664        -5.84922
5.64                      -1.772        -7.92206
5.66                    -1.80758        -9.99881
5.68                    -1.84334        -12.0789
5.7                     -1.87927        -14.1617
5.72                    -1.91533        -16.2466
5.74                    -1.95152        -18.3331
5.76                    -1.98779        -20.4204
5.78                    -2.02412         -22.508
5.8                      -2.0605        -24.5952
5.82                    -2.09689        -26.6814
5.84                    -2.13326         -28.766
5.86                    -2.16959        -30.8482
5.88                    -2.20585        -32.9275
5.9                     -2.24202        -35.0033
5.92                    -2.27806        -37.0748
5.94                    -2.31394        -39.1415
5.96                    -2.34964        -41.2027
5.98                    -2.38513         -43.258
6                       -2.42037        -45.3065
6.02                    -2.45535        -47.3479
6.04                    -2.49002        -49.3816
6.06                    -2.52437         -51.407
6.08                    -2.55836        -53.4236
6.1                     -2.59196        -55.4311
6.12                    -2.62515        -57.4289
6.14                    -2.65791        -59.4167
6.16                     -2.6902         -61.394
6.18                    -2.72202        -63.3606
6.2                     -2.75334        -65.3161
6.22                    -2.78415        -67.2604
6.24                    -2.81443        -69.1931
6.26                    -2.84419         -71.114
6.28                    -2.87341        -73.0231
6.3                     -2.90211        -74.9201
6.32                    -2.93029         -76.805
6.34                    -2.95796        -78.6777
6.36                    -2.98516         -80.538
6.38                     -3.0119         -82.386
6.4                     -3.03823        -84.2215
6.42                    -3.06418        -86.0446
6.44                    -3.08981         -87.855
6.46                    -3.11518        -89.6527
6.48                    -3.14033        -91.4375
6.5                     -3.16534        -93.2092
