! TOUCHSTONE file generated by CST MICROWAVE STUDIO
! Date and time: Thu Oct 27 02:43:14 2022
! Project name: L.cst
! Parameters = {Di=1.27; Epsilon_r=1.56; InnerDiameter=1.27; Length=2; Lf=10; Lg=60; OuterConductorThickness=0.2921; OuterDiameter=3.6; Wf=3; Wp=41.2; de=1.5; df=6.8; g=0.8; gx=2.95347; gy=1.53997; h=2.34; hf=1.524; px=10.094; py=14.6753; w=9.7; wx=7.14054; wy=13.1353}
! Header version: 2018
! Port assignment regex: !\s*Touchstone port\s*([0-9]+)\s*=\s*(CST MWS port|CST DS port)\s*([0-9]+|Zmin|Zmax)\s*\(\"(.*)\"\)(\s*mode\s*([0-9]+))?.*
! Touchstone port assignment:
! Touchstone port 1 = CST MWS port 1 ("")
# GHz S DB R 50
4.5                    -0.831174         68.7585
4.52                   -0.876154         66.7338
4.54                   -0.908903         64.6198
4.56                   -0.930603         62.4941
4.58                   -0.949158         60.3949
4.6                    -0.974727         58.2982
4.62                     -1.0114         56.1472
4.64                    -1.05502         53.8794
4.66                    -1.09815          51.472
4.68                    -1.13347         48.9498
4.7                     -1.15991         46.3468
4.72                    -1.18287         43.6878
4.74                    -1.20816          40.954
4.76                    -1.23995         38.0895
4.78                    -1.27652         35.0394
4.8                     -1.31224         31.7599
4.82                    -1.34325         28.2386
4.84                    -1.36923         24.4772
4.86                    -1.39563         20.4568
4.88                     -1.4308          16.128
4.9                     -1.48166         11.4042
4.92                    -1.55303         6.18287
4.94                    -1.64883        0.371531
4.96                    -1.77672        -6.10684
4.98                    -1.95325        -13.3249
5                       -2.20649        -21.3728
5.02                    -2.57549        -30.3663
5.04                    -3.10879        -40.4229
5.06                    -3.86317        -51.5892
5.08                     -4.9005        -63.7601
5.1                     -6.28533         -76.632
5.12                     -8.0759        -89.7176
5.14                    -10.3129        -102.473
5.16                    -13.0126        -114.397
5.18                    -16.1437        -124.966
5.2                      -19.563        -133.387
5.22                    -22.8455        -138.362
5.24                    -25.0538        -139.581
5.26                    -25.2691        -141.397
5.28                    -23.7717        -148.608
5.3                     -21.4337        -160.221
5.32                    -18.8451        -173.384
5.34                    -16.3137         173.538
5.36                    -13.9885         160.961
5.38                    -11.9294         148.694
5.4                     -10.1422          136.39
5.42                    -8.60315         123.738
5.44                    -7.28338         110.519
5.46                    -6.16422         96.5945
5.48                    -5.24217         81.7764
5.5                      -4.5286         65.6903
5.52                    -4.04036         47.6445
5.54                    -3.80044         26.4115
5.56                    -3.89569       -0.139806
5.58                    -4.77705        -34.4631
5.6                     -6.77671        -69.8985
5.62                    -7.17923        -104.736
5.64                    -6.03375        -145.122
5.66                    -4.49221         177.832
5.68                     -3.1946          147.58
5.7                     -2.31048         123.081
5.72                    -1.77952         102.442
5.74                    -1.50292          83.905
5.76                    -1.42387          65.671
5.78                    -1.64857         44.6034
5.8                      -3.5624         8.73414
5.82                    -10.2151         130.783
5.84                    -2.09413         68.2793
5.86                    -1.30188         45.4644
5.88                    -1.15602         30.3062
5.9                     -1.20446         17.3536
5.92                    -1.35821         4.70179
5.94                    -1.57656         -8.7857
5.96                    -1.82776        -24.1331
5.98                    -2.10727        -42.7217
6                        -2.5381        -67.7508
6.02                    -3.96655        -113.214
6.04                    -5.63197         69.0725
6.06                     -1.1039        -52.3016
6.08                   -0.929458        -103.759
6.1                    -0.877981        -147.824
6.12                   -0.639561         170.969
6.14                   -0.381477         135.973
6.16                   -0.298974         108.359
6.18                   -0.392741         86.7204
6.2                    -0.564821         69.2701
6.22                   -0.725287         54.8233
6.24                   -0.840034         42.7566
6.26                   -0.927583         32.6687
6.28                    -1.02473         24.1184
6.3                     -1.15317         16.6038
6.32                    -1.30387         9.68494
6.34                    -1.44539          3.1169
6.36                    -1.54854        -3.10207
6.38                    -1.60975         -8.8302
6.4                     -1.65484        -13.9739
6.42                    -1.71925        -18.6192
6.44                    -1.82159        -23.0109
6.46                    -1.94919        -27.4115
6.48                    -2.06532        -31.9316
6.5                     -2.13519        -36.4418
