! TOUCHSTONE file generated by CST MICROWAVE STUDIO
! Date and time: Fri Oct 28 16:05:40 2022
! Project name: L.cst
! Parameters = {Di=1.27; Epsilon_r=1.56; InnerDiameter=1.27; Length=2; Lf=10; Lg=60; OuterConductorThickness=0.2921; OuterDiameter=3.6; Wf=3; Wp=41.2; de=1.5; df=6.8; g=0.8; gx=2.88991; gy=2.95996; h=2.34; hf=1.524; px=8.26913; py=10.1969; w=9.7; wx=5.37922; wy=7.23692}
! Header version: 2018
! Port assignment regex: !\s*Touchstone port\s*([0-9]+)\s*=\s*(CST MWS port|CST DS port)\s*([0-9]+|Zmin|Zmax)\s*\(\"(.*)\"\)(\s*mode\s*([0-9]+))?.*
! Touchstone port assignment:
! Touchstone port 1 = CST MWS port 1 ("")
# GHz S DB R 50
4.5                    -0.335813         89.6919
4.52                   -0.344369         88.2566
4.54                   -0.353144         86.8101
4.56                   -0.362149         85.3523
4.58                   -0.371391         83.8832
4.6                    -0.380874         82.4026
4.62                     -0.3906         80.9106
4.64                   -0.400566          79.407
4.66                    -0.41077         77.8918
4.68                   -0.421205         76.3649
4.7                    -0.431869         74.8262
4.72                   -0.442752         73.2755
4.74                   -0.453851         71.7128
4.76                   -0.465158         70.1379
4.78                   -0.476669         68.5507
4.8                    -0.488377         66.9511
4.82                   -0.500278         65.3389
4.84                   -0.512369          63.714
4.86                   -0.524646         62.0763
4.88                   -0.537109         60.4256
4.9                    -0.549752         58.7619
4.92                    -0.56258          57.085
4.94                   -0.575589         55.3948
4.96                    -0.58878         53.6913
4.98                   -0.602156         51.9744
5                      -0.615714         50.2439
5.02                   -0.629459            48.5
5.04                   -0.643389         46.7425
5.06                   -0.657508         44.9715
5.08                   -0.671815         43.1868
5.1                     -0.68631         41.3887
5.12                   -0.700993         39.5771
5.14                   -0.715864          37.752
5.16                   -0.730921         35.9136
5.18                   -0.746162          34.062
5.2                    -0.761583         32.1972
5.22                   -0.777182         30.3194
5.24                   -0.792954         28.4287
5.26                   -0.808892         26.5255
5.28                   -0.824989         24.6097
5.3                     -0.84124         22.6816
5.32                   -0.857635         20.7414
5.34                   -0.874164         18.7895
5.36                   -0.890819          16.826
5.38                   -0.907586         14.8513
5.4                    -0.924455         12.8655
5.42                   -0.941413         10.8692
5.44                   -0.958448         8.86249
5.46                   -0.975543         6.84585
5.48                   -0.992688         4.81961
5.5                     -1.00986         2.78415
5.52                    -1.02706        0.739882
5.54                    -1.04426        -1.31279
5.56                    -1.06144        -3.37343
5.58                    -1.07859        -5.44159
5.6                      -1.0957        -7.51682
5.62                    -1.11275        -9.59865
5.64                    -1.12971        -11.6866
5.66                    -1.14659        -13.7801
5.68                    -1.16335        -15.8787
5.7                     -1.17998        -17.9819
5.72                    -1.19648        -20.0892
5.74                    -1.21281        -22.1999
5.76                    -1.22897        -24.3136
5.78                    -1.24494        -26.4297
5.8                     -1.26071        -28.5476
5.82                    -1.27626        -30.6668
5.84                    -1.29157        -32.7868
5.86                    -1.30663        -34.9068
5.88                    -1.32144        -37.0265
5.9                     -1.33596        -39.1451
5.92                    -1.35019        -41.2623
5.94                    -1.36411        -43.3772
5.96                    -1.37772        -45.4896
5.98                    -1.39099        -47.5987
6                       -1.40391        -49.7042
6.02                    -1.41647        -51.8054
6.04                    -1.42865        -53.9019
6.06                    -1.44045        -55.9932
6.08                    -1.45184        -58.0789
6.1                     -1.46282        -60.1584
6.12                    -1.47337        -62.2315
6.14                    -1.48348        -64.2978
6.16                    -1.49314        -66.3568
6.18                    -1.50235        -68.4082
6.2                     -1.51109        -70.4518
6.22                    -1.51935        -72.4874
6.24                    -1.52714        -74.5146
6.26                    -1.53445        -76.5332
6.28                    -1.54128        -78.5432
6.3                     -1.54763        -80.5444
6.32                    -1.55352        -82.5367
6.34                    -1.55895          -84.52
6.36                    -1.56393        -86.4943
6.38                     -1.5685        -88.4595
6.4                     -1.57267        -90.4157
6.42                    -1.57647        -92.3628
6.44                    -1.57993        -94.3008
6.46                    -1.58311        -96.2298
6.48                    -1.58603        -98.1498
6.5                     -1.58875        -100.061
