! TOUCHSTONE file generated by CST MICROWAVE STUDIO
! Date and time: Sat Oct 29 13:05:45 2022
! Project name: L.cst
! Parameters = {Di=1.27; Epsilon_r=1.56; InnerDiameter=1.27; Length=2; Lf=10; Lg=60; OuterConductorThickness=0.2921; OuterDiameter=3.6; Wf=3; Wp=41.2; de=1.5; df=6.8; g=0.8; gx=1.11837; gy=2.54539; h=2.34; hf=1.524; px=12.1717; py=9.66696; w=9.7; wx=11.0533; wy=7.12157}
! Header version: 2018
! Port assignment regex: !\s*Touchstone port\s*([0-9]+)\s*=\s*(CST MWS port|CST DS port)\s*([0-9]+|Zmin|Zmax)\s*\(\"(.*)\"\)(\s*mode\s*([0-9]+))?.*
! Touchstone port assignment:
! Touchstone port 1 = CST MWS port 1 ("")
# GHz S DB R 50
4.5                     -2.90306         64.5068
4.52                    -3.11525         62.4111
4.54                    -3.33085         60.3515
4.56                    -3.54885         58.2732
4.58                     -3.7747         56.1334
4.6                     -4.01708         53.9252
4.62                    -4.28336         51.6806
4.64                    -4.57619         49.4527
4.66                    -4.89288         47.2896
4.68                    -5.22756         45.2126
4.7                     -5.57494         43.2097
4.72                    -5.93365         41.2487
4.74                    -6.30729         39.3014
4.76                    -6.70273         37.3656
4.78                    -7.12659         35.4733
4.8                     -7.58182         33.6808
4.82                    -8.06631         32.0474
4.84                    -8.57405         30.6127
4.86                    -9.09836         29.3853
4.88                    -9.63557         28.3506
4.9                     -10.1869         27.4946
4.92                    -10.7569         26.8316
4.94                    -11.3498         26.4187
4.96                    -11.9636         26.3469
4.98                    -12.5879         26.7108
5                       -13.2039         27.5685
5.02                      -13.79         28.9142
5.04                    -14.3284         30.6824
5.06                    -14.8087         32.7861
5.08                    -15.2263         35.1595
5.1                     -15.5748         37.7677
5.12                     -15.841         40.5672
5.14                    -16.0077         43.4473
5.16                    -16.0647         46.2086
5.18                    -16.0184          48.613
5.2                     -15.8934         50.4743
5.22                    -15.7212         51.7205
5.24                    -15.5286         52.3843
5.26                    -15.3297         52.5447
5.28                    -15.1277         52.2629
5.3                     -14.9214         51.5486
5.32                    -14.7121         50.3659
5.34                    -14.5073         48.6691
5.36                    -14.3194         46.4385
5.38                    -14.1604         43.6968
5.4                     -14.0375         40.4975
5.42                      -13.95         36.8952
5.44                    -13.8913         32.9141
5.46                    -13.8518         28.5288
5.48                    -13.8238         23.6664
5.5                     -13.8048          18.229
5.52                    -13.7969         12.1261
5.54                    -13.8037         5.29952
5.56                    -13.8252        -2.26822
5.58                    -13.8538        -10.5617
5.6                     -13.8727        -19.5486
5.62                    -13.8572        -29.1918
5.64                    -13.7804        -39.4514
5.66                    -13.6195        -50.2713
5.68                    -13.3633        -61.5579
5.7                     -13.0162        -73.1619
5.72                    -12.5975        -84.8758
5.74                    -12.1356        -96.4471
5.76                    -11.6596        -107.601
5.78                    -11.1899        -118.065
5.8                     -10.7296        -127.602
5.82                    -10.2599         -136.06
5.84                    -9.74234        -143.443
5.86                    -9.13221        -149.978
5.88                    -8.40214        -156.109
5.9                       -7.562         -162.37
5.92                    -6.65931        -169.194
5.94                    -5.76039        -176.789
5.96                    -4.92849         174.857
5.98                    -4.21117         165.907
6                       -3.63732         156.599
6.02                    -3.21875         147.194
6.04                    -2.95255         137.945
6.06                    -2.82279          129.08
6.08                    -2.80201         120.772
6.1                     -2.85398         113.114
6.12                    -2.93964         106.088
6.14                    -3.02642         99.5594
6.16                    -3.09776         93.3204
6.18                    -3.15713         87.1641
6.2                     -3.22292         80.9668
6.22                    -3.31655         74.7251
6.24                     -3.4501         68.5357
6.26                    -3.61839         62.5294
6.28                    -3.79866         56.7824
6.3                     -3.95933         51.2367
6.32                    -4.07697          45.673
6.34                    -4.15352         39.7758
6.36                    -4.22193         33.2697
6.38                    -4.33592         26.0431
6.4                     -4.55159         18.1945
6.42                    -4.91061         10.0089
6.44                    -5.42731         1.90149
6.46                    -6.07617          -5.665
6.48                    -6.77989        -12.3387
6.5                     -7.41307        -18.1658
