! TOUCHSTONE file generated by CST MICROWAVE STUDIO
! Date and time: Thu Oct 27 08:43:27 2022
! Project name: L.cst
! Parameters = {Di=1.27; Epsilon_r=1.56; InnerDiameter=1.27; Length=2; Lf=10; Lg=60; OuterConductorThickness=0.2921; OuterDiameter=3.6; Wf=3; Wp=41.2; de=1.5; df=6.8; g=0.8; gx=4.26833; gy=1.00353; h=2.34; hf=1.524; px=13.6631; py=11.7066; w=9.7; wx=9.39479; wy=10.703}
! Header version: 2018
! Port assignment regex: !\s*Touchstone port\s*([0-9]+)\s*=\s*(CST MWS port|CST DS port)\s*([0-9]+|Zmin|Zmax)\s*\(\"(.*)\"\)(\s*mode\s*([0-9]+))?.*
! Touchstone port assignment:
! Touchstone port 1 = CST MWS port 1 ("")
# GHz S DB R 50
4.5                     -1.22855         67.2511
4.52                    -1.29593         64.9292
4.54                    -1.35913         62.5171
4.56                    -1.42167         59.9873
4.58                    -1.48814         57.3287
4.6                     -1.56269         54.5457
4.62                    -1.64796         51.6532
4.64                    -1.74455         48.6696
4.66                    -1.85127         45.6087
4.68                    -1.96573         42.4753
4.7                     -2.08531         39.2627
4.72                    -2.20801         35.9543
4.74                    -2.33308         32.5276
4.76                    -2.46114         28.9595
4.78                    -2.59394         25.2311
4.8                     -2.73375         21.3306
4.82                    -2.88266          17.254
4.84                    -3.04202         13.0029
4.86                    -3.21208         8.58193
4.88                    -3.39193         3.99472
4.9                     -3.57972       -0.758543
4.92                    -3.77307        -5.68278
4.94                    -3.96943        -10.7878
4.96                    -4.16656        -16.0863
4.98                    -4.36266        -21.5912
5                       -4.55641        -27.3122
5.02                    -4.74677        -33.2525
5.04                    -4.93271        -39.4072
5.06                    -5.11289        -45.7622
5.08                    -5.28543         -52.295
5.1                     -5.44791         -58.976
5.12                    -5.59743        -65.7708
5.14                    -5.73096        -72.6424
5.16                    -5.84571        -79.5534
5.18                    -5.93959        -86.4675
5.2                     -6.01159        -93.3503
5.22                    -6.06198         -100.17
5.24                    -6.09235        -106.895
5.26                    -6.10539        -113.498
5.28                     -6.1045        -119.948
5.3                     -6.09327        -126.218
5.32                    -6.07495        -132.281
5.34                    -6.05204        -138.112
5.36                    -6.02598        -143.692
5.38                    -5.99716        -149.009
5.4                     -5.96507        -154.059
5.42                    -5.92876        -158.848
5.44                    -5.88734        -163.392
5.46                    -5.84045        -167.713
5.48                    -5.78863        -171.837
5.5                     -5.73333        -175.789
5.52                    -5.67667        -179.588
5.54                      -5.621         176.751
5.56                    -5.56829         173.223
5.58                    -5.51968         169.826
5.6                     -5.47532         166.559
5.62                    -5.43441         163.421
5.64                    -5.39561         160.405
5.66                    -5.35769         157.498
5.68                    -5.32009         154.682
5.7                     -5.28331         151.938
5.72                    -5.24894         149.254
5.74                    -5.21915         146.624
5.76                      -5.196         144.051
5.78                    -5.18043         141.548
5.8                     -5.17161         139.135
5.82                    -5.16664         136.826
5.84                    -5.16088         134.625
5.86                    -5.14904          132.52
5.88                     -5.1267          130.48
5.9                     -5.09188         128.463
5.92                    -5.04599          126.42
5.94                    -4.99373         124.318
5.96                    -4.94165         122.144
5.98                    -4.89589         119.914
6                       -4.85955         117.667
6.02                    -4.83049         115.456
6.04                    -4.80035          113.32
6.06                    -4.75532         111.262
6.08                    -4.67953         109.225
6.1                     -4.56055         107.081
6.12                    -4.39554         104.649
6.14                     -4.1953         101.729
6.16                    -3.98408         98.1504
6.18                    -3.79575         93.8059
6.2                     -3.66861         88.6627
6.22                    -3.64149         82.7532
6.24                    -3.75232         76.1582
6.26                    -4.03921         68.9927
6.28                    -4.54388         61.3984
6.3                     -5.31757         53.5534
6.32                    -6.43149         45.7036
6.34                    -7.99666         38.2535
6.36                    -10.2064         32.0388
6.38                    -13.4339         29.3483
6.4                     -18.2998         39.2072
6.42                    -21.3577         89.6723
6.44                     -16.314         122.352
6.46                    -12.2107         124.873
6.48                    -9.51166         119.683
6.5                     -7.66318         111.865
