! TOUCHSTONE file generated by CST MICROWAVE STUDIO
! Date and time: Fri Oct 28 19:28:25 2022
! Project name: L.cst
! Parameters = {Di=1.27; Epsilon_r=1.56; InnerDiameter=1.27; Length=2; Lf=10; Lg=60; OuterConductorThickness=0.2921; OuterDiameter=3.6; Wf=3; Wp=41.2; de=1.5; df=6.8; g=0.8; gx=0.404919; gy=1.03425; h=2.34; hf=1.524; px=9.37215; py=10.0479; w=9.7; wx=8.96723; wy=9.01362}
! Header version: 2018
! Port assignment regex: !\s*Touchstone port\s*([0-9]+)\s*=\s*(CST MWS port|CST DS port)\s*([0-9]+|Zmin|Zmax)\s*\(\"(.*)\"\)(\s*mode\s*([0-9]+))?.*
! Touchstone port assignment:
! Touchstone port 1 = CST MWS port 1 ("")
# GHz S DB R 50
4.5                     -3.87878         54.0339
4.52                    -4.16461         51.7967
4.54                    -4.47807         49.6229
4.56                     -4.8172         47.5369
4.58                    -5.17959         45.5571
4.6                     -5.56267         43.6958
4.62                    -5.96409         41.9594
4.64                    -6.38204         40.3496
4.66                    -6.81547         38.8654
4.68                    -7.26429         37.5057
4.7                     -7.72938         36.2717
4.72                    -8.21249         35.1705
4.74                    -8.71594         34.2177
4.76                    -9.24218         33.4401
4.78                    -9.79328         32.8775
4.8                     -10.3701         32.5842
4.82                    -10.9714         32.6287
4.84                    -11.5926         33.0918
4.86                    -12.2247          34.062
4.88                    -12.8526         35.6246
4.9                     -13.4541         37.8448
4.92                    -14.0006         40.7423
4.94                     -14.459         44.2627
4.96                    -14.7981         48.2575
4.98                    -14.9964         52.4907
5                       -15.0486         56.6802
5.02                    -14.9671         60.5605
5.04                    -14.7773         63.9374
5.06                    -14.5096         66.7083
5.08                    -14.1928         68.8518
5.1                       -13.85         70.4009
5.12                    -13.4976         71.4159
5.14                    -13.1464         71.9638
5.16                    -12.8024         72.1066
5.18                    -12.4689         71.8958
5.2                     -12.1474         71.3708
5.22                    -11.8383         70.5604
5.24                    -11.5421         69.4844
5.26                    -11.2593         68.1567
5.28                    -10.9905         66.5876
5.3                     -10.7367         64.7859
5.32                    -10.4992         62.7601
5.34                     -10.279         60.5198
5.36                    -10.0771         58.0755
5.38                    -9.89437         55.4385
5.4                     -9.73095         52.6204
5.42                    -9.58668         49.6325
5.44                     -9.4608         46.4846
5.46                    -9.35203         43.1842
5.48                    -9.25857         39.7355
5.5                     -9.17821         36.1386
5.52                    -9.10845         32.3887
5.54                     -9.0466          28.476
5.56                    -8.98996         24.3852
5.58                    -8.93597         20.0961
5.6                     -8.88235         15.5844
5.62                    -8.82719         10.8222
5.64                    -8.76896         5.78024
5.66                    -8.70655        0.428842
5.68                    -8.63912           -5.26
5.7                     -8.56602        -11.3111
5.72                     -8.4866        -17.7446
5.74                    -8.40006        -24.5743
5.76                    -8.30537        -31.8067
5.78                     -8.2012        -39.4405
5.8                     -8.08595        -47.4646
5.82                    -7.95793        -55.8589
5.84                    -7.81554        -64.5939
5.86                    -7.65758        -73.6313
5.88                    -7.48354        -82.9257
5.9                     -7.29389        -92.4266
5.92                    -7.09023        -102.081
5.94                    -6.87533        -111.836
5.96                    -6.65311        -121.641
5.98                    -6.42834        -131.451
6                       -6.20645        -141.229
6.02                    -5.99318        -150.941
6.04                     -5.7943        -160.562
6.06                    -5.61534        -170.075
6.08                    -5.46148         -179.45
6.1                     -5.33734         171.282
6.12                    -5.24698         162.169
6.14                    -5.19383         153.204
6.16                    -5.18067         144.392
6.18                    -5.20965          135.74
6.2                     -5.28227         127.252
6.22                    -5.39934         118.938
6.24                    -5.56094         110.804
6.26                    -5.76632         102.861
6.28                    -6.01384         95.1195
6.3                     -6.30079         87.5887
6.32                    -6.62325         80.2781
6.34                    -6.97596         73.1932
6.36                    -7.35228         66.3335
6.38                    -7.74419          59.689
6.4                     -8.14264         53.2364
6.42                      -8.538         46.9359
6.44                    -8.92095         40.7286
6.46                    -9.28349         34.5375
6.48                    -9.61997         28.2707
6.5                     -9.92789         21.8295
