! TOUCHSTONE file generated by CST MICROWAVE STUDIO
! Date and time: Wed Oct 26 23:57:02 2022
! Project name: L.cst
! Parameters = {Di=1.27; Epsilon_r=1.56; InnerDiameter=1.27; Length=2; Lf=10; Lg=60; OuterConductorThickness=0.2921; OuterDiameter=3.6; Wf=3; Wp=41.2; de=1.5; df=6.8; g=0.8; gx=3.78554; gy=3.46471; h=2.34; hf=1.524; px=10.3905; py=11.866; w=9.7; wx=6.60497; wy=8.40129}
! Header version: 2018
! Port assignment regex: !\s*Touchstone port\s*([0-9]+)\s*=\s*(CST MWS port|CST DS port)\s*([0-9]+|Zmin|Zmax)\s*\(\"(.*)\"\)(\s*mode\s*([0-9]+))?.*
! Touchstone port assignment:
! Touchstone port 1 = CST MWS port 1 ("")
# GHz S DB R 50
4.5                    -0.359922         93.7525
4.52                   -0.369354         92.3215
4.54                   -0.379054          90.878
4.56                   -0.389042         89.4219
4.58                   -0.399335         87.9532
4.6                    -0.409942         86.4718
4.62                   -0.420872         84.9776
4.64                   -0.432123         83.4705
4.66                   -0.443699         81.9505
4.68                   -0.455594         80.4173
4.7                    -0.467803          78.871
4.72                   -0.480323         77.3113
4.74                   -0.493144          75.738
4.76                    -0.50626         74.1511
4.78                   -0.519666         72.5503
4.8                    -0.533355         70.9353
4.82                   -0.547321         69.3061
4.84                    -0.56156         67.6623
4.86                   -0.576068         66.0038
4.88                   -0.590843         64.3304
4.9                    -0.605884         62.6419
4.92                   -0.621191          60.938
4.94                   -0.636764         59.2185
4.96                   -0.652605         57.4834
4.98                   -0.668717         55.7323
5                      -0.685103         53.9651
5.02                   -0.701767         52.1817
5.04                   -0.718712          50.382
5.06                   -0.735944         48.5657
5.08                   -0.753464         46.7329
5.1                    -0.771278         44.8834
5.12                   -0.789389         43.0172
5.14                   -0.807799         41.1342
5.16                   -0.826512         39.2344
5.18                   -0.845527         37.3178
5.2                    -0.864845         35.3844
5.22                   -0.884466         33.4343
5.24                   -0.904387         31.4675
5.26                   -0.924604         29.4842
5.28                   -0.945115         27.4843
5.3                    -0.965913         25.4681
5.32                   -0.986991         23.4357
5.34                    -1.00834         21.3872
5.36                    -1.02995          19.323
5.38                    -1.05181         17.2431
5.4                     -1.07391         15.1479
5.42                    -1.09624         13.0375
5.44                    -1.11877         10.9124
5.46                     -1.1415         8.77271
5.48                     -1.1644         6.61889
5.5                     -1.18746         4.45125
5.52                    -1.21066         2.27018
5.54                    -1.23398       0.0760735
5.56                     -1.2574        -2.13065
5.58                     -1.2809        -4.34955
5.6                     -1.30446        -6.58015
5.62                    -1.32806        -8.82198
5.64                    -1.35167        -11.0745
5.66                    -1.37527        -13.3373
5.68                    -1.39884        -15.6097
5.7                     -1.42235        -17.8912
5.72                    -1.44579        -20.1812
5.74                    -1.46914        -22.4792
5.76                    -1.49236        -24.7844
5.78                    -1.51545        -27.0964
5.8                     -1.53837        -29.4144
5.82                    -1.56111        -31.7379
5.84                    -1.58364        -34.0662
5.86                    -1.60595        -36.3986
5.88                    -1.62801        -38.7345
5.9                      -1.6498        -41.0732
5.92                    -1.67131         -43.414
5.94                    -1.69251        -45.7564
5.96                    -1.71339        -48.0997
5.98                    -1.73392        -50.4432
6                       -1.75409        -52.7864
6.02                    -1.77388        -55.1286
6.04                    -1.79326        -57.4692
6.06                    -1.81223        -59.8078
6.08                    -1.83076        -62.1437
6.1                     -1.84884        -64.4766
6.12                    -1.86644        -66.8059
6.14                    -1.88356        -69.1312
6.16                    -1.90019        -71.4522
6.18                    -1.91629        -73.7686
6.2                     -1.93188          -76.08
6.22                    -1.94692        -78.3863
6.24                    -1.96143        -80.6873
6.26                     -1.9754        -82.9828
6.28                    -1.98883         -85.273
6.3                     -2.00171        -87.5577
6.32                    -2.01408        -89.8372
6.34                    -2.02594        -92.1114
6.36                    -2.03731        -94.3807
6.38                    -2.04823        -96.6453
6.4                     -2.05874        -98.9054
6.42                    -2.06888        -101.162
6.44                    -2.07873        -103.414
6.46                    -2.08833        -105.663
6.48                    -2.09778         -107.91
6.5                     -2.10717        -110.154
