! TOUCHSTONE file generated by CST MICROWAVE STUDIO
! Date and time: Thu Oct 27 18:03:09 2022
! Project name: L.cst
! Parameters = {Di=1.27; Epsilon_r=1.56; InnerDiameter=1.27; Length=2; Lf=10; Lg=60; OuterConductorThickness=0.2921; OuterDiameter=3.6; Wf=3; Wp=41.2; de=1.5; df=6.8; g=0.8; gx=4.62984; gy=3.07754; h=2.34; hf=1.524; px=12.1274; py=11.2414; w=9.7; wx=7.49755; wy=8.16385}
! Header version: 2018
! Port assignment regex: !\s*Touchstone port\s*([0-9]+)\s*=\s*(CST MWS port|CST DS port)\s*([0-9]+|Zmin|Zmax)\s*\(\"(.*)\"\)(\s*mode\s*([0-9]+))?.*
! Touchstone port assignment:
! Touchstone port 1 = CST MWS port 1 ("")
# GHz S DB R 50
4.5                    -0.418914         92.5533
4.52                   -0.429674         91.0507
4.54                   -0.441264         89.5294
4.56                   -0.453723         87.9896
4.58                   -0.467067         86.4318
4.6                    -0.481294         84.8562
4.62                   -0.496383          83.263
4.64                   -0.512307         81.6523
4.66                   -0.529026         80.0241
4.68                   -0.546497         78.3782
4.7                    -0.564673         76.7145
4.72                   -0.583508         75.0327
4.74                   -0.602957         73.3323
4.76                   -0.622979         71.6131
4.78                   -0.643537         69.8744
4.8                    -0.664603         68.1157
4.82                    -0.68615         66.3364
4.84                   -0.708161         64.5359
4.86                   -0.730625         62.7137
4.88                   -0.753539         60.8689
4.9                    -0.776905         59.0011
4.92                   -0.800729         57.1096
4.94                   -0.825025         55.1938
4.96                   -0.849811         53.2531
4.98                   -0.875107          51.287
5                      -0.900936          49.295
5.02                   -0.927322         47.2766
5.04                   -0.954293         45.2314
5.06                   -0.981873          43.159
5.08                    -1.01009          41.059
5.1                     -1.03896         38.9313
5.12                    -1.06851         36.7756
5.14                    -1.09876         34.5917
5.16                    -1.12972         32.3795
5.18                     -1.1614         30.1389
5.2                     -1.19381           27.87
5.22                    -1.22694         25.5727
5.24                    -1.26079         23.2471
5.26                    -1.29535         20.8934
5.28                     -1.3306         18.5117
5.3                     -1.36653         16.1024
5.32                     -1.4031         13.6656
5.34                    -1.44028         11.2019
5.36                    -1.47803         8.71142
5.38                    -1.51631          6.1948
5.4                     -1.55507          3.6525
5.42                    -1.59424         1.08509
5.44                    -1.63379        -1.50681
5.46                    -1.67363        -4.12252
5.48                    -1.71371        -6.76129
5.5                     -1.75396        -9.42235
5.52                     -1.7943        -12.1048
5.54                    -1.83466        -14.8078
5.56                    -1.87497        -17.5304
5.58                    -1.91514        -20.2714
5.6                     -1.95512        -23.0299
5.62                    -1.99481        -25.8047
5.64                    -2.03415        -28.5945
5.66                    -2.07305        -31.3982
5.68                    -2.11146        -34.2143
5.7                      -2.1493        -37.0417
5.72                    -2.18651        -39.8788
5.74                    -2.22303        -42.7242
5.76                    -2.25879        -45.5764
5.78                    -2.29375         -48.434
5.8                     -2.32785        -51.2954
5.82                    -2.36105         -54.159
5.84                     -2.3933        -57.0233
5.86                    -2.42458        -59.8866
5.88                    -2.45485        -62.7475
5.9                     -2.48408        -65.6042
5.92                    -2.51224        -68.4554
5.94                    -2.53932        -71.2993
5.96                    -2.56529        -74.1347
5.98                    -2.59014        -76.9599
6                       -2.61385        -79.7736
6.02                    -2.63642        -82.5745
6.04                    -2.65783        -85.3612
6.06                    -2.67807        -88.1327
6.08                    -2.69713        -90.8878
6.1                       -2.715        -93.6256
6.12                    -2.73167         -96.345
6.14                    -2.74713        -99.0455
6.16                    -2.76138        -101.726
6.18                    -2.77441        -104.387
6.2                     -2.78621        -107.027
6.22                    -2.79678        -109.646
6.24                    -2.80612        -112.244
6.26                    -2.81424        -114.822
6.28                    -2.82115        -117.379
6.3                     -2.82687        -119.915
6.32                    -2.83144        -122.432
6.34                    -2.83491         -124.93
6.36                    -2.83733        -127.409
6.38                    -2.83877        -129.871
6.4                     -2.83935        -132.317
6.42                    -2.83917        -134.746
6.44                    -2.83839        -137.161
6.46                    -2.83715        -139.563
6.48                    -2.83565        -141.952
6.5                     -2.83411         -144.33
