! TOUCHSTONE file generated by CST MICROWAVE STUDIO
! Date and time: Sat Oct 29 17:13:47 2022
! Project name: L.cst
! Parameters = {Di=1.27; Epsilon_r=1.56; InnerDiameter=1.27; Length=2; Lf=10; Lg=60; OuterConductorThickness=0.2921; OuterDiameter=3.6; Wf=3; Wp=41.2; de=1.5; df=6.8; g=0.8; gx=1.11723; gy=3.89671; h=2.34; hf=1.524; px=12.6356; py=14.7731; w=9.7; wx=11.5184; wy=10.8763}
! Header version: 2018
! Port assignment regex: !\s*Touchstone port\s*([0-9]+)\s*=\s*(CST MWS port|CST DS port)\s*([0-9]+|Zmin|Zmax)\s*\(\"(.*)\"\)(\s*mode\s*([0-9]+))?.*
! Touchstone port assignment:
! Touchstone port 1 = CST MWS port 1 ("")
# GHz S DB R 50
4.5                     -1.89544         83.8546
4.52                    -2.00917         82.1888
4.54                    -2.12594         80.7948
4.56                    -2.23275         79.1877
4.58                    -2.37198         77.7441
4.6                     -2.48359         76.2719
4.62                    -2.63082         74.7701
4.64                    -2.75994          73.426
4.66                    -2.90409         71.9335
4.68                    -3.05486         70.6554
4.7                     -3.19481         69.2658
4.72                    -3.35967         67.9993
4.74                    -3.50242         66.7658
4.76                      -3.668         65.5131
4.78                    -3.82003         64.4204
4.8                     -3.97625         63.2342
4.82                    -4.13623         62.2255
4.84                    -4.28061         61.1602
4.86                    -4.43916         60.1838
4.88                    -4.57455         59.2492
4.9                      -4.7202          58.285
4.92                    -4.84932         57.4371
4.94                    -4.97418         56.4868
4.96                    -5.09679          55.644
4.98                     -5.2006         54.7085
5                       -5.31299         53.7872
5.02                    -5.40276         52.8393
5.04                    -5.50126         51.7825
5.06                     -5.5882         50.7541
5.08                    -5.67496         49.5449
5.1                     -5.76967         48.3457
5.12                    -5.85712         46.9876
5.14                    -5.96853           45.55
5.16                    -6.07888         44.0368
5.18                    -6.21959         42.3564
5.2                     -6.38097         40.6793
5.22                    -6.57416          38.834
5.24                    -6.81844         37.0376
5.26                    -7.10193         35.2168
5.28                    -7.46452         33.5182
5.3                     -7.88447         32.1265
5.32                    -8.39202         31.1156
5.34                    -8.96339          30.984
5.36                    -9.56428         31.8191
5.38                    -10.1387         34.1526
5.4                     -10.5371         37.7652
5.42                    -10.6938         42.1666
5.44                    -10.5256         46.3164
5.46                    -10.1659         49.1335
5.48                    -9.72139         50.5556
5.5                      -9.3298         50.5412
5.52                    -9.06134         49.9717
5.54                    -8.90152         49.1972
5.56                    -8.85352         48.9155
5.58                    -8.79356         49.4071
5.6                     -8.67516          50.514
5.62                    -8.39291         52.0296
5.64                    -7.95631         53.0272
5.66                    -7.41375         53.3728
5.68                    -6.81053         52.6086
5.7                     -6.24003         51.0155
5.72                    -5.68768         48.7106
5.74                    -5.21247         45.7956
5.76                    -4.78243         42.6349
5.78                    -4.40744         39.0323
5.8                     -4.09192           35.36
5.82                    -3.79674         31.4072
5.84                    -3.56539         27.2819
5.86                    -3.34263          23.046
5.88                    -3.16727         18.4171
5.9                     -3.02354         13.7193
5.92                    -2.89698         8.48195
5.94                    -2.84421         2.89521
5.96                    -2.80354         -3.2917
5.98                    -2.89253        -10.6745
6                       -3.20458        -18.7155
6.02                     -3.7482        -27.1051
6.04                    -4.46833        -36.0248
6.06                    -5.53397        -47.5337
6.08                    -7.62244        -61.6253
6.1                     -11.4159        -77.4316
6.12                    -20.7044        -103.395
6.14                    -19.7974         80.5112
6.16                    -11.8729         58.5301
6.18                    -8.31591          43.493
6.2                      -7.0911         25.6926
6.22                    -8.37004         20.1649
6.24                    -7.33002         32.9933
6.26                    -4.83696         28.3613
6.28                    -3.75703         19.8458
6.3                     -2.91274          12.529
6.32                    -2.45681         4.32171
6.34                     -2.2292        -1.92328
6.36                    -1.97466        -8.05281
6.38                    -1.85666        -13.8185
6.4                     -1.73349          -19.21
6.42                     -1.6473        -24.5995
6.44                    -1.59914        -30.1824
6.46                    -1.62512        -35.3411
6.48                    -1.55336        -41.2255
6.5                     -1.80695        -47.5578
