! TOUCHSTONE file generated by CST MICROWAVE STUDIO
! Date and time: Wed Oct 26 18:25:41 2022
! Project name: L.cst
! Parameters = {Di=1.27; Epsilon_r=1.56; InnerDiameter=1.27; Length=2; Lf=10; Lg=60; OuterConductorThickness=0.2921; OuterDiameter=3.6; Wf=3; Wp=41.2; de=1.5; df=6.8; g=0.8; gx=2.83662; gy=4.0054; h=2.34; hf=1.524; px=11.3046; py=12.0725; w=9.7; wx=8.46797; wy=8.06708}
! Header version: 2018
! Port assignment regex: !\s*Touchstone port\s*([0-9]+)\s*=\s*(CST MWS port|CST DS port)\s*([0-9]+|Zmin|Zmax)\s*\(\"(.*)\"\)(\s*mode\s*([0-9]+))?.*
! Touchstone port assignment:
! Touchstone port 1 = CST MWS port 1 ("")
# GHz S DB R 50
4.5                    -0.453146         93.5166
4.52                   -0.466787         92.0552
4.54                    -0.48093         90.5812
4.56                   -0.495592         89.0947
4.58                   -0.510786         87.5956
4.6                     -0.52652         86.0839
4.62                   -0.542794         84.5596
4.64                    -0.55961         83.0227
4.66                   -0.576963          81.473
4.68                    -0.59485         79.9104
4.7                    -0.613265         78.3349
4.72                   -0.632205         76.7461
4.74                   -0.651664         75.1441
4.76                    -0.67164         73.5287
4.78                   -0.692133         71.8994
4.8                    -0.713141         70.2563
4.82                   -0.734668         68.5991
4.84                   -0.756719         66.9275
4.86                   -0.779301         65.2414
4.88                   -0.802421         63.5405
4.9                    -0.826091         61.8247
4.92                   -0.850321         60.0938
4.94                   -0.875129         58.3475
4.96                   -0.900525         56.5858
4.98                   -0.926529         54.8086
5                      -0.953155         53.0156
5.02                   -0.980421         51.2067
5.04                    -1.00834          49.382
5.06                    -1.03694         47.5414
5.08                    -1.06623         45.6847
5.1                     -1.09623         43.8121
5.12                    -1.12695         41.9235
5.14                    -1.15841         40.0189
5.16                    -1.19062         38.0985
5.18                     -1.2236         36.1623
5.2                     -1.25735         34.2105
5.22                    -1.29188         32.2431
5.24                     -1.3272         30.2603
5.26                    -1.36331         28.2623
5.28                    -1.40023         26.2493
5.3                     -1.43794         24.2216
5.32                    -1.47646         22.1793
5.34                    -1.51578         20.1229
5.36                    -1.55588         18.0525
5.38                    -1.59678         15.9685
5.4                     -1.63846         13.8712
5.42                    -1.68091         11.7611
5.44                    -1.72411         9.63843
5.46                    -1.76807         7.50372
5.48                    -1.81275         5.35737
5.5                     -1.85815         3.19984
5.52                    -1.90425         1.03162
5.54                    -1.95103        -1.14678
5.56                    -1.99846        -3.33485
5.58                    -2.04653        -5.53201
5.6                     -2.09521        -7.73771
5.62                    -2.14447        -9.95135
5.64                     -2.1943        -12.1723
5.66                    -2.24466        -14.3999
5.68                    -2.29553        -16.6336
5.7                     -2.34688        -18.8726
5.72                    -2.39868        -21.1163
5.74                     -2.4509         -23.364
5.76                     -2.5035        -25.6148
5.78                    -2.55645        -27.8681
5.8                     -2.60973        -30.1232
5.82                    -2.66328        -32.3792
5.84                    -2.71709        -34.6355
5.86                    -2.77111        -36.8912
5.88                     -2.8253        -39.1455
5.9                     -2.87963        -41.3977
5.92                    -2.93405        -43.6471
5.94                    -2.98852        -45.8927
5.96                      -3.043         -48.134
5.98                    -3.09746          -50.37
6                       -3.15183        -52.6002
6.02                    -3.20608        -54.8238
6.04                    -3.26016        -57.0401
6.06                    -3.31402        -59.2486
6.08                    -3.36762        -61.4485
6.1                     -3.42092        -63.6393
6.12                    -3.47385        -65.8205
6.14                    -3.52638        -67.9916
6.16                    -3.57847        -70.1523
6.18                    -3.63007         -72.302
6.2                     -3.68115        -74.4405
6.22                    -3.73166        -76.5676
6.24                    -3.78158        -78.6831
6.26                    -3.83088        -80.7867
6.28                    -3.87954        -82.8786
6.3                     -3.92755        -84.9586
6.32                    -3.97491        -87.0268
6.34                    -4.02162        -89.0832
6.36                    -4.06769        -91.1281
6.38                    -4.11315        -93.1615
6.4                     -4.15804        -95.1837
6.42                     -4.2024        -97.1949
6.44                    -4.24629        -99.1952
6.46                    -4.28979        -101.185
6.48                    -4.33296        -103.164
6.5                     -4.37591        -105.133
