! TOUCHSTONE file generated by CST MICROWAVE STUDIO
! Date and time: Fri Oct 28 23:45:46 2022
! Project name: L.cst
! Parameters = {Di=1.27; Epsilon_r=1.56; InnerDiameter=1.27; Length=2; Lf=10; Lg=60; OuterConductorThickness=0.2921; OuterDiameter=3.6; Wf=3; Wp=41.2; de=1.5; df=6.8; g=0.8; gx=1.86948; gy=1.09864; h=2.34; hf=1.524; px=13.663; py=13.2046; w=9.7; wx=11.7935; wy=12.1059}
! Header version: 2018
! Port assignment regex: !\s*Touchstone port\s*([0-9]+)\s*=\s*(CST MWS port|CST DS port)\s*([0-9]+|Zmin|Zmax)\s*\(\"(.*)\"\)(\s*mode\s*([0-9]+))?.*
! Touchstone port assignment:
! Touchstone port 1 = CST MWS port 1 ("")
# GHz S DB R 50
4.5                     -7.69263         33.5258
4.52                    -8.36082         31.0121
4.54                    -9.13231         28.3176
4.56                    -9.92792         25.5325
4.58                    -10.7988         23.2168
4.6                     -11.8201         20.9489
4.62                    -12.9226           18.54
4.64                    -14.1244          16.725
4.66                    -15.5626         15.3959
4.68                    -17.2221         14.1264
4.7                     -19.1015         13.9369
4.72                    -21.4677           15.86
4.74                    -24.5457         20.5662
4.76                    -28.3647         33.2813
4.78                    -31.7951         69.2535
4.8                     -30.1416         114.686
4.82                    -26.5749         134.303
4.84                    -23.6905         141.065
4.86                    -21.4838             144
4.88                    -19.8455         145.181
4.9                      -18.542         144.936
4.92                    -17.4257         144.261
4.94                    -16.5165         143.549
4.96                     -15.776          142.43
4.98                    -15.1164         141.131
5                       -14.5519         140.009
5.02                    -14.0994         138.815
5.04                    -13.7021          137.52
5.06                    -13.3537          136.45
5.08                     -13.087         135.547
5.1                     -12.8668         134.681
5.12                     -12.667         134.111
5.14                    -12.5119         133.954
5.16                      -12.38         134.044
5.18                    -12.2232         134.515
5.2                     -12.0376         135.528
5.22                    -11.8091         136.835
5.24                    -11.4825         138.263
5.26                    -11.0425         139.775
5.28                    -10.5116         141.007
5.3                     -9.88982         141.564
5.32                    -9.19807         141.385
5.34                    -8.50315          140.41
5.36                    -7.84475         138.537
5.38                    -7.23943         135.966
5.4                     -6.72604         132.997
5.42                    -6.31947         129.763
5.44                    -5.99391         126.494
5.46                    -5.73475           123.5
5.48                    -5.52275         120.809
5.5                      -5.3072         118.353
5.52                    -5.05643          116.13
5.54                    -4.77295         113.907
5.56                    -4.45089         111.378
5.58                    -4.09693           108.5
5.6                     -3.75146         105.233
5.62                    -3.43199         101.469
5.64                    -3.13507         97.3223
5.66                    -2.88269         92.9279
5.68                    -2.68128         88.2089
5.7                     -2.50758          83.204
5.72                    -2.36899         78.0256
5.74                     -2.2744         72.5137
5.76                    -2.19641         66.5419
5.78                    -2.14035         60.1283
5.8                     -2.13727         52.9244
5.82                      -2.197         44.4735
5.84                    -2.42503         34.7391
5.86                    -2.99347         24.5388
5.88                    -3.56363         15.0084
5.9                     -3.86926         2.20627
5.92                    -4.64634        -16.2294
5.94                    -6.25615         -39.013
5.96                    -8.11382        -61.7516
5.98                    -9.05709        -90.7851
6                       -8.33621        -128.337
6.02                    -6.65212        -166.283
6.04                    -4.92677         155.159
6.06                    -4.13298         113.033
6.08                      -10.68         40.2651
6.1                      -8.4206        -169.478
6.12                    -3.95545         145.669
6.14                    -2.52469         123.088
6.16                    -2.03925         107.852
6.18                    -1.79837         94.8933
6.2                     -1.59584          84.326
6.22                    -1.57943         74.9707
6.24                    -1.57163         65.4219
6.26                    -1.53117         56.5732
6.28                    -1.64589          47.222
6.3                     -1.63109         35.7368
6.32                    -1.46268         23.0125
6.34                    -2.61409         -5.5435
6.36                    -6.07155          -8.425
6.38                    -4.08477        -38.0357
6.4                     -5.63264        -99.8044
6.42                     -4.8195        -155.476
6.44                    -1.70324         153.587
6.46                   -0.703407         118.659
6.48                    -0.22312         94.9996
6.5                    -0.147231         79.8977
