! TOUCHSTONE file generated by CST MICROWAVE STUDIO
! Date and time: Wed Oct 26 23:23:46 2022
! Project name: L.cst
! Parameters = {Di=1.27; Epsilon_r=1.56; InnerDiameter=1.27; Length=2; Lf=10; Lg=60; OuterConductorThickness=0.2921; OuterDiameter=3.6; Wf=3; Wp=41.2; de=1.5; df=6.8; g=0.8; gx=3.91318; gy=1.79239; h=2.34; hf=1.524; px=8.853; py=14.3966; w=9.7; wx=4.93982; wy=12.6042}
! Header version: 2018
! Port assignment regex: !\s*Touchstone port\s*([0-9]+)\s*=\s*(CST MWS port|CST DS port)\s*([0-9]+|Zmin|Zmax)\s*\(\"(.*)\"\)(\s*mode\s*([0-9]+))?.*
! Touchstone port assignment:
! Touchstone port 1 = CST MWS port 1 ("")
# GHz S DB R 50
4.5                    -0.461026         78.2729
4.52                    -0.48298         76.6574
4.54                   -0.501744         75.0454
4.56                   -0.516221         73.4182
4.58                   -0.526469         71.7525
4.6                    -0.535632         70.0314
4.62                   -0.546746         68.2608
4.64                   -0.561063         66.4495
4.66                    -0.57954         64.6119
4.68                   -0.600298         62.7636
4.7                    -0.621014          60.901
4.72                   -0.640535         59.0193
4.74                   -0.657269         57.1053
4.76                   -0.672434         55.1415
4.78                   -0.687483         53.1259
4.8                    -0.703429          51.054
4.82                   -0.722032         48.9315
4.84                   -0.742662         46.7683
4.86                   -0.764511         44.5641
4.88                   -0.786563         42.3204
4.9                    -0.807108         40.0286
4.92                   -0.826063          37.675
4.94                   -0.843704         35.2507
4.96                   -0.860527         32.7448
4.98                   -0.877813         30.1517
5                      -0.895792         27.4709
5.02                   -0.914253         24.6971
5.04                   -0.932798         21.8258
5.06                   -0.950027         18.8462
5.08                    -0.96539         15.7381
5.1                    -0.978725         12.4812
5.12                   -0.990336         9.04774
5.14                    -1.00179         5.40999
5.16                    -1.01476         1.54071
5.18                    -1.03142        -2.59081
5.2                     -1.05429        -7.01701
5.22                    -1.08618        -11.7761
5.24                    -1.13065        -16.9145
5.26                    -1.19261        -22.4879
5.28                    -1.27881         -28.561
5.3                     -1.39836          -35.21
5.32                    -1.56413        -42.5213
5.34                    -1.79329        -50.5873
5.36                    -2.10889        -59.5088
5.38                    -2.54213        -69.3793
5.4                     -3.13203        -80.2693
5.42                    -3.92636        -92.2113
5.44                    -4.97824        -105.164
5.46                    -6.33785         -119.02
5.48                    -8.04633        -133.637
5.5                      -10.127        -148.905
5.52                    -12.5793        -164.833
5.54                    -15.3696         178.436
5.56                    -18.3978         160.851
5.58                    -21.4364         143.209
5.6                     -24.0832          128.71
5.62                    -25.6214         123.154
5.64                    -24.8615         126.782
5.66                    -21.8614         128.198
5.68                    -18.2012         122.163
5.7                      -14.733         110.691
5.72                    -11.6474         95.4323
5.74                    -8.97118         76.8098
5.76                    -6.74361         54.6032
5.78                    -5.06177          28.476
5.8                     -4.05417        -1.56446
5.82                    -3.78089        -34.9605
5.84                    -4.11625        -70.9357
5.86                    -4.74422        -108.816
5.88                    -5.31866        -147.512
5.9                     -5.75935         174.865
5.92                    -6.52277          140.31
5.94                     -8.8937         114.577
5.96                    -10.5986         131.076
5.98                    -5.00574         124.686
6                       -2.53481         97.7122
6.02                    -1.63929         73.4399
6.04                    -1.31767         51.3104
6.06                    -1.33175         28.4235
6.08                    -1.81242       -0.410519
6.1                     -3.68575        -50.3988
6.12                    -6.42727        -167.825
6.14                    -2.84213         97.7133
6.16                    -1.47795         58.3806
6.18                     -1.0537         35.3421
6.2                    -0.910925         18.1765
6.22                    -0.88716         3.39299
6.24                   -0.935738        -10.6255
6.26                    -1.04731        -24.9824
6.28                    -1.24852        -40.9425
6.3                     -1.73954        -61.3187
6.32                     -10.627        -107.403
6.34                   -0.256827        -82.3726
6.36                   -0.433049        -121.176
6.38                   -0.382132        -162.107
6.4                    -0.296247         155.067
6.42                   -0.303313          116.75
6.44                   -0.399919         86.4873
6.46                   -0.533013         63.6813
6.48                   -0.665915         46.4286
6.5                    -0.775942         33.0526
