! TOUCHSTONE file generated by CST MICROWAVE STUDIO
! Date and time: Sat Oct 29 05:35:53 2022
! Project name: L.cst
! Parameters = {Di=1.27; Epsilon_r=1.56; InnerDiameter=1.27; Length=2; Lf=10; Lg=60; OuterConductorThickness=0.2921; OuterDiameter=3.6; Wf=3; Wp=41.2; de=1.5; df=6.8; g=0.8; gx=1.71771; gy=4.64084; h=2.34; hf=1.524; px=10.4607; py=13.8748; w=9.7; wx=8.74302; wy=9.23392}
! Header version: 2018
! Port assignment regex: !\s*Touchstone port\s*([0-9]+)\s*=\s*(CST MWS port|CST DS port)\s*([0-9]+|Zmin|Zmax)\s*\(\"(.*)\"\)(\s*mode\s*([0-9]+))?.*
! Touchstone port assignment:
! Touchstone port 1 = CST MWS port 1 ("")
# GHz S DB R 50
4.5                    -0.488026         93.8681
4.52                   -0.507009         92.4134
4.54                    -0.52647         90.9528
4.56                   -0.546287         89.4857
4.58                   -0.566365         88.0115
4.6                    -0.586635         86.5293
4.62                   -0.607052         85.0385
4.64                   -0.627601         83.5381
4.66                   -0.648281         82.0274
4.68                   -0.669119         80.5057
4.7                    -0.690153         78.9723
4.72                   -0.711435         77.4266
4.74                   -0.733026         75.8682
4.76                   -0.754996         74.2967
4.78                   -0.777417         72.7117
4.8                     -0.80036         71.1131
4.82                     -0.8239         69.5007
4.84                   -0.848103         67.8745
4.86                   -0.873034         66.2344
4.88                    -0.89875         64.5807
4.9                    -0.925303         62.9134
4.92                   -0.952737         61.2326
4.94                   -0.981089         59.5385
4.96                    -1.01039         57.8314
4.98                    -1.04066         56.1114
5                       -1.07191         54.3788
5.02                    -1.10416         52.6338
5.04                    -1.13742         50.8766
5.06                    -1.17168         49.1073
5.08                    -1.20694         47.3261
5.1                      -1.2432         45.5333
5.12                    -1.28045         43.7288
5.14                     -1.3187          41.913
5.16                    -1.35792         40.0857
5.18                    -1.39813         38.2473
5.2                     -1.43931         36.3978
5.22                    -1.48147         34.5372
5.24                     -1.5246         32.6656
5.26                    -1.56872         30.7833
5.28                    -1.61383         28.8902
5.3                     -1.65994         26.9865
5.32                    -1.70707         25.0723
5.34                    -1.75523         23.1479
5.36                    -1.80445         21.2134
5.38                    -1.85475         19.2691
5.4                     -1.90616         17.3153
5.42                    -1.95869         15.3523
5.44                    -2.01237         13.3805
5.46                    -2.06724         11.4003
5.48                    -2.12332         9.41213
5.5                     -2.18064         7.41663
5.52                    -2.23921         5.41434
5.54                    -2.29905         3.40589
5.56                    -2.36018         1.39199
5.58                    -2.42261       -0.626642
5.6                     -2.48635        -2.64921
5.62                    -2.55138        -4.67489
5.64                     -2.6177        -6.70283
5.66                    -2.68528        -8.73212
5.68                     -2.7541        -10.7619
5.7                     -2.82412        -12.7911
5.72                    -2.89529         -14.819
5.74                    -2.96755        -16.8445
5.76                    -3.04082        -18.8668
5.78                    -3.11503        -20.8849
5.8                     -3.19008        -22.8982
5.82                    -3.26588        -24.9057
5.84                     -3.3423        -26.9069
5.86                    -3.41924        -28.9011
5.88                    -3.49658        -30.8877
5.9                     -3.57417        -32.8665
5.92                    -3.65191        -34.8372
5.94                    -3.72967        -36.7997
5.96                    -3.80732        -38.7539
5.98                    -3.88477        -40.7002
6                       -3.96192        -42.6388
6.02                    -4.03871        -44.5703
6.04                    -4.11508        -46.4953
6.06                    -4.19103        -48.4147
6.08                    -4.26658        -50.3293
6.1                     -4.34179          -52.24
6.12                    -4.41677         -54.148
6.14                    -4.49168        -56.0542
6.16                    -4.56674        -57.9597
6.18                    -4.64222        -59.8652
6.2                     -4.71845        -61.7716
6.22                    -4.79583        -63.6791
6.24                     -4.8748        -65.5881
6.26                    -4.95587        -67.4982
6.28                     -5.0396        -69.4086
6.3                      -5.1266         -71.318
6.32                    -5.21749        -73.2243
6.34                    -5.31293        -75.1248
6.36                     -5.4136        -77.0157
6.38                    -5.52015        -78.8925
6.4                      -5.6332        -80.7492
6.42                    -5.75331        -82.5791
6.44                    -5.88094         -84.374
6.46                    -6.01641        -86.1244
6.48                    -6.15984        -87.8196
6.5                      -6.3111        -89.4476
