! TOUCHSTONE file generated by CST MICROWAVE STUDIO
! Date and time: Sat Oct 29 04:16:40 2022
! Project name: L.cst
! Parameters = {Di=1.27; Epsilon_r=1.56; InnerDiameter=1.27; Length=2; Lf=10; Lg=60; OuterConductorThickness=0.2921; OuterDiameter=3.6; Wf=3; Wp=41.2; de=1.5; df=6.8; g=0.8; gx=2.14759; gy=4.09547; h=2.34; hf=1.524; px=10.3395; py=14.4123; w=9.7; wx=8.19187; wy=10.3168}
! Header version: 2018
! Port assignment regex: !\s*Touchstone port\s*([0-9]+)\s*=\s*(CST MWS port|CST DS port)\s*([0-9]+|Zmin|Zmax)\s*\(\"(.*)\"\)(\s*mode\s*([0-9]+))?.*
! Touchstone port assignment:
! Touchstone port 1 = CST MWS port 1 ("")
# GHz S DB R 50
4.5                    -0.494345         92.1604
4.52                   -0.494965         90.8318
4.54                   -0.491312         89.3244
4.56                   -0.509492         87.7371
4.58                    -0.54276         86.2478
4.6                    -0.565272         84.8616
4.62                   -0.569807         83.4267
4.64                   -0.575199         81.8622
4.66                   -0.597136         80.2588
4.68                   -0.627281         78.7323
4.7                    -0.647606         77.2627
4.72                   -0.656271          75.737
4.74                   -0.668294         74.1152
4.76                   -0.692979         72.4766
4.78                   -0.721845         70.8971
4.8                    -0.742178         69.3453
4.82                   -0.755046         67.7362
4.84                   -0.772469         66.0544
4.86                   -0.799717         64.3679
4.88                   -0.828679         62.7265
4.9                    -0.850291         61.0938
4.92                   -0.867273         59.4048
4.94                   -0.889393          57.659
4.96                   -0.919305         55.9157
4.98                   -0.949378         54.2068
5                       -0.97309         52.4936
5.02                   -0.994147         50.7257
5.04                    -1.02067         48.9124
5.06                    -1.05355          47.106
5.08                    -1.08557         45.3262
5.1                       -1.112         43.5335
5.12                    -1.13718          41.688
5.14                    -1.16798         39.8056
5.16                    -1.20399         37.9335
5.18                    -1.23831         36.0818
5.2                     -1.26762         34.2102
5.22                    -1.29682         32.2867
5.24                    -1.33187         30.3333
5.26                    -1.37124         28.3935
5.28                    -1.40819         26.4698
5.3                      -1.4405         24.5201
5.32                    -1.47369         22.5187
5.34                    -1.51307         20.4935
5.36                    -1.55606         18.4861
5.38                    -1.59583         16.4917
5.4                     -1.63114         14.4653
5.42                    -1.66833         12.3864
5.44                    -1.71222         10.2897
5.46                    -1.75906         8.21615
5.48                    -1.80172         6.15329
5.5                     -1.84004         4.05134
5.52                    -1.88142           1.895
5.54                    -1.93029       -0.272059
5.56                    -1.98144        -2.40823
5.58                    -2.02711        -4.53565
5.6                     -2.06842        -6.71157
5.62                    -2.11438        -8.94521
5.64                    -2.16903        -11.1801
5.66                    -2.22502        -13.3729
5.68                    -2.27359        -15.5596
5.7                     -2.31769        -17.8093
5.72                    -2.36874        -20.1228
5.74                    -2.43027        -22.4243
5.76                    -2.49167        -24.6679
5.78                     -2.5426        -26.9119
5.8                     -2.58902        -29.2442
5.82                    -2.64629        -31.6516
5.84                    -2.71697        -34.0275
5.86                    -2.78506        -36.3231
5.88                    -2.83792        -38.6358
5.9                     -2.88703        -41.0842
5.92                    -2.95454        -43.6291
5.94                    -3.04101        -46.1095
5.96                    -3.12079        -48.4765
5.98                    -3.17796        -50.9021
6                        -3.2355        -53.5596
6.02                    -3.32875        -56.3532
6.04                    -3.45387        -59.0154
6.06                    -3.56595        -61.5059
6.08                    -3.64513        -64.1638
6.1                     -3.74405        -67.2748
6.12                    -3.93189        -70.5941
6.14                    -4.19746        -73.5798
6.16                    -4.45207        -76.2151
6.18                     -4.6861        -79.3245
6.2                      -5.0982        -83.4264
6.22                    -5.97735        -87.1364
6.24                     -7.3598        -86.4024
6.26                    -8.33576        -76.7962
6.28                    -7.44202          -65.38
6.3                     -5.60308        -63.8978
6.32                    -4.25944        -70.2636
6.34                    -3.73113        -79.1304
6.36                    -3.83698        -86.9316
6.38                    -4.18009         -92.135
6.4                     -4.39635         -95.808
6.42                     -4.5035        -100.113
6.44                    -4.76399        -105.261
6.46                    -5.21781        -109.726
6.48                    -5.59267        -113.345
6.5                     -5.83028        -118.999
