! TOUCHSTONE file generated by CST MICROWAVE STUDIO
! Date and time: Thu Oct 27 22:28:12 2022
! Project name: L.cst
! Parameters = {Di=1.27; Epsilon_r=1.56; InnerDiameter=1.27; Length=2; Lf=10; Lg=60; OuterConductorThickness=0.2921; OuterDiameter=3.6; Wf=3; Wp=41.2; de=1.5; df=6.8; g=0.8; gx=2.59964; gy=1.74084; h=2.34; hf=1.524; px=11.0846; py=10.0691; w=9.7; wx=8.48491; wy=8.32827}
! Header version: 2018
! Port assignment regex: !\s*Touchstone port\s*([0-9]+)\s*=\s*(CST MWS port|CST DS port)\s*([0-9]+|Zmin|Zmax)\s*\(\"(.*)\"\)(\s*mode\s*([0-9]+))?.*
! Touchstone port assignment:
! Touchstone port 1 = CST MWS port 1 ("")
# GHz S DB R 50
4.5                    -0.741743         74.5022
4.52                   -0.783693         72.6343
4.54                   -0.826914         70.7514
4.56                   -0.871083         68.8512
4.58                   -0.915947         66.9311
4.6                    -0.961317         64.9885
4.62                    -1.00708         63.0207
4.64                    -1.05316         61.0249
4.66                    -1.09958         58.9982
4.68                    -1.14637          56.938
4.7                     -1.19363         54.8418
4.72                    -1.24148         52.7073
4.74                    -1.29006         50.5323
4.76                    -1.33956          48.315
4.78                    -1.39015         46.0536
4.8                     -1.44201         43.7466
4.82                    -1.49533         41.3929
4.84                    -1.55028         38.9913
4.86                    -1.60702         36.5411
4.88                     -1.6657         34.0416
4.9                     -1.72644         31.4923
4.92                    -1.78934         28.8928
4.94                    -1.85449          26.243
4.96                    -1.92192         23.5428
4.98                    -1.99166         20.7922
5                       -2.06369         17.9913
5.02                    -2.13797         15.1406
5.04                    -2.21445         12.2402
5.06                      -2.293         9.29058
5.08                    -2.37351         6.29234
5.1                     -2.45582          3.2461
5.12                    -2.53973        0.152581
5.14                    -2.62504        -2.98735
5.16                    -2.71151        -6.17272
5.18                    -2.79888        -9.40242
5.2                     -2.88686        -12.6752
5.22                    -2.97516        -15.9896
5.24                    -3.06345        -19.3442
5.26                    -3.15143        -22.7369
5.28                    -3.23874        -26.1661
5.3                     -3.32504        -29.6295
5.32                       -3.41        -33.1247
5.34                    -3.49328        -36.6492
5.36                    -3.57455        -40.2001
5.38                    -3.65347        -43.7745
5.4                     -3.72977         -47.369
5.42                    -3.80315        -50.9803
5.44                    -3.87337        -54.6048
5.46                     -3.9402        -58.2388
5.48                    -4.00344        -61.8783
5.5                     -4.06294        -65.5194
5.52                    -4.11859         -69.158
5.54                    -4.17029          -72.79
5.56                    -4.21802        -76.4112
5.58                    -4.26176        -80.0177
5.6                     -4.30155        -83.6053
5.62                    -4.33746        -87.1702
5.64                    -4.36959        -90.7086
5.66                    -4.39807        -94.2168
5.68                    -4.42305        -97.6915
5.7                     -4.44471        -101.129
5.72                    -4.46323        -104.527
5.74                    -4.47881        -107.883
5.76                    -4.49166        -111.194
5.78                    -4.50199        -114.457
5.8                     -4.51001        -117.671
5.82                     -4.5159        -120.835
5.84                    -4.51987        -123.946
5.86                    -4.52208        -127.004
5.88                     -4.5227        -130.008
5.9                     -4.52187        -132.957
5.92                    -4.51973        -135.851
5.94                    -4.51637         -138.69
5.96                    -4.51191        -141.474
5.98                    -4.50641        -144.204
6                       -4.49994         -146.88
6.02                    -4.49255        -149.503
6.04                    -4.48429        -152.075
6.06                     -4.4752        -154.597
6.08                    -4.46531         -157.07
6.1                     -4.45465        -159.496
6.12                    -4.44329        -161.877
6.14                    -4.43128        -164.216
6.16                    -4.41868        -166.514
6.18                     -4.4056        -168.774
6.2                     -4.39216        -170.997
6.22                    -4.37849        -173.188
6.24                    -4.36478        -175.347
6.26                    -4.35122        -177.476
6.28                    -4.33807        -179.579
6.3                     -4.32558         178.343
6.32                    -4.31407         176.288
6.34                    -4.30385         174.256
6.36                    -4.29529         172.245
6.38                    -4.28874         170.254
6.4                     -4.28459         168.283
6.42                     -4.2832         166.334
6.44                    -4.28493         164.406
6.46                    -4.29011         162.502
6.48                    -4.29903         160.623
6.5                      -4.3119         158.773
