! TOUCHSTONE file generated by CST MICROWAVE STUDIO
! Date and time: Wed Oct 26 20:29:46 2022
! Project name: L.cst
! Parameters = {Di=1.27; Epsilon_r=1.56; InnerDiameter=1.27; Length=2; Lf=10; Lg=60; OuterConductorThickness=0.2921; OuterDiameter=3.6; Wf=3; Wp=41.2; de=1.5; df=6.8; g=0.8; gx=3.36733; gy=4.1657; h=2.34; hf=1.524; px=13.7702; py=14.3202; w=9.7; wx=10.4029; wy=10.1545}
! Header version: 2018
! Port assignment regex: !\s*Touchstone port\s*([0-9]+)\s*=\s*(CST MWS port|CST DS port)\s*([0-9]+|Zmin|Zmax)\s*\(\"(.*)\"\)(\s*mode\s*([0-9]+))?.*
! Touchstone port assignment:
! Touchstone port 1 = CST MWS port 1 ("")
# GHz S DB R 50
4.5                    -0.672575         91.9587
4.52                   -0.695595         90.5468
4.54                    -0.70658         89.0439
4.56                   -0.721087         87.4215
4.58                   -0.750197         85.7443
4.6                    -0.791882         84.1012
4.62                   -0.834596         82.5265
4.64                   -0.868369         80.9776
4.66                   -0.893236         79.3808
4.68                   -0.917972         77.6984
4.7                    -0.951464         75.9564
4.72                   -0.995173         74.2134
4.74                    -1.04284         72.5067
4.76                    -1.08675         70.8224
4.78                    -1.12465         69.1122
4.8                     -1.16115          67.339
4.82                    -1.20311         65.5075
4.84                    -1.25353         63.6551
4.86                    -1.30945         61.8171
4.88                    -1.36507         59.9952
4.9                     -1.41712         58.1595
4.92                    -1.46757          56.276
4.94                     -1.5216          54.337
4.96                     -1.5829         52.3649
4.98                    -1.65071          50.391
5                       -1.72082         48.4268
5.02                    -1.78959         46.4556
5.04                    -1.85719         44.4479
5.06                    -1.92736         42.3885
5.08                    -2.00407         40.2884
5.1                     -2.08813         38.1742
5.12                    -2.17672         36.0642
5.14                    -2.26611          33.952
5.16                    -2.35512         31.8134
5.18                    -2.44619         29.6279
5.2                     -2.54333         27.3967
5.22                    -2.64864         25.1416
5.24                    -2.76064         22.8854
5.26                    -2.87577         20.6318
5.28                    -2.99167          18.362
5.3                      -3.1095         16.0523
5.32                    -3.23312         13.6946
5.34                    -3.36581          11.305
5.36                    -3.50752         8.90982
5.38                    -3.65504         6.52303
5.4                     -3.80491         4.13348
5.42                    -3.95681         1.71465
5.44                    -4.11417       -0.751331
5.46                     -4.2815        -3.25632
5.48                    -4.46056        -5.77117
5.5                     -4.64887        -8.26993
5.52                    -4.84185        -10.7527
5.54                    -5.03717        -13.2467
5.56                    -5.23737         -15.782
5.58                    -5.44828        -18.3632
5.6                     -5.67432        -20.9603
5.62                    -5.91463        -23.5317
5.64                    -6.16368        -26.0584
5.66                    -6.41623        -28.5628
5.68                    -6.67287        -31.0897
5.7                     -6.94079        -33.6635
5.72                    -7.22853        -36.2568
5.74                    -7.53866        -38.8025
5.76                    -7.86481        -41.2423
5.78                    -8.19637        -43.5756
5.8                     -8.52805        -45.8601
5.82                    -8.86593        -48.1554
5.84                    -9.22302        -50.4505
5.86                    -9.60656        -52.6461
5.88                    -10.0071          -54.62
5.9                     -10.4006        -56.3373
5.92                    -10.7651        -57.9126
5.94                     -11.101        -59.5413
5.96                    -11.4325        -61.3368
5.98                    -11.7863        -63.2235
6                       -12.1638        -65.0065
6.02                    -12.5332        -66.5853
6.04                    -12.8564        -68.1447
6.06                    -13.1353        -70.0989
6.08                    -13.4303        -72.7638
6.1                     -13.8264        -76.0583
6.12                    -14.3752        -79.5125
6.14                    -15.0554        -82.5896
6.16                    -15.7836        -85.1998
6.18                    -16.5101        -88.0759
6.2                     -17.3572        -92.4125
6.22                    -18.6839        -98.8747
6.24                    -21.1467        -106.792
6.26                     -26.351        -111.715
6.28                    -36.8282        -36.4761
6.3                     -24.3346         8.45055
6.32                    -18.9136        -1.79548
6.34                    -16.0351        -16.5718
6.36                    -14.4966        -32.4656
6.38                    -13.8836        -48.4357
6.4                     -13.9922        -63.8851
6.42                    -14.6805        -78.4404
6.44                    -15.8117        -92.1303
6.46                    -17.2527        -105.857
6.48                    -18.9254        -121.987
6.5                     -20.7726        -144.816
