! TOUCHSTONE file generated by CST MICROWAVE STUDIO
! Date and time: Fri Oct 28 16:57:45 2022
! Project name: L.cst
! Parameters = {Di=1.27; Epsilon_r=1.56; InnerDiameter=1.27; Length=2; Lf=10; Lg=60; OuterConductorThickness=0.2921; OuterDiameter=3.6; Wf=3; Wp=41.2; de=1.5; df=6.8; g=0.8; gx=3.81356; gy=4.34697; h=2.34; hf=1.524; px=9.68106; py=13.6304; w=9.7; wx=5.8675; wy=9.28339}
! Header version: 2018
! Port assignment regex: !\s*Touchstone port\s*([0-9]+)\s*=\s*(CST MWS port|CST DS port)\s*([0-9]+|Zmin|Zmax)\s*\(\"(.*)\"\)(\s*mode\s*([0-9]+))?.*
! Touchstone port assignment:
! Touchstone port 1 = CST MWS port 1 ("")
# GHz S DB R 50
4.5                    -0.309463         96.6799
4.52                    -0.31873         95.2858
4.54                    -0.32805         93.8839
4.56                   -0.337396         92.4736
4.58                   -0.346748         91.0547
4.6                    -0.356095         89.6267
4.62                   -0.365432         88.1892
4.64                   -0.374762          86.742
4.66                   -0.384091         85.2846
4.68                   -0.393434         83.8167
4.7                    -0.402804         82.3382
4.72                   -0.412218         80.8487
4.74                   -0.421696         79.3481
4.76                   -0.431258         77.8362
4.78                   -0.440923         76.3127
4.8                    -0.450711         74.7776
4.82                    -0.46064         73.2307
4.84                   -0.470727         71.6721
4.86                   -0.480988         70.1016
4.88                   -0.491434         68.5192
4.9                    -0.502079         66.9249
4.92                    -0.51293         65.3187
4.94                   -0.523994         63.7005
4.96                   -0.535277         62.0704
4.98                   -0.546781         60.4284
5                      -0.558506         58.7745
5.02                   -0.570451         57.1087
5.04                   -0.582614         55.4311
5.06                   -0.594989         53.7418
5.08                   -0.607572         52.0407
5.1                    -0.620355         50.3278
5.12                    -0.63333         48.6034
5.14                    -0.64649         46.8673
5.16                   -0.659823         45.1196
5.18                   -0.673323         43.3604
5.2                    -0.686977         41.5897
5.22                   -0.700777         39.8076
5.24                   -0.714712         38.0141
5.26                   -0.728774         36.2094
5.28                   -0.742953         34.3934
5.3                    -0.757241         32.5663
5.32                   -0.771628         30.7281
5.34                   -0.786109          28.879
5.36                   -0.800675          27.019
5.38                   -0.815321         25.1483
5.4                    -0.830042          23.267
5.42                   -0.844831         21.3752
5.44                   -0.859688         19.4731
5.46                   -0.874606         17.5608
5.48                   -0.889584         15.6386
5.5                    -0.904621         13.7066
5.52                   -0.919716         11.7651
5.54                   -0.934866         9.81425
5.56                   -0.950073         7.85433
5.58                   -0.965336         5.88559
5.6                    -0.980656         3.90834
5.62                   -0.996032         1.92286
5.64                    -1.01147      -0.0705361
5.66                    -1.02696        -2.07151
5.68                     -1.0425        -4.07973
5.7                     -1.05811        -6.09482
5.72                    -1.07376        -8.11643
5.74                    -1.08947        -10.1442
5.76                    -1.10522        -12.1776
5.78                    -1.12102        -14.2164
5.8                     -1.13684        -16.2601
5.82                     -1.1527        -18.3084
5.84                    -1.16857        -20.3608
5.86                    -1.18444        -22.4169
5.88                     -1.2003        -24.4764
5.9                     -1.21613        -26.5388
5.92                    -1.23192        -28.6039
5.94                    -1.24763        -30.6712
5.96                    -1.26325        -32.7406
5.98                    -1.27875        -34.8116
6                        -1.2941        -36.8842
6.02                    -1.30928        -38.9581
6.04                    -1.32426        -41.0333
6.06                    -1.33901        -43.1097
6.08                     -1.3535        -45.1873
6.1                      -1.3677        -47.2662
6.12                    -1.38159        -49.3467
6.14                    -1.39517         -51.429
6.16                    -1.40841        -53.5136
6.18                    -1.42131         -55.601
6.2                      -1.4339        -57.6917
6.22                    -1.44618        -59.7866
6.24                    -1.45821        -61.8866
6.26                    -1.47005        -63.9925
6.28                    -1.48178        -66.1056
6.3                     -1.49352        -68.2271
6.32                    -1.50542        -70.3583
6.34                    -1.51766        -72.5007
6.36                    -1.53046        -74.6557
6.38                     -1.5441         -76.825
6.4                      -1.5589        -79.0101
6.42                    -1.57523        -81.2127
6.44                    -1.59354        -83.4344
6.46                    -1.61433        -85.6766
6.48                    -1.63817         -87.941
6.5                     -1.66572        -90.2286
