! TOUCHSTONE file generated by CST MICROWAVE STUDIO
! Date and time: Fri Oct 28 17:13:30 2022
! Project name: L.cst
! Parameters = {Di=1.27; Epsilon_r=1.56; InnerDiameter=1.27; Length=2; Lf=10; Lg=60; OuterConductorThickness=0.2921; OuterDiameter=3.6; Wf=3; Wp=41.2; de=1.5; df=6.8; g=0.8; gx=4.48271; gy=3.53251; h=2.34; hf=1.524; px=8.23497; py=9.20951; w=9.7; wx=3.75226; wy=5.677}
! Header version: 2018
! Port assignment regex: !\s*Touchstone port\s*([0-9]+)\s*=\s*(CST MWS port|CST DS port)\s*([0-9]+|Zmin|Zmax)\s*\(\"(.*)\"\)(\s*mode\s*([0-9]+))?.*
! Touchstone port assignment:
! Touchstone port 1 = CST MWS port 1 ("")
# GHz S DB R 50
4.5                    -0.269081         96.0988
4.52                   -0.275604         94.6996
4.54                   -0.282255         93.2911
4.56                    -0.28904         91.8733
4.58                   -0.295959         90.4461
4.6                    -0.303014         89.0095
4.62                   -0.310203         87.5634
4.64                   -0.317526         86.1077
4.66                    -0.32498         84.6425
4.68                   -0.332561         83.1676
4.7                    -0.340267         81.6829
4.72                   -0.348094         80.1883
4.74                   -0.356037         78.6839
4.76                   -0.364095         77.1696
4.78                   -0.372265         75.6451
4.8                    -0.380542         74.1106
4.82                   -0.388925         72.5659
4.84                   -0.397413         71.0109
4.86                   -0.406004         69.4457
4.88                   -0.414696         67.8701
4.9                    -0.423487         66.2841
4.92                    -0.43238         64.6877
4.94                   -0.441372         63.0809
4.96                   -0.450464         61.4637
4.98                   -0.459656          59.836
5                      -0.468948         58.1979
5.02                   -0.478339         56.5493
5.04                   -0.487831         54.8904
5.06                   -0.497423         53.2212
5.08                   -0.507114         51.5417
5.1                    -0.516903          49.852
5.12                   -0.526791         48.1521
5.14                   -0.536776         46.4423
5.16                   -0.546855         44.7226
5.18                   -0.557026         42.9932
5.2                    -0.567288         41.2541
5.22                   -0.577637         39.5055
5.24                   -0.588069         37.7476
5.26                    -0.59858         35.9807
5.28                   -0.609165         34.2048
5.3                    -0.619821         32.4202
5.32                    -0.63054         30.6271
5.34                   -0.641318         28.8257
5.36                   -0.652147         27.0163
5.38                   -0.663022         25.1991
5.4                    -0.673933         23.3745
5.42                   -0.684875         21.5426
5.44                    -0.69584         19.7039
5.46                   -0.706819         17.8585
5.48                   -0.717803         16.0069
5.5                    -0.728785         14.1493
5.52                   -0.739756         12.2861
5.54                   -0.750706         10.4177
5.56                   -0.761627         8.54428
5.58                   -0.772509         6.66638
5.6                    -0.783344         4.78431
5.62                   -0.794122         2.89849
5.64                   -0.804834         1.00929
5.66                    -0.81547       -0.882874
5.68                   -0.826021        -2.77759
5.7                    -0.836478        -4.67445
5.72                   -0.846831        -6.57302
5.74                   -0.857072        -8.47288
5.76                    -0.86719        -10.3735
5.78                   -0.877177        -12.2747
5.8                    -0.887023        -14.1758
5.82                   -0.896718        -16.0764
5.84                   -0.906253        -17.9761
5.86                   -0.915618        -19.8745
5.88                   -0.924804        -21.7711
5.9                    -0.933801        -23.6655
5.92                   -0.942599        -25.5572
5.94                   -0.951187        -27.4458
5.96                   -0.959557        -29.3309
5.98                   -0.967697        -31.2121
6                      -0.975597         -33.089
6.02                   -0.983249        -34.9611
6.04                    -0.99064        -36.8281
6.06                   -0.997762        -38.6897
6.08                     -1.0046        -40.5455
6.1                     -1.01116         -42.395
6.12                    -1.01741        -44.2381
6.14                    -1.02336        -46.0744
6.16                    -1.02899        -47.9036
6.18                     -1.0343        -49.7254
6.2                     -1.03928        -51.5396
6.22                    -1.04393         -53.346
6.24                    -1.04824        -55.1444
6.26                    -1.05222        -56.9345
6.28                    -1.05585        -58.7161
6.3                     -1.05915        -60.4893
6.32                    -1.06213        -62.2537
6.34                    -1.06478        -64.0093
6.36                    -1.06711        -65.7559
6.38                    -1.06915        -67.4935
6.4                      -1.0709         -69.222
6.42                    -1.07239        -70.9412
6.44                    -1.07363        -72.6511
6.46                    -1.07465        -74.3515
6.48                    -1.07547        -76.0424
6.5                     -1.07613        -77.7237
