! TOUCHSTONE file generated by CST MICROWAVE STUDIO
! Date and time: Wed Oct 26 21:25:34 2022
! Project name: L.cst
! Parameters = {Di=1.27; Epsilon_r=1.56; InnerDiameter=1.27; Length=2; Lf=10; Lg=60; OuterConductorThickness=0.2921; OuterDiameter=3.6; Wf=3; Wp=41.2; de=1.5; df=6.8; g=0.8; gx=0.749226; gy=4.07446; h=2.34; hf=1.524; px=8.28703; py=10.6933; w=9.7; wx=7.53781; wy=6.61883}
! Header version: 2018
! Port assignment regex: !\s*Touchstone port\s*([0-9]+)\s*=\s*(CST MWS port|CST DS port)\s*([0-9]+|Zmin|Zmax)\s*\(\"(.*)\"\)(\s*mode\s*([0-9]+))?.*
! Touchstone port assignment:
! Touchstone port 1 = CST MWS port 1 ("")
# GHz S DB R 50
4.5                    -0.504233         92.3349
4.52                   -0.520723         90.8678
4.54                   -0.537887         89.3889
4.56                   -0.555735         87.8983
4.58                   -0.574277          86.396
4.6                    -0.593513         84.8821
4.62                   -0.613443         83.3565
4.64                   -0.634063         81.8192
4.66                    -0.65537         80.2702
4.68                   -0.677359         78.7093
4.7                    -0.700029         77.1365
4.72                   -0.723378         75.5515
4.74                   -0.747407         73.9542
4.76                   -0.772118         72.3445
4.78                   -0.797519         70.7222
4.8                    -0.823617         69.0871
4.82                   -0.850427         67.4389
4.84                   -0.877961         65.7776
4.86                   -0.906238          64.103
4.88                   -0.935279         62.4149
4.9                    -0.965105         60.7131
4.92                   -0.995742         58.9977
4.94                    -1.02722         57.2683
4.96                    -1.05955         55.5251
4.98                    -1.09279         53.7678
5                       -1.12694         51.9966
5.02                    -1.16205         50.2114
5.04                    -1.19814         48.4121
5.06                    -1.23524          46.599
5.08                    -1.27338          44.772
5.1                      -1.3126         42.9312
5.12                    -1.35291         41.0769
5.14                    -1.39434          39.209
5.16                    -1.43692          37.328
5.18                    -1.48068         35.4338
5.2                     -1.52562         33.5269
5.22                    -1.57178         31.6075
5.24                    -1.61916         29.6758
5.26                    -1.66779         27.7323
5.28                    -1.71767         25.7771
5.3                     -1.76883         23.8108
5.32                    -1.82126         21.8337
5.34                    -1.87497         19.8462
5.36                    -1.92997         17.8488
5.38                    -1.98626         15.8419
5.4                     -2.04384         13.8261
5.42                     -2.1027         11.8018
5.44                    -2.16285         9.76968
5.46                    -2.22427         7.73023
5.48                    -2.28696         5.68406
5.5                      -2.3509         3.63179
5.52                    -2.41608         1.57407
5.54                    -2.48248       -0.488444
5.56                     -2.5501        -2.55505
5.58                    -2.61889        -4.62503
5.6                     -2.68885        -6.69764
5.62                    -2.75995        -8.77211
5.64                    -2.83216        -10.8477
5.66                    -2.90544        -12.9235
5.68                    -2.97978        -14.9987
5.7                     -3.05512        -17.0725
5.72                    -3.13144         -19.144
5.74                    -3.20868        -21.2122
5.76                    -3.28681        -23.2763
5.78                    -3.36578        -25.3353
5.8                     -3.44553        -27.3883
5.82                    -3.52601        -29.4344
5.84                    -3.60716        -31.4725
5.86                    -3.68892        -33.5016
5.88                    -3.77122        -35.5208
5.9                     -3.85398        -37.5291
5.92                    -3.93713        -39.5256
5.94                    -4.02059        -41.5091
5.96                    -4.10428        -43.4788
5.98                     -4.1881        -45.4338
6                       -4.27195         -47.373
6.02                    -4.35574        -49.2956
6.04                    -4.43936        -51.2007
6.06                     -4.5227        -53.0875
6.08                    -4.60565        -54.9552
6.1                     -4.68809         -56.803
6.12                     -4.7699        -58.6302
6.14                    -4.85097        -60.4362
6.16                    -4.93116        -62.2204
6.18                    -5.01034        -63.9823
6.2                      -5.0884        -65.7214
6.22                    -5.16519        -67.4373
6.24                     -5.2406        -69.1296
6.26                     -5.3145        -70.7982
6.28                    -5.38677        -72.4428
6.3                     -5.45728        -74.0632
6.32                    -5.52591        -75.6595
6.34                    -5.59255        -77.2314
6.36                    -5.65709         -78.779
6.38                     -5.7194        -80.3024
6.4                     -5.77938        -81.8017
6.42                    -5.83691        -83.2768
6.44                    -5.89187        -84.7279
6.46                    -5.94415        -86.1552
6.48                    -5.99361        -87.5587
6.5                      -6.0401        -88.9388
