! TOUCHSTONE file generated by CST MICROWAVE STUDIO
! Date and time: Thu Oct 27 12:31:34 2022
! Project name: L.cst
! Parameters = {Di=1.27; Epsilon_r=1.56; InnerDiameter=1.27; Length=2; Lf=10; Lg=60; OuterConductorThickness=0.2921; OuterDiameter=3.6; Wf=3; Wp=41.2; de=1.5; df=6.8; g=0.8; gx=2.04275; gy=4.60339; h=2.34; hf=1.524; px=8.83238; py=12.0781; w=9.7; wx=6.78963; wy=7.47473}
! Header version: 2018
! Port assignment regex: !\s*Touchstone port\s*([0-9]+)\s*=\s*(CST MWS port|CST DS port)\s*([0-9]+|Zmin|Zmax)\s*\(\"(.*)\"\)(\s*mode\s*([0-9]+))?.*
! Touchstone port assignment:
! Touchstone port 1 = CST MWS port 1 ("")
# GHz S DB R 50
4.5                    -0.352318          95.851
4.52                   -0.361846         94.4472
4.54                   -0.371601         93.0338
4.56                   -0.381589         91.6109
4.58                   -0.391818         90.1783
4.6                    -0.402292         88.7361
4.62                   -0.413012         87.2842
4.64                   -0.423979         85.8225
4.66                   -0.435194         84.3509
4.68                   -0.446654         82.8694
4.7                    -0.458359         81.3779
4.72                   -0.470305         79.8764
4.74                   -0.482492         78.3648
4.76                   -0.494919         76.8429
4.78                   -0.507582         75.3107
4.8                    -0.520482         73.7681
4.82                   -0.533619          72.215
4.84                   -0.546991         70.6514
4.86                   -0.560601         69.0772
4.88                   -0.574449         67.4923
4.9                    -0.588538         65.8966
4.92                   -0.602868         64.2902
4.94                   -0.617444         62.6729
4.96                   -0.632267         61.0447
4.98                   -0.647341         59.4056
5                      -0.662669         57.7556
5.02                   -0.678254         56.0948
5.04                   -0.694101          54.423
5.06                   -0.710211         52.7404
5.08                   -0.726587         51.0469
5.1                    -0.743233         49.3427
5.12                   -0.760151         47.6278
5.14                   -0.777341         45.9023
5.16                   -0.794807         44.1663
5.18                   -0.812548         42.4199
5.2                    -0.830564         40.6632
5.22                   -0.848855         38.8964
5.24                    -0.86742         37.1197
5.26                   -0.886257         35.3331
5.28                   -0.905362         33.5369
5.3                    -0.924734         31.7313
5.32                   -0.944368         29.9164
5.34                   -0.964258         28.0926
5.36                     -0.9844           26.26
5.38                    -1.00479         24.4189
5.4                     -1.02541         22.5696
5.42                    -1.04627         20.7124
5.44                    -1.06735         18.8474
5.46                    -1.08865         16.9752
5.48                    -1.11015         15.0959
5.5                     -1.13184         13.2098
5.52                    -1.15372         11.3174
5.54                    -1.17578         9.41903
5.56                    -1.19799         7.51496
5.58                    -1.22036         5.60563
5.6                     -1.24287          3.6914
5.62                     -1.2655         1.77267
5.64                    -1.28825       -0.150143
5.66                     -1.3111        -2.07663
5.68                    -1.33403        -4.00638
5.7                     -1.35703        -5.93895
5.72                     -1.3801         -7.8739
5.74                     -1.4032         -9.8108
5.76                    -1.42634        -11.7491
5.78                    -1.44948        -13.6886
5.8                     -1.47262        -15.6286
5.82                    -1.49574        -17.5687
5.84                    -1.51883        -19.5085
5.86                    -1.54186        -21.4476
5.88                    -1.56481        -23.3853
5.9                     -1.58768        -25.3214
5.92                    -1.61044        -27.2553
5.94                    -1.63307        -29.1866
5.96                    -1.65556         -31.115
5.98                    -1.67789        -33.0398
6                       -1.70003        -34.9608
6.02                    -1.72196        -36.8775
6.04                    -1.74368        -38.7896
6.06                    -1.76515        -40.6967
6.08                    -1.78636        -42.5984
6.1                     -1.80729        -44.4944
6.12                    -1.82793        -46.3844
6.14                    -1.84825        -48.2681
6.16                    -1.86824        -50.1453
6.18                    -1.88788        -52.0157
6.2                     -1.90718        -53.8791
6.22                     -1.9261        -55.7353
6.24                    -1.94465        -57.5842
6.26                    -1.96282        -59.4256
6.28                    -1.98061        -61.2594
6.3                     -1.99803        -63.0856
6.32                    -2.01507        -64.9041
6.34                    -2.03174        -66.7148
6.36                    -2.04807        -68.5177
6.38                    -2.06408        -70.3128
6.4                     -2.07978           -72.1
6.42                     -2.0952        -73.8794
6.44                    -2.11039        -75.6509
6.46                    -2.12538        -77.4145
6.48                    -2.14021        -79.1702
6.5                     -2.15494        -80.9179
