! TOUCHSTONE file generated by CST MICROWAVE STUDIO
! Date and time: Thu Oct 27 20:35:31 2022
! Project name: L.cst
! Parameters = {Di=1.27; Epsilon_r=1.56; InnerDiameter=1.27; Length=2; Lf=10; Lg=60; OuterConductorThickness=0.2921; OuterDiameter=3.6; Wf=3; Wp=41.2; de=1.5; df=6.8; g=0.8; gx=1.25128; gy=2.86632; h=2.34; hf=1.524; px=13.2076; py=8.06898; w=9.7; wx=11.9563; wy=5.20266}
! Header version: 2018
! Port assignment regex: !\s*Touchstone port\s*([0-9]+)\s*=\s*(CST MWS port|CST DS port)\s*([0-9]+|Zmin|Zmax)\s*\(\"(.*)\"\)(\s*mode\s*([0-9]+))?.*
! Touchstone port assignment:
! Touchstone port 1 = CST MWS port 1 ("")
# GHz S DB R 50
4.5                     -3.82006         59.7862
4.52                    -4.10096         57.2645
4.54                    -4.43906          54.961
4.56                    -4.75766         52.5864
4.58                    -5.14538         50.1908
4.6                     -5.52555         47.9983
4.62                    -5.95483         45.6164
4.64                    -6.41332         43.5789
4.66                    -6.88805         41.3862
4.68                    -7.42888         39.4848
4.7                     -7.96645          37.667
4.72                    -8.58265         35.9764
4.74                    -9.20566         34.6846
4.76                    -9.88818         33.4245
4.78                    -10.6106         32.8002
4.8                     -11.3539         32.3371
4.82                    -12.1658         32.6047
4.84                    -12.9577         33.4138
4.86                    -13.8095         34.9641
4.88                    -14.5982         37.5561
4.9                      -15.372         40.8507
4.92                    -16.0204          45.472
4.94                    -16.5159          50.503
4.96                    -16.8243         56.4168
4.98                    -16.8762           61.98
5                       -16.7704         67.3346
5.02                    -16.4447         71.7191
5.04                    -16.0679         75.1029
5.06                    -15.5823         77.5786
5.08                    -15.1139         78.8787
5.1                     -14.6331         79.6026
5.12                    -14.1773         79.3161
5.14                    -13.7702         78.6325
5.16                    -13.3759         77.2376
5.18                    -13.0559         75.4225
5.2                     -12.7483         73.1932
5.22                    -12.5107         70.4404
5.24                    -12.3038          67.455
5.26                    -12.1456         63.8832
5.28                     -12.047         60.0712
5.3                     -11.9777         55.7055
5.32                    -11.9909         50.8984
5.34                    -12.0365         45.6156
5.36                    -12.1678         39.5773
5.38                    -12.3668         33.0124
5.4                     -12.6392          25.391
5.42                    -13.0315         16.8485
5.44                    -13.4939         6.97299
5.46                     -14.097        -4.67864
5.48                    -14.7813        -18.2004
5.5                      -15.507        -34.6225
5.52                    -16.2124        -53.8965
5.54                    -16.6309        -76.0153
5.56                    -16.6791        -100.065
5.58                    -16.3219        -123.382
5.6                     -15.6867        -144.953
5.62                    -15.1052        -164.056
5.64                    -14.6547         179.497
5.66                    -14.4733         164.677
5.68                    -14.6799         151.879
5.7                     -15.2592         140.599
5.72                    -16.5152         130.946
5.74                      -18.68         125.058
5.76                    -22.6078         127.754
5.78                    -26.8593         176.259
5.8                     -20.3023        -141.201
5.82                    -14.4753        -139.489
5.84                    -10.4558        -148.132
5.86                     -7.5353        -159.613
5.88                    -5.32321        -172.799
5.9                     -3.77542         173.485
5.92                     -2.6897         160.314
5.94                    -1.98977         147.626
5.96                    -1.59499         136.285
5.98                    -1.33315          125.86
6                       -1.26552         116.282
6.02                    -1.22079         107.873
6.04                    -1.26017         99.3198
6.06                     -1.4017         91.9684
6.08                     -1.4966          83.512
6.1                     -2.38708         75.6409
6.12                    -3.05293         77.4489
6.14                    -2.11304         75.5545
6.16                    -1.81396         66.5819
6.18                     -1.9639         60.3074
6.2                     -1.93989         53.6687
6.22                    -2.15108         46.9972
6.24                     -2.2434         40.8505
6.26                    -2.43223         33.5199
6.28                    -2.66771         26.6937
6.3                     -2.86985            18.5
6.32                     -3.2584         9.66399
6.34                     -3.6165       -0.370534
6.36                    -4.19209        -13.1134
6.38                    -4.95097        -28.2648
6.4                     -5.86095         -49.356
6.42                    -7.02312        -79.0036
6.44                    -7.53052        -119.261
6.46                    -6.43831        -165.274
6.48                    -4.58453         155.337
6.5                     -3.01471         125.658
