! TOUCHSTONE file generated by CST MICROWAVE STUDIO
! Date and time: Sat Oct 29 05:11:43 2022
! Project name: L.cst
! Parameters = {Di=1.27; Epsilon_r=1.56; InnerDiameter=1.27; Length=2; Lf=10; Lg=60; OuterConductorThickness=0.2921; OuterDiameter=3.6; Wf=3; Wp=41.2; de=1.5; df=6.8; g=0.8; gx=1.79792; gy=4.23725; h=2.34; hf=1.524; px=8.23923; py=12.0112; w=9.7; wx=6.44131; wy=7.77399}
! Header version: 2018
! Port assignment regex: !\s*Touchstone port\s*([0-9]+)\s*=\s*(CST MWS port|CST DS port)\s*([0-9]+|Zmin|Zmax)\s*\(\"(.*)\"\)(\s*mode\s*([0-9]+))?.*
! Touchstone port assignment:
! Touchstone port 1 = CST MWS port 1 ("")
# GHz S DB R 50
4.5                    -0.361364         94.0323
4.52                   -0.371186         92.6242
4.54                   -0.381244         91.2063
4.56                   -0.391547         89.7786
4.58                   -0.402103         88.3409
4.6                    -0.412916         86.8933
4.62                   -0.423989         85.4356
4.64                   -0.435324         83.9678
4.66                   -0.446919         82.4899
4.68                   -0.458777         81.0017
4.7                    -0.470894         79.5032
4.72                   -0.483271         77.9943
4.74                   -0.495904         76.4749
4.76                   -0.508794         74.9449
4.78                   -0.521938         73.4043
4.8                    -0.535337         71.8528
4.82                   -0.548991         70.2905
4.84                     -0.5629         68.7173
4.86                   -0.577064          67.133
4.88                   -0.591485         65.5376
4.9                    -0.606167         63.9311
4.92                   -0.621108         62.3133
4.94                   -0.636317         60.6842
4.96                   -0.651791         59.0438
4.98                   -0.667536          57.392
5                      -0.683557         55.7289
5.02                   -0.699855         54.0544
5.04                   -0.716434         52.3685
5.06                   -0.733298         50.6712
5.08                   -0.750449         48.9626
5.1                     -0.76789         47.2427
5.12                   -0.785624         45.5116
5.14                   -0.803651         43.7693
5.16                   -0.821975          42.016
5.18                   -0.840594         40.2518
5.2                    -0.859509         38.4767
5.22                   -0.878719         36.6909
5.24                   -0.898223         34.8945
5.26                   -0.918018         33.0878
5.28                   -0.938102         31.2708
5.3                    -0.958471         29.4439
5.32                    -0.97912          27.607
5.34                    -1.00004         25.7606
5.36                    -1.02124         23.9049
5.38                     -1.0427           22.04
5.4                     -1.06441         20.1663
5.42                    -1.08637          18.284
5.44                    -1.10856         16.3934
5.46                    -1.13099         14.4948
5.48                    -1.15364         12.5886
5.5                     -1.17649          10.675
5.52                    -1.19954         8.75442
5.54                    -1.22277         6.82719
5.56                    -1.24618         4.89368
5.58                    -1.26975         2.95427
5.6                     -1.29347         1.00934
5.62                    -1.31732         -0.9407
5.64                    -1.34129        -2.89545
5.66                    -1.36537         -4.8545
5.68                    -1.38953         -6.8174
5.7                     -1.41378        -8.78373
5.72                    -1.43808         -10.753
5.74                    -1.46243        -12.7249
5.76                    -1.48681        -14.6988
5.78                     -1.5112        -16.6743
5.8                     -1.53558         -18.651
5.82                    -1.55995        -20.6284
5.84                    -1.58427         -22.606
5.86                    -1.60854        -24.5834
5.88                    -1.63273          -26.56
5.9                     -1.65683        -28.5355
5.92                    -1.68082        -30.5094
5.94                    -1.70467        -32.4811
5.96                    -1.72838        -34.4504
5.98                    -1.75191        -36.4167
6                       -1.77525        -38.3796
6.02                    -1.79839        -40.3388
6.04                    -1.82129        -42.2937
6.06                    -1.84394        -44.2442
6.08                    -1.86632        -46.1897
6.1                     -1.88842        -48.1301
6.12                    -1.91021        -50.0648
6.14                    -1.93168        -51.9938
6.16                    -1.95281        -53.9167
6.18                    -1.97359        -55.8333
6.2                     -1.99401        -57.7434
6.22                    -2.01405        -59.6468
6.24                    -2.03371        -61.5434
6.26                    -2.05299         -63.433
6.28                    -2.07188        -65.3156
6.3                     -2.09039        -67.1912
6.32                    -2.10853        -69.0595
6.34                    -2.12631        -70.9207
6.36                    -2.14374        -72.7747
6.38                    -2.16084        -74.6215
6.4                     -2.17765        -76.4612
6.42                     -2.1942        -78.2938
6.44                    -2.21052        -80.1192
6.46                    -2.22666        -81.9376
6.48                    -2.24267        -83.7489
6.5                     -2.25859        -85.5531
