! TOUCHSTONE file generated by CST MICROWAVE STUDIO
! Date and time: Thu Oct 27 09:47:55 2022
! Project name: L.cst
! Parameters = {Di=1.27; Epsilon_r=1.56; InnerDiameter=1.27; Length=2; Lf=10; Lg=60; OuterConductorThickness=0.2921; OuterDiameter=3.6; Wf=3; Wp=41.2; de=1.5; df=6.8; g=0.8; gx=1.17266; gy=2.96294; h=2.34; hf=1.524; px=10.2327; py=13.2557; w=9.7; wx=9.06005; wy=10.2928}
! Header version: 2018
! Port assignment regex: !\s*Touchstone port\s*([0-9]+)\s*=\s*(CST MWS port|CST DS port)\s*([0-9]+|Zmin|Zmax)\s*\(\"(.*)\"\)(\s*mode\s*([0-9]+))?.*
! Touchstone port assignment:
! Touchstone port 1 = CST MWS port 1 ("")
# GHz S DB R 50
4.5                    -0.897362         80.5988
4.52                   -0.915261         78.9637
4.54                   -0.945941         77.2277
4.56                   -0.993801         75.4868
4.58                    -1.05014         73.8138
4.6                     -1.10184         72.2037
4.62                    -1.14248         70.5867
4.64                    -1.17675         68.8927
4.66                    -1.21532         67.1075
4.68                     -1.2655         65.2768
4.7                     -1.32595         63.4619
4.72                     -1.3888         61.6886
4.74                    -1.44672         59.9302
4.76                    -1.49889         58.1341
4.78                    -1.55106         56.2669
4.8                     -1.61031         54.3394
4.82                    -1.67928         52.3931
4.84                    -1.75452         50.4639
4.86                    -1.82991         48.5533
4.88                     -1.9019         46.6298
4.9                     -1.97231          44.657
4.92                    -2.04653         42.6236
4.94                    -2.12895         40.5507
4.96                    -2.21955         38.4726
4.98                    -2.31427         36.4077
5                       -2.40861         34.3447
5.02                    -2.50148         32.2533
5.04                      -2.596         30.1097
5.06                    -2.69683         27.9168
5.08                     -2.8064         25.7003
5.1                     -2.92304         23.4872
5.12                    -3.04255          21.284
5.14                     -3.1618         19.0717
5.16                     -3.2814         16.8225
5.18                    -3.40522         14.5234
5.2                      -3.5372         12.1871
5.22                    -3.67813         9.84228
5.24                    -3.82507         7.51005
5.26                    -3.97375         5.18694
5.28                     -4.1222         2.84781
5.3                      -4.2725        0.467541
5.32                    -4.42911        -1.95715
5.34                    -4.59521        -4.40341
5.36                    -4.76993        -6.83968
5.38                    -4.94886        -9.25108
5.4                     -5.12757         -11.652
5.42                    -5.30529        -14.0748
5.44                    -5.48575        -16.5418
5.46                    -5.67409        -19.0447
5.48                    -5.87241        -21.5485
5.5                     -6.07754        -24.0185
5.52                    -6.28304        -26.4495
5.54                    -6.48425        -28.8726
5.56                    -6.68228        -31.3314
5.58                    -6.88333        -33.8443
5.6                     -7.09346        -36.3855
5.62                    -7.31289        -38.9029
5.64                     -7.5347        -41.3605
5.66                    -7.74953        -43.7734
5.68                    -7.95321        -46.2028
5.7                     -8.15084         -48.709
5.72                    -8.35306        -51.2986
5.74                    -8.56691        -53.9133
5.76                    -8.78855        -56.4743
5.78                    -9.00436        -58.9531
5.8                     -9.20107        -61.4108
5.82                    -9.37771        -63.9642
5.84                     -9.5484        -66.6933
5.86                    -9.73174        -69.5694
5.88                    -9.93477        -72.4685
5.9                     -10.1442        -75.2731
5.92                    -10.3339         -77.991
5.94                    -10.4867         -80.791
5.96                    -10.6127         -83.895
5.98                    -10.7471        -87.3985
6                       -10.9236        -91.1785
6.02                     -11.147        -94.9742
6.04                    -11.3826        -98.6035
6.06                    -11.5786        -102.183
6.08                    -11.7134        -106.151
6.1                     -11.8298        -110.985
6.12                    -12.0164        -116.832
6.14                    -12.3521        -123.392
6.16                    -12.8519        -130.108
6.18                    -13.4406        -136.606
6.2                     -13.9835        -143.337
6.22                    -14.4114        -151.953
6.24                    -14.8381        -164.828
6.26                    -15.4839         175.553
6.28                    -16.3607          146.11
6.3                     -16.6591          104.36
6.32                    -15.0709         57.7607
6.34                    -12.3081         18.5374
6.36                    -9.73192        -12.9897
6.38                    -7.77395        -40.1845
6.4                     -6.46835        -64.9808
6.42                    -5.78072        -88.1418
6.44                     -5.6803        -109.749
6.46                    -6.13919        -129.354
6.48                    -7.09214        -145.923
6.5                     -8.32434        -157.885
