! TOUCHSTONE file generated by CST MICROWAVE STUDIO
! Date and time: Sat Oct 29 01:36:38 2022
! Project name: L.cst
! Parameters = {Di=1.27; Epsilon_r=1.56; InnerDiameter=1.27; Length=2; Lf=10; Lg=60; OuterConductorThickness=0.2921; OuterDiameter=3.6; Wf=3; Wp=41.2; de=1.5; df=6.8; g=0.8; gx=4.89844; gy=1.92684; h=2.34; hf=1.524; px=9.08678; py=13.582; w=9.7; wx=4.18834; wy=11.6552}
! Header version: 2018
! Port assignment regex: !\s*Touchstone port\s*([0-9]+)\s*=\s*(CST MWS port|CST DS port)\s*([0-9]+|Zmin|Zmax)\s*\(\"(.*)\"\)(\s*mode\s*([0-9]+))?.*
! Touchstone port assignment:
! Touchstone port 1 = CST MWS port 1 ("")
# GHz S DB R 50
4.5                    -0.357107         86.0582
4.52                   -0.376984         84.7297
4.54                   -0.361683         83.2419
4.56                    -0.37361         81.5593
4.58                   -0.404089         80.0579
4.6                    -0.403506         78.6041
4.62                   -0.400914         76.9312
4.64                    -0.42638          75.269
4.66                   -0.441798         73.7466
4.68                   -0.437616         72.1067
4.7                    -0.451258         70.3476
4.72                   -0.474739         68.6933
4.74                    -0.47864         67.0457
4.76                   -0.482927         65.2479
4.78                   -0.504989         63.4533
4.8                    -0.519515         61.7334
4.82                   -0.521957         59.9174
4.84                   -0.536999         58.0138
4.86                   -0.557975         56.1699
4.88                   -0.565484         54.3115
4.9                    -0.574035         52.3346
4.92                   -0.594968          50.349
4.94                   -0.610112         48.3992
4.96                   -0.616978         46.3617
4.98                   -0.633394         44.2463
5                      -0.653859         42.1593
5.02                   -0.664158         40.0414
5.04                   -0.675615         37.8148
5.06                   -0.696634         35.5643
5.08                   -0.712887         33.3219
5.1                    -0.722562         30.9879
5.12                   -0.739998         28.5693
5.14                   -0.760741         26.1512
5.16                   -0.773009         23.6834
5.18                   -0.786158         21.0983
5.2                    -0.807546         18.4648
5.22                   -0.825008         15.8099
5.24                   -0.836635         13.0449
5.26                   -0.855217           10.17
5.28                   -0.877386         7.25963
5.3                    -0.892218          4.2686
5.32                   -0.908001         1.12726
5.34                   -0.932622        -2.10663
5.36                   -0.955205        -5.40512
5.38                   -0.973132        -8.85658
5.4                    -0.999432        -12.4736
5.42                    -1.03274        -16.1838
5.44                     -1.0619        -20.0267
5.46                    -1.09453         -24.085
5.48                    -1.14111        -28.3114
5.5                     -1.19206        -32.6661
5.52                    -1.24272        -37.2412
5.54                    -1.30756        -42.0735
5.56                    -1.38904        -47.0844
5.58                    -1.47414        -52.2983
5.6                     -1.56821        -57.8274
5.62                    -1.68695        -63.6488
5.64                    -1.82335        -69.6964
5.66                    -1.96745        -76.0693
5.68                    -2.13573        -82.8656
5.7                     -2.34086        -90.0082
5.72                    -2.56917        -97.4764
5.74                     -2.8206        -105.427
5.76                     -3.1229        -113.897
5.78                    -3.48342        -122.744
5.8                     -3.88396        -131.975
5.82                    -4.33662        -141.744
5.84                    -4.87691        -151.944
5.86                    -5.49673        -162.274
5.88                    -6.15992        -172.708
5.9                     -6.88054         176.663
5.92                    -7.68753         166.231
5.94                    -8.51942         156.566
5.96                    -9.28138         147.614
5.98                    -9.98125         139.218
6                       -10.6041         132.081
6.02                    -10.9465          126.48
6.04                    -10.8917         121.022
6.06                    -10.5759         114.934
6.08                    -10.0019         108.597
6.1                     -9.07996         100.958
6.12                    -8.00728         90.6342
6.14                    -7.01212         78.1614
6.16                    -6.06606         64.1759
6.18                    -5.13846         47.7737
6.2                     -4.41406          28.017
6.22                    -4.08719         5.16482
6.24                    -4.17645          -20.44
6.26                    -4.61092        -49.6337
6.28                    -5.37842         -84.016
6.3                     -6.47374        -123.884
6.32                     -7.8028        -165.487
6.34                    -9.25102         160.836
6.36                    -9.63183         145.494
6.38                     -7.1096         134.503
6.4                     -4.19498         112.295
6.42                    -2.57362         86.4063
6.44                    -1.99406         63.8393
6.46                    -1.52573         44.9917
6.48                   -0.975771         22.7579
6.5                     -1.56737         -7.3237
