! TOUCHSTONE file generated by CST MICROWAVE STUDIO
! Date and time: Fri Oct 28 08:50:53 2022
! Project name: L.cst
! Parameters = {Di=1.27; Epsilon_r=1.56; InnerDiameter=1.27; Length=2; Lf=10; Lg=60; OuterConductorThickness=0.2921; OuterDiameter=3.6; Wf=3; Wp=41.2; de=1.5; df=6.8; g=0.8; gx=1.06815; gy=3.16597; h=2.34; hf=1.524; px=14.1506; py=9.29272; w=9.7; wx=13.0824; wy=6.12675}
! Header version: 2018
! Port assignment regex: !\s*Touchstone port\s*([0-9]+)\s*=\s*(CST MWS port|CST DS port)\s*([0-9]+|Zmin|Zmax)\s*\(\"(.*)\"\)(\s*mode\s*([0-9]+))?.*
! Touchstone port assignment:
! Touchstone port 1 = CST MWS port 1 ("")
# GHz S DB R 50
4.5                     -8.63009         86.4022
4.52                    -8.76243         88.8552
4.54                    -8.86479         91.1676
4.56                      -8.843         93.7054
4.58                    -8.73411          95.582
4.6                     -8.60021         97.3434
4.62                    -8.36975         98.6557
4.64                    -8.14595         99.3629
4.66                    -7.89469         99.9019
4.68                    -7.62266         99.8164
4.7                     -7.38464         99.4518
4.72                    -7.12695         98.8109
4.74                    -6.89759         97.7098
4.76                    -6.68976         96.4988
4.78                    -6.48198         94.9421
4.8                     -6.31595         93.1366
4.82                    -6.15762         91.2066
4.84                    -6.02098         88.9341
4.86                    -5.91971         86.5265
4.88                    -5.82616         83.8902
4.9                     -5.77038         80.9496
4.92                    -5.74142         77.8519
4.94                    -5.73473         74.3994
4.96                    -5.77684         70.6411
4.98                    -5.84897         66.5716
5                        -5.9705         61.9909
5.02                    -6.15712         56.9662
5.04                    -6.40148         51.3133
5.06                    -6.74248         44.8364
5.08                    -7.19337         37.4624
5.1                     -7.77467         28.7532
5.12                    -8.54442         18.3096
5.14                    -9.51644         5.53443
5.16                    -10.6943        -10.8181
5.18                    -11.9808        -32.1448
5.2                      -12.937        -59.3616
5.22                    -12.9389        -90.1048
5.24                    -11.9522        -117.918
5.26                    -10.5408        -138.879
5.28                    -9.04212        -153.252
5.3                     -7.32694        -163.066
5.32                    -5.26029        -172.963
5.34                    -3.43909         173.635
5.36                    -2.36425         159.383
5.38                    -1.83892         147.052
5.4                     -1.58078         136.893
5.42                    -1.44614         128.465
5.44                    -1.36023         121.266
5.46                    -1.30657         114.894
5.48                    -1.27361         109.199
5.5                     -1.24657         103.959
5.52                    -1.23656         99.0494
5.54                    -1.23444         94.4477
5.56                    -1.24182         89.9866
5.58                     -1.2801         85.6841
5.6                     -1.35469         81.6848
5.62                    -1.40161         78.4093
5.64                    -1.31891         74.6954
5.66                    -1.29548         70.2794
5.68                    -1.37756          65.535
5.7                     -1.77122         61.7795
5.72                    -1.49947         59.9673
5.74                     -1.4231         54.6173
5.76                    -1.46162          49.233
5.78                    -1.55153         43.3695
5.8                     -1.69197         36.8195
5.82                    -1.88272         28.9662
5.84                    -2.19583         18.9416
5.86                    -2.70296         5.31747
5.88                    -3.56401        -15.6035
5.9                     -5.01989        -52.1314
5.92                    -5.86059        -117.083
5.94                     -3.6523         173.562
5.96                    -1.73473         130.004
5.98                   -0.942259         104.183
6                      -0.645167         87.8649
6.02                   -0.498087         76.4042
6.04                   -0.459666         67.5621
6.06                   -0.450059         60.7462
6.08                   -0.411569         54.7311
6.1                    -0.453394         49.4199
6.12                    -0.43832         45.0587
6.14                   -0.414522         40.2552
6.16                   -0.516161         36.2705
6.18                   -0.397498         32.4475
6.2                    -0.521442         25.6093
6.22                    -4.01472          18.104
6.24                   -0.720494         27.6162
6.26                   -0.330211         22.9138
6.28                   -0.441456         17.8828
6.3                    -0.486583         15.5581
6.32                   -0.369755         11.9156
6.34                     -0.4843         8.63778
6.36                   -0.426011         6.23514
6.38                   -0.402764         2.62631
6.4                    -0.481231       0.0639923
6.42                   -0.386164         -2.7102
6.44                   -0.437387        -6.05737
6.46                   -0.446806        -8.28636
6.48                     -0.3713        -11.4756
6.5                    -0.460908        -14.3272
