! TOUCHSTONE file generated by CST MICROWAVE STUDIO
! Date and time: Fri Oct 28 05:29:29 2022
! Project name: L.cst
! Parameters = {Di=1.27; Epsilon_r=1.56; InnerDiameter=1.27; Length=2; Lf=10; Lg=60; OuterConductorThickness=0.2921; OuterDiameter=3.6; Wf=3; Wp=41.2; de=1.5; df=6.8; g=0.8; gx=4.02762; gy=0.789993; h=2.34; hf=1.524; px=9.5199; py=8.49903; w=9.7; wx=5.49228; wy=7.70904}
! Header version: 2018
! Port assignment regex: !\s*Touchstone port\s*([0-9]+)\s*=\s*(CST MWS port|CST DS port)\s*([0-9]+|Zmin|Zmax)\s*\(\"(.*)\"\)(\s*mode\s*([0-9]+))?.*
! Touchstone port assignment:
! Touchstone port 1 = CST MWS port 1 ("")
# GHz S DB R 50
4.5                    -0.412431          79.699
4.52                   -0.422316         78.0388
4.54                   -0.433368         76.3565
4.56                   -0.445549         74.6528
4.58                     -0.4588         72.9281
4.6                    -0.473042         71.1827
4.62                   -0.488182         69.4166
4.64                   -0.504122         67.6299
4.66                   -0.520762         65.8222
4.68                   -0.538004         63.9933
4.7                    -0.555753         62.1425
4.72                   -0.573923         60.2692
4.74                   -0.592438         58.3729
4.76                   -0.611232         56.4526
4.78                   -0.630249         54.5075
4.8                    -0.649448         52.5368
4.82                   -0.668795         50.5395
4.84                   -0.688271         48.5149
4.86                   -0.707863          46.462
4.88                   -0.727571           44.38
4.9                    -0.747399         42.2682
4.92                    -0.76736         40.1259
4.94                   -0.787467         37.9523
4.96                   -0.807742         35.7469
4.98                   -0.828205         33.5091
5                      -0.848876         31.2386
5.02                   -0.869777          28.935
5.04                   -0.890923          26.598
5.06                   -0.912329         24.2275
5.08                   -0.934005         21.8234
5.1                    -0.955954         19.3856
5.12                   -0.978175         16.9144
5.14                    -1.00066         14.4097
5.16                     -1.0234          11.872
5.18                    -1.04636         9.30151
5.2                     -1.06952         6.69872
5.22                    -1.09285         4.06411
5.24                     -1.1163         1.39832
5.26                    -1.13982        -1.29794
5.28                    -1.16337        -4.02402
5.3                     -1.18688        -6.77901
5.32                    -1.21029          -9.562
5.34                    -1.23353         -12.372
5.36                    -1.25654        -15.2079
5.38                    -1.27924        -18.0685
5.4                     -1.30157        -20.9527
5.42                    -1.32345         -23.859
5.44                    -1.34481        -26.7862
5.46                    -1.36558        -29.7328
5.48                     -1.3857        -32.6973
5.5                     -1.40511         -35.678
5.52                    -1.42376        -38.6734
5.54                    -1.44159        -41.6818
5.56                    -1.45855        -44.7013
5.58                    -1.47462        -47.7304
5.6                     -1.48977         -50.767
5.62                    -1.50397        -53.8094
5.64                    -1.51721        -56.8557
5.66                     -1.5295        -59.9041
5.68                    -1.54082        -62.9525
5.7                     -1.55121        -65.9992
5.72                    -1.56067        -69.0422
5.74                    -1.56923        -72.0797
5.76                    -1.57694        -75.1097
5.78                    -1.58383        -78.1305
5.8                     -1.58994        -81.1404
5.82                    -1.59533        -84.1375
5.84                    -1.60006        -87.1203
5.86                    -1.60418        -90.0869
5.88                    -1.60774        -93.0361
5.9                      -1.6108        -95.9661
5.92                    -1.61343        -98.8757
5.94                    -1.61568        -101.764
5.96                    -1.61759        -104.628
5.98                    -1.61923        -107.469
6                       -1.62063        -110.285
6.02                    -1.62183        -113.074
6.04                    -1.62287        -115.837
6.06                    -1.62377        -118.572
6.08                    -1.62457         -121.28
6.1                     -1.62529        -123.959
6.12                    -1.62593        -126.609
6.14                    -1.62652         -129.23
6.16                    -1.62706        -131.823
6.18                    -1.62756        -134.387
6.2                     -1.62804        -136.923
6.22                    -1.62851        -139.431
6.24                    -1.62899        -141.911
6.26                    -1.62952        -144.365
6.28                    -1.63013        -146.793
6.3                     -1.63088        -149.196
6.32                    -1.63184        -151.575
6.34                    -1.63309        -153.931
6.36                    -1.63476        -156.266
6.38                    -1.63696         -158.58
6.4                     -1.63987        -160.874
6.42                    -1.64367         -163.15
6.44                    -1.64856        -165.408
6.46                     -1.6548         -167.65
6.48                    -1.66263        -169.876
6.5                     -1.67235        -172.086
