! TOUCHSTONE file generated by CST MICROWAVE STUDIO
! Date and time: Sat Oct 29 04:03:52 2022
! Project name: L.cst
! Parameters = {Di=1.27; Epsilon_r=1.56; InnerDiameter=1.27; Length=2; Lf=10; Lg=60; OuterConductorThickness=0.2921; OuterDiameter=3.6; Wf=3; Wp=41.2; de=1.5; df=6.8; g=0.8; gx=4.681; gy=4.24637; h=2.34; hf=1.524; px=13.0823; py=13.9071; w=9.7; wx=8.40132; wy=9.6607}
! Header version: 2018
! Port assignment regex: !\s*Touchstone port\s*([0-9]+)\s*=\s*(CST MWS port|CST DS port)\s*([0-9]+|Zmin|Zmax)\s*\(\"(.*)\"\)(\s*mode\s*([0-9]+))?.*
! Touchstone port assignment:
! Touchstone port 1 = CST MWS port 1 ("")
# GHz S DB R 50
4.5                    -0.423918          95.867
4.52                   -0.438137         94.4628
4.54                   -0.450071         93.0434
4.56                   -0.460272         91.6032
4.58                   -0.469487         90.1386
4.6                    -0.478532          88.648
4.62                   -0.488171          87.132
4.64                   -0.499028         85.5926
4.66                   -0.511521         84.0328
4.68                   -0.525843         82.4562
4.7                    -0.541969         80.8664
4.72                   -0.559688          79.266
4.74                   -0.578659         77.6572
4.76                   -0.598469         76.0409
4.78                   -0.618702         74.4168
4.8                    -0.638988         72.7839
4.82                   -0.659055         71.1401
4.84                    -0.67875         69.4831
4.86                   -0.698052         67.8105
4.88                    -0.71706           66.12
4.9                    -0.735971         64.4098
4.92                   -0.755046         62.6785
4.94                   -0.774575         60.9257
4.96                   -0.794832         59.1515
4.98                   -0.816049         57.3565
5                      -0.838386         55.5419
5.02                   -0.861926          53.709
5.04                   -0.886661          51.859
5.06                   -0.912511         49.9932
5.08                   -0.939332         48.1124
5.1                    -0.966946         46.2168
5.12                   -0.995162         44.3066
5.14                    -1.02381          42.381
5.16                    -1.05275         40.4391
5.18                     -1.0819         38.4799
5.2                     -1.11125         36.5019
5.22                    -1.14085          34.504
5.24                     -1.1708          32.485
5.26                    -1.20127         30.4444
5.28                    -1.23243         28.3816
5.3                     -1.26446         26.2968
5.32                    -1.29754         24.1905
5.34                    -1.33177         22.0636
5.36                    -1.36725          19.917
5.38                    -1.40399         17.7521
5.4                     -1.44195         15.5698
5.42                    -1.48102         13.3713
5.44                    -1.52108         11.1572
5.46                    -1.56197         8.92776
5.48                    -1.60352         6.68305
5.5                     -1.64558         4.42263
5.52                    -1.68807         2.14577
5.54                    -1.73093       -0.148417
5.56                    -1.77418        -2.46091
5.58                     -1.8179        -4.79256
5.6                     -1.86224        -7.14401
5.62                    -1.90738        -9.51547
5.64                    -1.95354        -11.9067
5.66                    -2.00092         -14.317
5.68                    -2.04971        -16.7451
5.7                     -2.10003        -19.1893
5.72                    -2.15194        -21.6477
5.74                    -2.20539        -24.1181
5.76                    -2.26027        -26.5987
5.78                    -2.31634        -29.0877
5.8                     -2.37332        -31.5842
5.82                    -2.43088        -34.0877
5.84                    -2.48868        -36.5986
5.86                     -2.5464        -39.1182
5.88                    -2.60384        -41.6486
5.9                     -2.66089        -44.1923
5.92                    -2.71761        -46.7524
5.94                    -2.77421        -49.3317
5.96                    -2.83107        -51.9329
5.98                    -2.88872        -54.5578
6                       -2.94778         -57.207
6.02                     -3.0089        -59.8802
6.04                    -3.07272        -62.5755
6.06                    -3.13973        -65.2896
6.08                    -3.21023        -68.0186
6.1                     -3.28425        -70.7579
6.12                    -3.36153        -73.5033
6.14                    -3.44145        -76.2515
6.16                    -3.52311        -79.0015
6.18                    -3.60538        -81.7552
6.2                     -3.68708        -84.5184
6.22                    -3.76713        -87.3015
6.24                    -3.84485        -90.1198
6.26                    -3.92017        -92.9928
6.28                    -3.99399         -95.944
6.3                      -4.0683        -98.9984
6.32                    -4.14645        -102.182
6.34                    -4.23315        -105.517
6.36                    -4.33454        -109.023
6.38                    -4.45804        -112.713
6.4                     -4.61237        -116.591
6.42                    -4.80738        -120.652
6.44                    -5.05409         -124.88
6.46                    -5.36477        -129.244
6.48                    -5.75316        -133.697
6.5                     -6.23479        -138.173
