! TOUCHSTONE file generated by CST MICROWAVE STUDIO
! Date and time: Sat Oct 29 06:53:31 2022
! Project name: L.cst
! Parameters = {Di=1.27; Epsilon_r=1.56; InnerDiameter=1.27; Length=2; Lf=10; Lg=60; OuterConductorThickness=0.2921; OuterDiameter=3.6; Wf=3; Wp=41.2; de=1.5; df=6.8; g=0.8; gx=0.981041; gy=2.97025; h=2.34; hf=1.524; px=9.56577; py=14.6404; w=9.7; wx=8.58473; wy=11.6701}
! Header version: 2018
! Port assignment regex: !\s*Touchstone port\s*([0-9]+)\s*=\s*(CST MWS port|CST DS port)\s*([0-9]+|Zmin|Zmax)\s*\(\"(.*)\"\)(\s*mode\s*([0-9]+))?.*
! Touchstone port assignment:
! Touchstone port 1 = CST MWS port 1 ("")
# GHz S DB R 50
4.5                    -0.870678         79.4746
4.52                   -0.902284         77.6648
4.54                   -0.956921         76.2166
4.56                   -0.966272         74.5355
4.58                       -1.03         72.8457
4.6                      -1.0533         71.3163
4.62                    -1.09635         69.4875
4.64                    -1.14906         67.9245
4.66                    -1.17418         66.1508
4.68                    -1.23905         64.4078
4.7                     -1.27163         62.7412
4.72                    -1.32487         60.8614
4.74                    -1.38078         59.1818
4.76                    -1.41993         57.3126
4.78                    -1.48954         55.4914
4.8                     -1.53295         53.6978
4.82                    -1.59681         51.7445
4.84                    -1.65973         49.9467
4.86                    -1.71269         47.9766
4.88                    -1.79014         46.0613
4.9                     -1.84591         44.1436
4.92                    -1.92172         42.1012
4.94                    -1.99458         40.1831
4.96                    -2.06212         38.1053
4.98                    -2.15018         36.0859
5                       -2.21978         34.0434
5.02                    -2.30932         31.9001
5.04                    -2.39443         29.8594
5.06                    -2.47769         27.6658
5.08                    -2.57879         25.5353
5.1                     -2.66336         23.3639
5.12                    -2.76851          21.108
5.14                    -2.86756         18.9407
5.16                    -2.96762         16.6181
5.18                    -3.08398         14.3666
5.2                      -3.1844         12.0546
5.22                    -3.30721         9.66714
5.24                    -3.42187         7.36055
5.26                    -3.54025         4.88426
5.28                     -3.6747         2.49065
5.3                     -3.79259       0.0116546
5.32                    -3.93666        -2.54203
5.34                    -4.07009        -5.01717
5.36                    -4.21061        -7.69373
5.38                    -4.36893        -10.2708
5.4                     -4.50909        -12.9703
5.42                    -4.68289        -15.7553
5.44                    -4.84347        -18.4621
5.46                    -5.01749        -21.4344
5.48                    -5.21583        -24.2853
5.5                     -5.39583        -27.3288
5.52                    -5.62858         -30.491
5.54                    -5.85091        -33.5745
5.56                    -6.10924        -37.0514
5.58                    -6.42141        -40.3423
5.6                     -6.73537        -43.9272
5.62                    -7.17672        -47.6071
5.64                    -7.65465        -50.9891
5.66                    -8.28481         -54.716
5.68                    -9.12541        -57.2517
5.7                      -10.109        -58.9386
5.72                    -11.5393        -57.1653
5.74                    -12.7133        -47.5142
5.76                     -12.489        -29.3391
5.78                    -8.90987        -18.7388
5.8                     -5.58732        -32.3414
5.82                     -4.5902        -53.8202
5.84                    -5.30055         -71.135
5.86                    -6.39439        -81.5418
5.88                    -7.35291        -89.2907
5.9                     -8.25395        -95.4281
5.92                    -8.99586        -101.244
5.94                    -9.71146        -107.285
5.96                    -10.3382        -114.322
5.98                    -11.0791        -122.982
6                       -11.7223        -133.857
6.02                    -12.5239        -151.488
6.04                     -13.378        -176.407
6.06                    -12.5098         140.696
6.08                    -9.53142         79.5576
6.1                     -6.63294         21.7992
6.12                    -5.78095        -24.6137
6.14                    -6.79912        -55.2699
6.16                       -7.66        -71.2304
6.18                    -8.09303        -86.1989
6.2                     -9.04461        -97.0057
6.22                    -9.31927        -104.749
6.24                    -9.90666        -115.417
6.26                      -10.66        -120.463
6.28                    -10.7743        -127.506
6.3                     -11.6256        -133.253
6.32                    -11.3818        -134.111
6.34                    -10.9947        -143.082
6.36                    -10.9992        -148.236
6.38                    -10.0317        -158.161
6.4                      -10.358        -172.191
6.42                    -10.1754        -177.733
6.44                    -9.30796         164.825
6.46                    -10.4598         150.026
6.48                    -8.76394         139.862
6.5                     -7.26956         91.2719
