! TOUCHSTONE file generated by CST MICROWAVE STUDIO
! Date and time: Sat Oct 29 05:50:56 2022
! Project name: L.cst
! Parameters = {Di=1.27; Epsilon_r=1.56; InnerDiameter=1.27; Length=2; Lf=10; Lg=60; OuterConductorThickness=0.2921; OuterDiameter=3.6; Wf=3; Wp=41.2; de=1.5; df=6.8; g=0.8; gx=1.8268; gy=1.87585; h=2.34; hf=1.524; px=14.2093; py=12.8459; w=9.7; wx=12.3825; wy=10.97}
! Header version: 2018
! Port assignment regex: !\s*Touchstone port\s*([0-9]+)\s*=\s*(CST MWS port|CST DS port)\s*([0-9]+|Zmin|Zmax)\s*\(\"(.*)\"\)(\s*mode\s*([0-9]+))?.*
! Touchstone port assignment:
! Touchstone port 1 = CST MWS port 1 ("")
# GHz S DB R 50
4.5                     -8.05723         54.7865
4.52                    -8.68164         54.4288
4.54                    -9.29138         54.4663
4.56                    -9.94417         54.9031
4.58                     -10.567          55.953
4.6                     -11.1977         57.3888
4.62                    -11.7768         59.5614
4.64                    -12.3111         62.0572
4.66                     -12.765          65.215
4.68                    -13.1219         68.4905
4.7                      -13.381         72.1161
4.72                    -13.5197         75.5246
4.74                    -13.5775         78.8695
4.76                    -13.5321         81.7253
4.78                    -13.4506         84.2124
4.8                     -13.3053         86.1559
4.82                    -13.1666         87.5978
4.84                    -13.0057         88.5995
4.86                    -12.8773         89.0966
4.88                    -12.7612         89.2917
4.9                      -12.691         89.0457
4.92                    -12.6616         88.6121
4.94                    -12.6886         87.8304
4.96                    -12.7839          86.959
4.98                    -12.9495         85.8599
5                       -13.2183         84.7757
5.02                     -13.585         83.6732
5.04                    -14.1061         82.7839
5.06                    -14.7819         82.3506
5.08                    -15.6893         82.7686
5.1                     -16.8382         85.0134
5.12                    -18.2499         90.5064
5.14                    -19.6518         102.133
5.16                    -20.2032         120.895
5.18                    -18.9839         140.318
5.2                     -16.7047         151.717
5.22                    -14.3895         155.511
5.24                    -12.4532         154.499
5.26                    -10.9537         151.049
5.28                    -9.86528         146.426
5.3                     -9.13817         141.741
5.32                    -8.68203         137.658
5.34                    -8.40532         134.759
5.36                     -8.1581         133.238
5.38                    -7.81399         132.768
5.4                     -7.27805         132.535
5.42                    -6.58735         131.535
5.44                     -5.8386         129.343
5.46                    -5.13822         125.958
5.48                    -4.54148         121.809
5.5                     -4.05815         117.187
5.52                    -3.68465           112.4
5.54                    -3.39331         107.553
5.56                    -3.17705         102.709
5.58                    -3.01234          97.886
5.6                     -2.89839         93.0076
5.62                     -2.8272         88.0837
5.64                    -2.80008         82.9875
5.66                    -2.82834          77.726
5.68                    -2.90561         72.2373
5.7                     -3.03872         66.3158
5.72                    -3.26872          59.718
5.74                    -3.64129         52.3738
5.76                    -4.19622         43.7867
5.78                    -5.10568         33.0418
5.8                     -6.70499         18.7003
5.82                    -9.91519        -3.72001
5.84                    -17.2974        -60.9064
5.86                    -12.4811        -177.503
5.88                    -6.46623         143.355
5.9                      -3.9636         119.375
5.92                    -2.85878          102.57
5.94                    -2.36401         89.7284
5.96                    -2.16735         79.7523
5.98                    -2.07774         71.1829
6                       -2.11764         63.7096
6.02                    -2.15501         56.8131
6.04                    -2.30925         50.0183
6.06                    -2.45968         43.6658
6.08                    -2.74862         36.5526
6.1                     -3.14906         30.2449
6.12                     -3.7769         22.2531
6.14                    -5.16944         19.6723
6.16                    -4.95071          22.251
6.18                    -4.48221         13.1648
6.2                     -4.75816         3.95602
6.22                    -4.58168        -11.2784
6.24                    -5.67928        -38.4868
6.26                    -8.40197        -74.9072
6.28                    -10.8164        -132.075
6.3                     -9.26332         165.054
6.32                    -6.40485         126.826
6.34                    -4.26869         101.418
6.36                    -3.02333         81.8135
6.38                    -2.32642         64.7725
6.4                     -2.68151         50.5715
6.42                    -3.00236         46.8014
6.44                     -2.1598         40.4808
6.46                    -1.92794         31.5124
6.48                    -1.57823         23.7851
6.5                     -1.56432         14.4622
