! TOUCHSTONE file generated by CST MICROWAVE STUDIO
! Date and time: Fri Oct 28 04:54:22 2022
! Project name: L.cst
! Parameters = {Di=1.27; Epsilon_r=1.56; InnerDiameter=1.27; Length=2; Lf=10; Lg=60; OuterConductorThickness=0.2921; OuterDiameter=3.6; Wf=3; Wp=41.2; de=1.5; df=6.8; g=0.8; gx=3.00798; gy=2.83292; h=2.34; hf=1.524; px=11.8212; py=14.0632; w=9.7; wx=8.81323; wy=11.2303}
! Header version: 2018
! Port assignment regex: !\s*Touchstone port\s*([0-9]+)\s*=\s*(CST MWS port|CST DS port)\s*([0-9]+|Zmin|Zmax)\s*\(\"(.*)\"\)(\s*mode\s*([0-9]+))?.*
! Touchstone port assignment:
! Touchstone port 1 = CST MWS port 1 ("")
# GHz S DB R 50
4.5                    -0.653463         83.2925
4.52                   -0.655395         81.4049
4.54                   -0.718312         79.6567
4.56                   -0.750715         78.2293
4.58                   -0.741279         76.5381
4.6                    -0.772875         74.6041
4.62                   -0.830325         72.9252
4.64                   -0.845892         71.3339
4.66                   -0.853423         69.4413
4.68                   -0.902173         67.5108
4.7                    -0.947762         65.8042
4.72                   -0.959833         64.0075
4.74                   -0.987283         61.9813
4.76                    -1.04247          60.046
4.78                     -1.0779         58.2292
4.8                     -1.09676         56.2307
4.82                    -1.14126         54.1141
4.84                    -1.19601         52.1312
4.86                    -1.22708         50.1471
4.88                    -1.25884         47.9686
4.9                     -1.31533         45.7751
4.92                    -1.36705         43.6896
4.94                    -1.40047         41.5061
4.96                    -1.44735         39.1686
4.98                    -1.51101         36.8842
5                       -1.56064         34.6416
5.02                    -1.60229         32.2444
5.04                    -1.66366          29.758
5.06                    -1.73101         27.3474
5.08                    -1.78184         24.8984
5.1                     -1.83613         22.2807
5.12                    -1.90998         19.6388
5.14                     -1.9795         17.0529
5.16                    -2.03602         14.3537
5.18                    -2.10578         11.5063
5.2                     -2.19004         8.68253
5.22                    -2.26261         5.86261
5.24                    -2.32995         2.87396
5.26                    -2.41687       -0.221043
5.28                    -2.51031         -3.2728
5.3                     -2.58912        -6.39311
5.32                    -2.67299        -9.71116
5.34                    -2.77862        -13.0845
5.36                    -2.88171        -16.4272
5.38                    -2.97206         -19.919
5.4                     -3.07836        -23.6105
5.42                    -3.20426        -27.3099
5.44                    -3.31919        -31.0251
5.46                    -3.42789        -34.9701
5.48                    -3.56246        -39.0944
5.5                      -3.7104        -43.1973
5.52                    -3.84105        -47.4015
5.54                    -3.97686        -51.9159
5.56                    -4.14735        -56.5778
5.58                    -4.32258        -61.2216
5.6                     -4.47905        -66.0966
5.62                    -4.65887        -71.3625
5.64                    -4.88288        -76.7365
5.66                    -5.10333        -82.1329
5.68                    -5.31173        -87.9323
5.7                     -5.57152        -94.1917
5.72                    -5.88691        -100.491
5.74                    -6.18827        -106.877
5.76                    -6.48932        -113.892
5.78                    -6.87761        -121.436
5.8                     -7.32543        -128.928
5.82                    -7.72542        -136.685
5.84                    -8.12513        -145.591
5.86                    -8.64849        -155.389
5.88                     -9.2078        -165.371
5.9                     -9.62109        -176.581
5.92                     -9.9852         169.143
5.94                    -10.4682         151.848
5.96                    -10.8316          132.04
5.98                    -10.6092         107.413
6                       -9.74024         75.0522
6.02                    -8.53097         36.4585
6.04                    -7.36439        -3.82566
6.06                    -6.59676        -42.0406
6.08                    -6.39543        -76.1212
6.1                     -6.65062        -105.194
6.12                    -7.06506        -129.856
6.14                    -7.43091        -152.076
6.16                    -7.69636        -173.368
6.18                    -7.65634         165.034
6.2                     -7.10602         139.531
6.22                    -6.32144         106.294
6.24                    -5.69919         65.1696
6.26                    -5.35137         18.9735
6.28                    -5.28905        -28.1008
6.3                      -5.6329        -71.6255
6.32                     -6.4323        -107.577
6.34                    -7.20199        -133.426
6.36                    -7.08982        -152.991
6.38                    -6.35071         -174.03
6.4                     -5.86334         163.014
6.42                    -5.73511         141.822
6.44                     -5.4475         123.153
6.46                    -4.77283         103.438
6.48                    -4.11735          80.388
6.5                     -3.80964         54.9777
