! TOUCHSTONE file generated by CST MICROWAVE STUDIO
! Date and time: Thu Oct 27 22:49:33 2022
! Project name: L.cst
! Parameters = {Di=1.27; Epsilon_r=1.56; InnerDiameter=1.27; Length=2; Lf=10; Lg=60; OuterConductorThickness=0.2921; OuterDiameter=3.6; Wf=3; Wp=41.2; de=1.5; df=6.8; g=0.8; gx=4.12284; gy=3.8156; h=2.34; hf=1.524; px=9.54125; py=11.4508; w=9.7; wx=5.41841; wy=7.63518}
! Header version: 2018
! Port assignment regex: !\s*Touchstone port\s*([0-9]+)\s*=\s*(CST MWS port|CST DS port)\s*([0-9]+|Zmin|Zmax)\s*\(\"(.*)\"\)(\s*mode\s*([0-9]+))?.*
! Touchstone port assignment:
! Touchstone port 1 = CST MWS port 1 ("")
# GHz S DB R 50
4.5                    -0.308028         95.4234
4.52                   -0.315728         94.0195
4.54                     -0.3236         92.6049
4.56                   -0.331653         91.1797
4.58                   -0.339895         89.7437
4.6                    -0.348331         88.2968
4.62                   -0.356963         86.8391
4.64                   -0.365793         85.3703
4.66                    -0.37482         83.8904
4.68                    -0.38404         82.3993
4.7                    -0.393452         80.8969
4.72                   -0.403051         79.3831
4.74                   -0.412834         77.8577
4.76                   -0.422796         76.3207
4.78                   -0.432935         74.7719
4.8                    -0.443245         73.2112
4.82                   -0.453724         71.6384
4.84                   -0.464369         70.0534
4.86                   -0.475179         68.4561
4.88                    -0.48615         66.8464
4.9                    -0.497282         65.2242
4.92                   -0.508575         63.5893
4.94                   -0.520028         61.9418
4.96                   -0.531641         60.2813
4.98                   -0.543414          58.608
5                      -0.555349         56.9217
5.02                   -0.567446         55.2223
5.04                   -0.579706         53.5099
5.06                   -0.592129         51.7844
5.08                   -0.604718         50.0457
5.1                    -0.617471         48.2939
5.12                   -0.630388          46.529
5.14                    -0.64347         44.7511
5.16                   -0.656716         42.9601
5.18                   -0.670123         41.1561
5.2                     -0.68369         39.3393
5.22                   -0.697415         37.5096
5.24                   -0.711294         35.6673
5.26                   -0.725322         33.8124
5.28                   -0.739495         31.9452
5.3                    -0.753808         30.0656
5.32                   -0.768254          28.174
5.34                   -0.782825         26.2706
5.36                   -0.797515         24.3555
5.38                   -0.812315         22.4289
5.4                    -0.827215         20.4912
5.42                   -0.842207         18.5426
5.44                   -0.857279         16.5833
5.46                    -0.87242         14.6137
5.48                   -0.887619         12.6341
5.5                    -0.902865         10.6448
5.52                   -0.918145         8.64608
5.54                   -0.933447          6.6384
5.56                   -0.948757         4.62211
5.58                   -0.964063         2.59758
5.6                    -0.979351         0.56523
5.62                   -0.994608        -1.47453
5.64                    -1.00982        -3.52126
5.66                    -1.02497        -5.57453
5.68                    -1.04005        -7.63387
5.7                     -1.05505        -9.69881
5.72                    -1.06995        -11.7689
5.74                    -1.08473        -13.8436
5.76                    -1.09938        -15.9224
5.78                     -1.1139        -18.0048
5.8                     -1.12826        -20.0904
5.82                    -1.14245        -22.1786
5.84                    -1.15647        -24.2688
5.86                    -1.17028        -26.3606
5.88                    -1.18389        -28.4533
5.9                     -1.19728        -30.5466
5.92                    -1.21044        -32.6398
5.94                    -1.22334        -34.7325
5.96                    -1.23599         -36.824
5.98                    -1.24836         -38.914
6                       -1.26044        -41.0018
6.02                    -1.27221         -43.087
6.04                    -1.28367        -45.1692
6.06                    -1.29481        -47.2478
6.08                     -1.3056        -49.3225
6.1                     -1.31603        -51.3927
6.12                    -1.32609        -53.4582
6.14                    -1.33578        -55.5184
6.16                    -1.34507        -57.5732
6.18                    -1.35396         -59.622
6.2                     -1.36244        -61.6647
6.22                    -1.37049         -63.701
6.24                    -1.37813        -65.7307
6.26                    -1.38533        -67.7534
6.28                    -1.39211        -69.7691
6.3                     -1.39845        -71.7777
6.32                    -1.40437         -73.779
6.34                    -1.40988         -75.773
6.36                    -1.41498        -77.7595
6.38                     -1.4197        -79.7386
6.4                     -1.42405        -81.7103
6.42                    -1.42807        -83.6745
6.44                    -1.43178        -85.6314
6.46                    -1.43522        -87.5808
6.48                    -1.43843        -89.5229
6.5                     -1.44147        -91.4576
