! TOUCHSTONE file generated by CST MICROWAVE STUDIO
! Date and time: Sat Oct 29 17:21:17 2022
! Project name: L.cst
! Parameters = {Di=1.27; Epsilon_r=1.56; InnerDiameter=1.27; Length=2; Lf=10; Lg=60; OuterConductorThickness=0.2921; OuterDiameter=3.6; Wf=3; Wp=41.2; de=1.5; df=6.8; g=0.8; gx=0.402446; gy=1.01615; h=2.34; hf=1.524; px=8.41027; py=10.898; w=9.7; wx=8.00782; wy=9.88189}
! Header version: 2018
! Port assignment regex: !\s*Touchstone port\s*([0-9]+)\s*=\s*(CST MWS port|CST DS port)\s*([0-9]+|Zmin|Zmax)\s*\(\"(.*)\"\)(\s*mode\s*([0-9]+))?.*
! Touchstone port assignment:
! Touchstone port 1 = CST MWS port 1 ("")
# GHz S DB R 50
4.5                     -1.94927         62.0908
4.52                    -2.06059         60.1812
4.54                    -2.17556         58.2458
4.56                    -2.29483           56.28
4.58                    -2.41917         54.2802
4.6                     -2.54948         52.2443
4.62                    -2.68674         50.1713
4.64                    -2.83193         48.0615
4.66                    -2.98597         45.9163
4.68                    -3.14976         43.7383
4.7                     -3.32409         41.5304
4.72                    -3.50965         39.2962
4.74                    -3.70705         37.0399
4.76                     -3.9168         34.7655
4.78                    -4.13934         32.4771
4.8                     -4.37505         30.1787
4.82                    -4.62425         27.8742
4.84                    -4.88727         25.5673
4.86                    -5.16443         23.2613
4.88                    -5.45608         20.9596
4.9                     -5.76262         18.6656
4.92                     -6.0845         16.3825
4.94                    -6.42226         14.1142
4.96                    -6.77652         11.8646
4.98                    -7.14797         9.63857
5                       -7.53739         7.44191
5.02                    -7.94563          5.2815
5.04                    -8.37358         3.16572
5.06                    -8.82216         1.10474
5.08                    -9.29227       -0.889198
5.1                     -9.78474        -2.80144
5.12                    -10.3003        -4.61456
5.14                    -10.8393        -6.30802
5.16                     -11.402        -7.85784
5.18                     -11.988        -9.23631
5.2                     -12.5962        -10.4119
5.22                    -13.2247        -11.3492
5.24                      -13.87        -12.0098
5.26                    -14.5275        -12.3532
5.28                      -15.19        -12.3394
5.3                     -15.8484         -11.933
5.32                    -16.4904        -11.1086
5.34                    -17.1017        -9.85895
5.36                    -17.6656        -8.20351
5.38                    -18.1654        -6.19606
5.4                     -18.5857          -3.928
5.42                    -18.9156        -1.52383
5.44                    -19.1502        0.871865
5.46                    -19.2916         3.11337
5.48                    -19.3479         5.07262
5.5                     -19.3314         6.65202
5.52                     -19.256         7.78849
5.54                    -19.1351         8.45005
5.56                    -18.9804         8.62809
5.58                     -18.801         8.32883
5.6                     -18.6036         7.56584
5.62                    -18.3926         6.35471
5.64                    -18.1707         4.70983
5.66                    -17.9391         2.64284
5.68                    -17.6984        0.162373
5.7                      -17.448         -2.7253
5.72                    -17.1872         -6.0152
5.74                    -16.9149        -9.70226
5.76                      -16.63        -13.7798
5.78                    -16.3309        -18.2388
5.8                     -16.0162        -23.0658
5.82                    -15.6848        -28.2431
5.84                    -15.3353        -33.7478
5.86                     -14.967        -39.5523
5.88                    -14.5795        -45.6241
5.9                     -14.1729        -51.9278
5.92                     -13.748        -58.4254
5.94                    -13.3064        -65.0784
5.96                    -12.8502        -71.8489
5.98                    -12.3821        -78.7014
6                       -11.9053        -85.6035
6.02                    -11.4233        -92.5272
6.04                    -10.9399        -99.4487
6.06                    -10.4587        -106.349
6.08                     -9.9833        -113.212
6.1                       -9.517        -120.027
6.12                    -9.06286        -126.786
6.14                    -8.62358        -133.483
6.16                    -8.20153        -140.115
6.18                    -7.79869         -146.68
6.2                     -7.41671        -153.178
6.22                    -7.05691        -159.607
6.24                    -6.72029         -165.97
6.26                    -6.40758        -172.267
6.28                    -6.11925        -178.499
6.3                     -5.85552         175.332
6.32                    -5.61643         169.225
6.34                    -5.40179         163.176
6.36                    -5.21127         157.183
6.38                    -5.04438         151.243
6.4                     -4.90051         145.352
6.42                    -4.77897         139.505
6.44                    -4.67903         133.696
6.46                    -4.59991         127.917
6.48                    -4.54091         122.159
6.5                      -4.5014         116.411
