! TOUCHSTONE file generated by CST MICROWAVE STUDIO
! Date and time: Thu Oct 27 05:50:58 2022
! Project name: L.cst
! Parameters = {Di=1.27; Epsilon_r=1.56; InnerDiameter=1.27; Length=2; Lf=10; Lg=60; OuterConductorThickness=0.2921; OuterDiameter=3.6; Wf=3; Wp=41.2; de=1.5; df=6.8; g=0.8; gx=0.954239; gy=2.52125; h=2.34; hf=1.524; px=8.4936; py=10.104; w=9.7; wx=7.53936; wy=7.58272}
! Header version: 2018
! Port assignment regex: !\s*Touchstone port\s*([0-9]+)\s*=\s*(CST MWS port|CST DS port)\s*([0-9]+|Zmin|Zmax)\s*\(\"(.*)\"\)(\s*mode\s*([0-9]+))?.*
! Touchstone port assignment:
! Touchstone port 1 = CST MWS port 1 ("")
# GHz S DB R 50
4.5                    -0.631278         82.0607
4.52                   -0.654306            80.5
4.54                   -0.678519         78.9236
4.56                   -0.703894         77.3315
4.58                   -0.730397         75.7236
4.6                    -0.757997            74.1
4.62                   -0.786662         72.4603
4.64                   -0.816362         70.8043
4.66                   -0.847074         69.1316
4.68                   -0.878779         67.4417
4.7                    -0.911466         65.7343
4.72                   -0.945132         64.0088
4.74                    -0.97978         62.2646
4.76                    -1.01542         60.5014
4.78                    -1.05208         58.7183
4.8                     -1.08977         56.9151
4.82                    -1.12855         55.0911
4.84                    -1.16843          53.246
4.86                    -1.20946         51.3791
4.88                     -1.2517         49.4901
4.9                      -1.2952         47.5786
4.92                    -1.33999         45.6443
4.94                    -1.38614         43.6868
4.96                     -1.4337          41.706
4.98                    -1.48272         39.7016
5                       -1.53325         37.6734
5.02                    -1.58534         35.6214
5.04                    -1.63903         33.5454
5.06                    -1.69436         31.4455
5.08                    -1.75136         29.3217
5.1                     -1.81007          27.174
5.12                    -1.87051         25.0025
5.14                     -1.9327         22.8075
5.16                    -1.99666          20.589
5.18                    -2.06239         18.3474
5.2                     -2.12988         16.0828
5.22                    -2.19915         13.7956
5.24                    -2.27017         11.4861
5.26                    -2.34292         9.15479
5.28                    -2.41739         6.80192
5.3                     -2.49353         4.42802
5.32                    -2.57131         2.03357
5.34                    -2.65069       -0.380878
5.36                    -2.73161        -2.81476
5.38                    -2.81402        -5.26745
5.4                     -2.89786        -7.73828
5.42                    -2.98305        -10.2266
5.44                    -3.06954        -12.7315
5.46                    -3.15723        -15.2524
5.48                    -3.24605        -17.7882
5.5                      -3.3359        -20.3382
5.52                    -3.42671        -22.9014
5.54                    -3.51838        -25.4766
5.56                     -3.6108         -28.063
5.58                    -3.70389        -30.6593
5.6                     -3.79753        -33.2644
5.62                    -3.89162         -35.877
5.64                    -3.98606        -38.4958
5.66                    -4.08074        -41.1195
5.68                    -4.17555        -43.7467
5.7                     -4.27038        -46.3759
5.72                    -4.36512        -49.0057
5.74                    -4.45966        -51.6344
5.76                    -4.55389        -54.2605
5.78                    -4.64771        -56.8825
5.8                       -4.741        -59.4987
5.82                    -4.83366        -62.1073
5.84                    -4.92557        -64.7068
5.86                    -5.01664        -67.2953
5.88                    -5.10676        -69.8714
5.9                     -5.19582        -72.4333
5.92                    -5.28373        -74.9793
5.94                    -5.37038        -77.5078
5.96                    -5.45567        -80.0173
5.98                    -5.53951        -82.5062
6                       -5.62181         -84.973
6.02                    -5.70246        -87.4164
6.04                    -5.78138        -89.8351
6.06                    -5.85849        -92.2278
6.08                    -5.93369        -94.5934
6.1                     -6.00693        -96.9309
6.12                    -6.07811        -99.2393
6.14                    -6.14718        -101.518
6.16                    -6.21409        -103.766
6.18                    -6.27878        -105.983
6.2                     -6.34121        -108.168
6.22                    -6.40136        -110.322
6.24                    -6.45921        -112.443
6.26                    -6.51475        -114.531
6.28                    -6.56801        -116.587
6.3                     -6.61899         -118.61
6.32                    -6.66773          -120.6
6.34                    -6.71428        -122.557
6.36                    -6.75869         -124.48
6.38                    -6.80102         -126.37
6.4                     -6.84132        -128.226
6.42                    -6.87967        -130.048
6.44                    -6.91609        -131.835
6.46                    -6.95063        -133.586
6.48                    -6.98328          -135.3
6.5                     -7.01401        -136.976
