! TOUCHSTONE file generated by CST MICROWAVE STUDIO
! Date and time: Wed Oct 26 16:47:56 2022
! Project name: L.cst
! Parameters = {Di=1.27; Epsilon_r=1.56; InnerDiameter=1.27; Length=2; Lf=10; Lg=60; OuterConductorThickness=0.2921; OuterDiameter=3.6; Wf=3; Wp=41.2; de=1.5; df=6.8; g=0.8; gx=2.71189; gy=0.930275; h=2.34; hf=1.524; px=11.7915; py=12.5598; w=9.7; wx=9.07957; wy=11.6295}
! Header version: 2018
! Port assignment regex: !\s*Touchstone port\s*([0-9]+)\s*=\s*(CST MWS port|CST DS port)\s*([0-9]+|Zmin|Zmax)\s*\(\"(.*)\"\)(\s*mode\s*([0-9]+))?.*
! Touchstone port assignment:
! Touchstone port 1 = CST MWS port 1 ("")
# GHz S DB R 50
4.5                     -1.39626         55.3886
4.52                    -1.48414         52.7872
4.54                    -1.55671         50.1783
4.56                    -1.62103          47.367
4.58                    -1.70457         44.3761
4.6                     -1.80552         41.3688
4.62                    -1.89989         38.3387
4.64                    -1.98603          35.128
4.66                    -2.08549         31.7054
4.68                    -2.20361         28.1923
4.7                      -2.3225         24.6223
4.72                    -2.43474         20.8757
4.74                    -2.55575         16.8847
4.76                    -2.69542          12.728
4.78                    -2.84198         8.46365
4.8                     -2.98434         4.01123
4.82                    -3.13146        -0.71873
4.84                    -3.29555        -5.68985
4.86                    -3.47084        -10.8305
4.88                    -3.64429         -16.177
4.9                     -3.81776         -21.822
4.92                    -4.00309        -27.7664
4.94                    -4.20001        -33.9317
4.96                    -4.39516        -40.3005
4.98                    -4.58266        -46.9404
5                       -4.77058         -53.875
5.02                    -4.96299        -61.0242
5.04                    -5.14876        -68.3094
5.06                     -5.3156        -75.7441
5.08                    -5.46573        -83.3573
5.1                     -5.60719        -91.0846
5.12                    -5.73625        -98.8102
5.14                    -5.84088        -106.491
5.16                    -5.91987         -114.16
5.18                     -5.9858        -121.798
5.2                     -6.04705        -129.303
5.22                    -6.09902        -136.598
5.24                    -6.13909        -143.701
5.26                    -6.17983        -150.638
5.28                    -6.23695        -157.337
5.3                     -6.31102        -163.683
5.32                    -6.39297        -169.648
5.34                    -6.48378        -175.267
5.36                    -6.59336         179.495
5.38                    -6.71834         174.757
5.4                     -6.83683         170.562
5.42                    -6.93235         166.814
5.44                    -7.00705         163.429
5.46                    -7.05999         160.432
5.48                    -7.07122         157.809
5.5                     -7.02609         155.381
5.52                    -6.93796         152.972
5.54                    -6.82499         150.578
5.56                    -6.68254         148.232
5.58                    -6.50275         145.813
5.6                       -6.304         143.181
5.62                    -6.11238         140.378
5.64                    -5.92789         137.524
5.66                    -5.73801         134.583
5.68                     -5.5548         131.434
5.7                     -5.40688         128.132
5.72                    -5.29872         124.877
5.74                    -5.21043         121.755
5.76                    -5.13847         118.716
5.78                    -5.09612         115.885
5.8                     -5.05527         113.579
5.82                    -4.92888         111.811
5.84                     -4.6559         110.004
5.86                    -4.27196         107.521
5.88                    -3.84945         104.202
5.9                     -3.42302          100.13
5.92                    -3.01298         95.2725
5.94                    -2.66324         89.6464
5.96                    -2.40481         83.5541
5.98                    -2.20901         77.2973
6                       -2.02724         70.7407
6.02                    -1.87531         63.4982
6.04                    -1.82045         55.5731
6.06                    -1.87485         47.3865
6.08                     -1.9681         38.9958
6.1                     -2.08369         29.6763
6.12                    -2.37792         18.9068
6.14                    -3.05761         7.67785
6.16                    -4.09008        -1.49478
6.18                    -4.91923        -6.94737
6.2                     -4.87686        -12.6646
6.22                     -4.3265        -24.8828
6.24                     -4.0694        -44.0413
6.26                    -4.39924        -67.4791
6.28                    -5.13634        -93.0126
6.3                     -5.79747        -120.145
6.32                    -5.89798        -150.424
6.34                    -5.36931          174.58
6.36                     -4.5541         135.527
6.38                    -3.87812         94.2679
6.4                     -3.63503         52.2341
6.42                    -3.93641         10.4091
6.44                      -4.731        -29.8752
6.46                    -5.79832        -66.2009
6.48                    -6.64783        -95.7182
6.5                       -6.605        -119.051
