! TOUCHSTONE file generated by CST MICROWAVE STUDIO
! Date and time: Sat Oct 29 05:07:56 2022
! Project name: L.cst
! Parameters = {Di=1.27; Epsilon_r=1.56; InnerDiameter=1.27; Length=2; Lf=10; Lg=60; OuterConductorThickness=0.2921; OuterDiameter=3.6; Wf=3; Wp=41.2; de=1.5; df=6.8; g=0.8; gx=3.99075; gy=4.26166; h=2.34; hf=1.524; px=9.45272; py=9.96926; w=9.7; wx=5.46196; wy=5.7076}
! Header version: 2018
! Port assignment regex: !\s*Touchstone port\s*([0-9]+)\s*=\s*(CST MWS port|CST DS port)\s*([0-9]+|Zmin|Zmax)\s*\(\"(.*)\"\)(\s*mode\s*([0-9]+))?.*
! Touchstone port assignment:
! Touchstone port 1 = CST MWS port 1 ("")
# GHz S DB R 50
4.5                      -0.2936         97.1908
4.52                   -0.300974         95.7888
4.54                   -0.308512         94.3772
4.56                   -0.316219         92.9558
4.58                   -0.324099         91.5247
4.6                    -0.332151         90.0837
4.62                   -0.340377         88.6329
4.64                   -0.348774         87.1722
4.66                    -0.35734         85.7015
4.68                   -0.366071         84.2207
4.7                    -0.374964         82.7297
4.72                   -0.384014         81.2285
4.74                   -0.393217          79.717
4.76                   -0.402571         78.1951
4.78                   -0.412071         76.6627
4.8                    -0.421714         75.1197
4.82                   -0.431498         73.5661
4.84                   -0.441422         72.0017
4.86                   -0.451483         70.4265
4.88                   -0.461681         68.8405
4.9                    -0.472016         67.2436
4.92                   -0.482487         65.6357
4.94                   -0.493094         64.0168
4.96                   -0.503839         62.3869
4.98                   -0.514723         60.7459
5                      -0.525744         59.0939
5.02                   -0.536905         57.4309
5.04                   -0.548207         55.7569
5.06                   -0.559649         54.0719
5.08                   -0.571233         52.3759
5.1                    -0.582959         50.6692
5.12                   -0.594825         48.9516
5.14                   -0.606831         47.2234
5.16                   -0.618976         45.4846
5.18                   -0.631258         43.7354
5.2                    -0.643675         41.9759
5.22                   -0.656224         40.2063
5.24                   -0.668901         38.4267
5.26                   -0.681701         36.6373
5.28                    -0.69462         34.8383
5.3                    -0.707653           33.03
5.32                   -0.720793         31.2125
5.34                   -0.734034         29.3861
5.36                   -0.747369         27.5511
5.38                   -0.760788         25.7077
5.4                    -0.774285         23.8562
5.42                   -0.787852          21.997
5.44                   -0.801477         20.1302
5.46                   -0.815153         18.2563
5.48                   -0.828868         16.3756
5.5                    -0.842613         14.4884
5.52                   -0.856377         12.5951
5.54                   -0.870149         10.6961
5.56                    -0.88392          8.7917
5.58                   -0.897675         6.88236
5.6                    -0.911405         4.96848
5.62                     -0.9251         3.05045
5.64                   -0.938746         1.12872
5.66                   -0.952332       -0.796288
5.68                   -0.965847        -2.72413
5.7                    -0.979278        -4.65436
5.72                   -0.992615        -6.58651
5.74                    -1.00584        -8.52013
5.76                    -1.01895        -10.4547
5.78                    -1.03194        -12.3898
5.8                     -1.04477         -14.325
5.82                    -1.05746        -16.2598
5.84                    -1.06997        -18.1937
5.86                    -1.08231        -20.1261
5.88                    -1.09445        -22.0567
5.9                      -1.1064         -23.985
5.92                    -1.11812        -25.9105
5.94                    -1.12962        -27.8327
5.96                    -1.14087        -29.7511
5.98                    -1.15187        -31.6654
6                        -1.1626        -33.5751
6.02                    -1.17304        -35.4797
6.04                     -1.1832        -37.3789
6.06                    -1.19304        -39.2722
6.08                    -1.20257        -41.1593
6.1                     -1.21176        -43.0398
6.12                    -1.22061        -44.9133
6.14                    -1.22911        -46.7795
6.16                    -1.23724        -48.6382
6.18                    -1.24499        -50.4889
6.2                     -1.25236        -52.3316
6.22                    -1.25934        -54.1658
6.24                    -1.26592        -55.9915
6.26                     -1.2721        -57.8084
6.28                    -1.27789        -59.6164
6.3                     -1.28328        -61.4152
6.32                    -1.28827        -63.2048
6.34                    -1.29288        -64.9851
6.36                    -1.29712        -66.7559
6.38                      -1.301        -68.5172
6.4                     -1.30453        -70.2689
6.42                    -1.30775        -72.0108
6.44                    -1.31067         -73.743
6.46                    -1.31333        -75.4654
6.48                    -1.31575        -77.1777
6.5                     -1.31796          -78.88
