! TOUCHSTONE file generated by CST MICROWAVE STUDIO
! Date and time: Thu Oct 27 21:22:09 2022
! Project name: L.cst
! Parameters = {Di=1.27; Epsilon_r=1.56; InnerDiameter=1.27; Length=2; Lf=10; Lg=60; OuterConductorThickness=0.2921; OuterDiameter=3.6; Wf=3; Wp=41.2; de=1.5; df=6.8; g=0.8; gx=2.65439; gy=1.48929; h=2.34; hf=1.524; px=11.6165; py=8.09657; w=9.7; wx=8.96207; wy=6.60728}
! Header version: 2018
! Port assignment regex: !\s*Touchstone port\s*([0-9]+)\s*=\s*(CST MWS port|CST DS port)\s*([0-9]+|Zmin|Zmax)\s*\(\"(.*)\"\)(\s*mode\s*([0-9]+))?.*
! Touchstone port assignment:
! Touchstone port 1 = CST MWS port 1 ("")
# GHz S DB R 50
4.5                    -0.943162         70.0759
4.52                    -0.99432         68.0814
4.54                    -1.04595         66.0622
4.56                    -1.09798          64.015
4.58                    -1.15044         61.9368
4.6                     -1.20338         59.8246
4.62                    -1.25693         57.6758
4.64                    -1.31124         55.4878
4.66                     -1.3665         53.2585
4.68                     -1.4229         50.9861
4.7                     -1.48066         48.6688
4.72                    -1.53999         46.3054
4.74                     -1.6011         43.8949
4.76                    -1.66417         41.4364
4.78                    -1.72938         38.9293
4.8                     -1.79687         36.3732
4.82                    -1.86678         33.7681
4.84                    -1.93918         31.1138
4.86                    -2.01413         28.4105
4.88                    -2.09168         25.6584
4.9                     -2.17181          22.858
4.92                    -2.25448         20.0097
4.94                    -2.33962         17.1141
4.96                    -2.42712         14.1719
4.98                    -2.51685         11.1838
5                       -2.60863          8.1508
5.02                    -2.70227         5.07379
5.04                    -2.79754         1.95386
5.06                    -2.89418         -1.2078
5.08                    -2.99191        -4.40987
5.1                     -3.09044        -7.65092
5.12                    -3.18945        -10.9293
5.14                     -3.2886        -14.2434
5.16                    -3.38756        -17.5912
5.18                    -3.48596        -20.9705
5.2                     -3.58345        -24.3793
5.22                    -3.67966        -27.8148
5.24                    -3.77426        -31.2746
5.26                    -3.86688        -34.7556
5.28                     -3.9572         -38.255
5.3                      -4.0449        -41.7694
5.32                     -4.1297        -45.2955
5.34                    -4.21132        -48.8295
5.36                    -4.28954         -52.368
5.38                    -4.36414        -55.9069
5.4                     -4.43497        -59.4426
5.42                    -4.50188        -62.9709
5.44                    -4.56481         -66.488
5.46                    -4.62368        -69.9899
5.48                    -4.67849        -73.4727
5.5                     -4.72927        -76.9327
5.52                    -4.77608        -80.3661
5.54                      -4.819        -83.7694
5.56                    -4.85816        -87.1392
5.58                     -4.8937        -90.4724
5.6                     -4.92581         -93.766
5.62                    -4.95466        -97.0173
5.64                    -4.98046        -100.224
5.66                    -5.00342        -103.383
5.68                    -5.02374        -106.494
5.7                     -5.04166        -109.554
5.72                    -5.05738        -112.562
5.74                    -5.07111        -115.517
5.76                    -5.08305        -118.418
5.78                    -5.09341        -121.263
5.8                     -5.10235        -124.054
5.82                    -5.11005        -126.789
5.84                    -5.11667        -129.469
5.86                    -5.12234        -132.093
5.88                    -5.12721        -134.662
5.9                     -5.13138        -137.177
5.92                    -5.13496        -139.638
5.94                    -5.13807        -142.047
5.96                    -5.14078        -144.404
5.98                    -5.14318         -146.71
6                       -5.14536        -148.966
6.02                     -5.1474        -151.175
6.04                    -5.14937        -153.337
6.06                    -5.15136        -155.453
6.08                    -5.15346        -157.526
6.1                     -5.15577        -159.556
6.12                    -5.15837        -161.546
6.14                    -5.16139        -163.497
6.16                    -5.16493        -165.409
6.18                    -5.16913        -167.285
6.2                      -5.1741        -169.125
6.22                       -5.18        -170.932
6.24                    -5.18697        -172.704
6.26                    -5.19514        -174.445
6.28                    -5.20466        -176.153
6.3                     -5.21566        -177.829
6.32                    -5.22828        -179.474
6.34                    -5.24261         178.912
6.36                    -5.25875          177.33
6.38                    -5.27676          175.78
6.4                     -5.29666         174.263
6.42                    -5.31842          172.78
6.44                      -5.342         171.331
6.46                    -5.36727         169.917
6.48                    -5.39406         168.539
6.5                     -5.42213         167.197
