! TOUCHSTONE file generated by CST MICROWAVE STUDIO
! Date and time: Sat Oct 29 09:09:17 2022
! Project name: L.cst
! Parameters = {Di=1.27; Epsilon_r=1.56; InnerDiameter=1.27; Length=2; Lf=10; Lg=60; OuterConductorThickness=0.2921; OuterDiameter=3.6; Wf=3; Wp=41.2; de=1.5; df=6.8; g=0.8; gx=4.16533; gy=3.53688; h=2.34; hf=1.524; px=9.02266; py=11.1503; w=9.7; wx=4.85733; wy=7.6134}
! Header version: 2018
! Port assignment regex: !\s*Touchstone port\s*([0-9]+)\s*=\s*(CST MWS port|CST DS port)\s*([0-9]+|Zmin|Zmax)\s*\(\"(.*)\"\)(\s*mode\s*([0-9]+))?.*
! Touchstone port assignment:
! Touchstone port 1 = CST MWS port 1 ("")
# GHz S DB R 50
4.5                    -0.296422         94.9207
4.52                   -0.303701         93.5186
4.54                   -0.311132         92.1063
4.56                   -0.318726         90.6837
4.58                   -0.326487         89.2508
4.6                    -0.334418         87.8074
4.62                   -0.342525         86.3535
4.64                   -0.350805          84.889
4.66                   -0.359259         83.4138
4.68                   -0.367881         81.9278
4.7                    -0.376672          80.431
4.72                   -0.385627         78.9232
4.74                   -0.394742         77.4043
4.76                   -0.404012         75.8743
4.78                   -0.413436          74.333
4.8                    -0.423008         72.7802
4.82                   -0.432727         71.2159
4.84                   -0.442588           69.64
4.86                    -0.45259         68.0524
4.88                   -0.462732          66.453
4.9                    -0.473012         64.8416
4.92                   -0.483428         63.2182
4.94                   -0.493981         61.5828
4.96                   -0.504671         59.9351
4.98                   -0.515496         58.2753
5                      -0.526459         56.6032
5.02                   -0.537558         54.9189
5.04                   -0.548795         53.2222
5.06                    -0.56017         51.5131
5.08                   -0.571681         49.7918
5.1                    -0.583332         48.0581
5.12                   -0.595118         46.3122
5.14                   -0.607041          44.554
5.16                   -0.619099         42.7837
5.18                    -0.63129         41.0012
5.2                    -0.643611         39.2068
5.22                    -0.65606         37.4005
5.24                   -0.668635         35.5824
5.26                   -0.681328         33.7527
5.28                   -0.694137         31.9116
5.3                    -0.707056         30.0591
5.32                   -0.720079         28.1955
5.34                     -0.7332         26.3209
5.36                   -0.746409         24.4357
5.38                   -0.759701           22.54
5.4                    -0.773067         20.6341
5.42                   -0.786496         18.7182
5.44                   -0.799981         16.7926
5.46                   -0.813512         14.8576
5.48                   -0.827077         12.9135
5.5                    -0.840667         10.9607
5.52                    -0.85427         8.99942
5.54                   -0.867876         7.03006
5.56                   -0.881472         5.05297
5.58                   -0.895048         3.06853
5.6                    -0.908592         1.07712
5.62                   -0.922092       -0.920848
5.64                   -0.935535        -2.92497
5.66                   -0.948911        -4.93482
5.68                   -0.962207        -6.94997
5.7                    -0.975411        -8.96996
5.72                   -0.988512        -10.9944
5.74                     -1.0015        -13.0227
5.76                    -1.01435        -15.0544
5.78                    -1.02707        -17.0892
5.8                     -1.03964        -19.1265
5.82                    -1.05205        -21.1658
5.84                    -1.06428        -23.2066
5.86                    -1.07633        -25.2485
5.88                    -1.08818        -27.2909
5.9                     -1.09982        -29.3333
5.92                    -1.11124        -31.3753
5.94                    -1.12243        -33.4164
5.96                    -1.13338         -35.456
5.98                    -1.14407        -37.4938
6                       -1.15449        -39.5291
6.02                    -1.16463        -41.5617
6.04                    -1.17448         -43.591
6.06                    -1.18403        -45.6166
6.08                    -1.19326        -47.6381
6.1                     -1.20217        -49.6551
6.12                    -1.21073        -51.6672
6.14                    -1.21895        -53.6741
6.16                    -1.22681        -55.6754
6.18                    -1.23431        -57.6708
6.2                     -1.24143        -59.6601
6.22                    -1.24816        -61.6429
6.24                    -1.25451        -63.6191
6.26                    -1.26047        -65.5884
6.28                    -1.26603        -67.5507
6.3                     -1.27121        -69.5059
6.32                    -1.27599        -71.4538
6.34                     -1.2804        -73.3943
6.36                    -1.28444        -75.3273
6.38                    -1.28813        -77.2528
6.4                     -1.29149        -79.1708
6.42                    -1.29453        -81.0812
6.44                    -1.29729         -82.984
6.46                    -1.29979        -84.8793
6.48                    -1.30208        -86.7669
6.5                     -1.30419        -88.6469
