! TOUCHSTONE file generated by CST MICROWAVE STUDIO
! Date and time: Thu Oct 27 06:39:24 2022
! Project name: L.cst
! Parameters = {Di=1.27; Epsilon_r=1.56; InnerDiameter=1.27; Length=2; Lf=10; Lg=60; OuterConductorThickness=0.2921; OuterDiameter=3.6; Wf=3; Wp=41.2; de=1.5; df=6.8; g=0.8; gx=2.39587; gy=2.93282; h=2.34; hf=1.524; px=12.9448; py=10.333; w=9.7; wx=10.5489; wy=7.40018}
! Header version: 2018
! Port assignment regex: !\s*Touchstone port\s*([0-9]+)\s*=\s*(CST MWS port|CST DS port)\s*([0-9]+|Zmin|Zmax)\s*\(\"(.*)\"\)(\s*mode\s*([0-9]+))?.*
! Touchstone port assignment:
! Touchstone port 1 = CST MWS port 1 ("")
# GHz S DB R 50
4.5                     -1.11916          78.857
4.52                    -1.16693         76.9476
4.54                    -1.22141          74.996
4.56                    -1.28302         73.0135
4.58                    -1.35146         71.0101
4.6                     -1.42592         68.9932
4.62                     -1.5053         66.9669
4.64                     -1.5884         64.9314
4.66                    -1.67418         62.8834
4.68                     -1.7619         60.8173
4.7                     -1.85126         58.7257
4.72                    -1.94241         56.6008
4.74                     -2.0359          54.436
4.76                    -2.13259         52.2262
4.78                    -2.23354         49.9684
4.8                     -2.33983         47.6622
4.82                    -2.45243         45.3093
4.84                    -2.57211         42.9129
4.86                    -2.69938         40.4774
4.88                    -2.83446         38.0071
4.9                      -2.9773          35.506
4.92                    -3.12764          32.977
4.94                    -3.28509         30.4217
4.96                    -3.44924         27.8397
4.98                    -3.61973         25.2295
5                       -3.79631         22.5882
5.02                    -3.97896         19.9121
5.04                    -4.16786         17.1974
5.06                    -4.36338         14.4407
5.08                    -4.56608         11.6394
5.1                     -4.77661         8.79229
5.12                    -4.99562         5.89941
5.14                    -5.22372         2.96238
5.16                    -5.46135      -0.0159883
5.18                    -5.70876        -3.03201
5.2                     -5.96594        -6.08162
5.22                    -6.23261        -9.16088
5.24                    -6.50825        -12.2666
5.26                     -6.7921        -15.3965
5.28                    -7.08331        -18.5502
5.3                     -7.38091        -21.7288
5.32                      -7.684        -24.9347
5.34                    -7.99175        -28.1719
5.36                    -8.30351        -31.4452
5.38                    -8.61881        -34.7594
5.4                     -8.93739        -38.1186
5.42                     -9.2591        -41.5259
5.44                    -9.58387        -44.9821
5.46                    -9.91151        -48.4857
5.48                    -10.2416         -52.033
5.5                     -10.5735        -55.6178
5.52                    -10.9059        -59.2323
5.54                    -11.2369        -62.8681
5.56                     -11.564        -66.5173
5.58                    -11.8841        -70.1741
5.6                     -12.1936        -73.8359
5.62                    -12.4886        -77.5054
5.64                    -12.7653        -81.1905
5.66                    -13.0202        -84.9053
5.68                    -13.2509        -88.6691
5.7                     -13.4559        -92.5045
5.72                    -13.6355        -96.4352
5.74                    -13.7915        -100.483
5.76                    -13.9272        -104.665
5.78                    -14.0472        -108.991
5.8                     -14.1573        -113.461
5.82                     -14.264        -118.068
5.84                    -14.3739        -122.791
5.86                    -14.4938        -127.605
5.88                    -14.6304        -132.474
5.9                       -14.79        -137.355
5.92                    -14.9785        -142.199
5.94                    -15.2015        -146.948
5.96                     -15.464        -151.538
5.98                    -15.7705        -155.893
6                       -16.1248        -159.924
6.02                    -16.5292        -163.522
6.04                    -16.9836        -166.553
6.06                    -17.4835        -168.848
6.08                    -18.0157        -170.197
6.1                     -18.5521        -170.358
6.12                    -19.0408        -169.098
6.14                    -19.3982        -166.299
6.16                    -19.5161        -162.143
6.18                    -19.2971         -157.27
6.2                     -18.7101        -152.672
6.22                    -17.8129        -149.275
6.24                    -16.7159        -147.597
6.26                    -15.5278        -147.718
6.28                    -14.3283        -149.472
6.3                     -13.1666        -152.612
6.32                    -12.0703        -156.902
6.34                    -11.0538        -162.144
6.36                    -10.1245        -168.184
6.38                    -9.28607        -174.902
6.4                     -8.54052         177.794
6.42                    -7.88937         169.974
6.44                    -7.33418         161.692
6.46                    -6.87699         152.991
6.48                    -6.52055         143.906
6.5                      -6.2686         134.463
