! TOUCHSTONE file generated by CST MICROWAVE STUDIO
! Date and time: Thu Oct 27 01:06:09 2022
! Project name: L.cst
! Parameters = {Di=1.27; Epsilon_r=1.56; InnerDiameter=1.27; Length=2; Lf=10; Lg=60; OuterConductorThickness=0.2921; OuterDiameter=3.6; Wf=3; Wp=41.2; de=1.5; df=6.8; g=0.8; gx=3.79532; gy=4.51409; h=2.34; hf=1.524; px=10.5488; py=11.4267; w=9.7; wx=6.7535; wy=6.9126}
! Header version: 2018
! Port assignment regex: !\s*Touchstone port\s*([0-9]+)\s*=\s*(CST MWS port|CST DS port)\s*([0-9]+|Zmin|Zmax)\s*\(\"(.*)\"\)(\s*mode\s*([0-9]+))?.*
! Touchstone port assignment:
! Touchstone port 1 = CST MWS port 1 ("")
# GHz S DB R 50
4.5                    -0.325523         97.1665
4.52                   -0.334057         95.7563
4.54                   -0.342798          94.336
4.56                   -0.351753         92.9056
4.58                   -0.360927         91.4649
4.6                    -0.370324         90.0139
4.62                   -0.379945         88.5526
4.64                   -0.389789         87.0809
4.66                   -0.399854         85.5987
4.68                   -0.410139         84.1059
4.7                    -0.420639         82.6024
4.72                   -0.431352         81.0882
4.74                   -0.442273         79.5632
4.76                     -0.4534         78.0272
4.78                    -0.46473         76.4802
4.8                    -0.476262          74.922
4.82                   -0.487991         73.3526
4.84                   -0.499917         71.7718
4.86                   -0.512041         70.1796
4.88                   -0.524361         68.5758
4.9                    -0.536877         66.9605
4.92                   -0.549593         65.3334
4.94                   -0.562507         63.6947
4.96                   -0.575623         62.0441
4.98                   -0.588943         60.3817
5                      -0.602468         58.7075
5.02                     -0.6162         57.0214
5.04                   -0.630144         55.3235
5.06                     -0.6443         53.6137
5.08                   -0.658669         51.8921
5.1                    -0.673255         50.1588
5.12                   -0.688057         48.4137
5.14                   -0.703077          46.657
5.16                   -0.718313         44.8888
5.18                   -0.733768         43.1092
5.2                    -0.749437         41.3183
5.22                   -0.765321         39.5162
5.24                   -0.781416         37.7031
5.26                   -0.797718         35.8793
5.28                   -0.814224         34.0448
5.3                     -0.83093         32.1998
5.32                   -0.847829         30.3447
5.34                   -0.864914         28.4796
5.36                   -0.882179         26.6048
5.38                   -0.899616         24.7205
5.4                    -0.917216         22.8271
5.42                    -0.93497         20.9248
5.44                   -0.952868          19.014
5.46                   -0.970901         17.0949
5.48                   -0.989056          15.168
5.5                     -1.00732         13.2335
5.52                    -1.02569         11.2919
5.54                    -1.04414         9.34354
5.56                    -1.06267          7.3888
5.58                    -1.08126          5.4281
5.6                      -1.0999         3.46186
5.62                    -1.11857         1.49052
5.64                    -1.13727       -0.485485
5.66                    -1.15597        -2.46569
5.68                    -1.17467        -4.44962
5.7                     -1.19334        -6.43682
5.72                    -1.21198         -8.4268
5.74                    -1.23056        -10.4191
5.76                    -1.24908        -12.4131
5.78                    -1.26752        -14.4084
5.8                     -1.28586        -16.4045
5.82                    -1.30409        -18.4008
5.84                    -1.32218         -20.397
5.86                    -1.34014        -22.3923
5.88                    -1.35793        -24.3864
5.9                     -1.37554        -26.3786
5.92                    -1.39297        -28.3686
5.94                    -1.41017        -30.3558
5.96                    -1.42715        -32.3397
5.98                    -1.44389        -34.3198
6                       -1.46035        -36.2957
6.02                    -1.47654        -38.2668
6.04                    -1.49243        -40.2328
6.06                    -1.50799        -42.1932
6.08                    -1.52323        -44.1477
6.1                     -1.53811        -46.0957
6.12                    -1.55262         -48.037
6.14                    -1.56674        -49.9713
6.16                    -1.58047        -51.8981
6.18                    -1.59378        -53.8173
6.2                     -1.60666        -55.7284
6.22                    -1.61911        -57.6314
6.24                    -1.63111        -59.5261
6.26                    -1.64266         -61.412
6.28                    -1.65376        -63.2893
6.3                     -1.66441        -65.1578
6.32                     -1.6746        -67.0173
6.34                    -1.68436        -68.8678
6.36                    -1.69369        -70.7091
6.38                     -1.7026        -72.5413
6.4                     -1.71113        -74.3643
6.42                    -1.71929        -76.1781
6.44                    -1.72712        -77.9827
6.46                    -1.73466        -79.7779
6.48                    -1.74193        -81.5638
6.5                       -1.749        -83.3403
