! TOUCHSTONE file generated by CST MICROWAVE STUDIO
! Date and time: Thu Oct 27 15:05:09 2022
! Project name: L.cst
! Parameters = {Di=1.27; Epsilon_r=1.56; InnerDiameter=1.27; Length=2; Lf=10; Lg=60; OuterConductorThickness=0.2921; OuterDiameter=3.6; Wf=3; Wp=41.2; de=1.5; df=6.8; g=0.8; gx=4.66426; gy=2.85727; h=2.34; hf=1.524; px=8.75024; py=12.7092; w=9.7; wx=4.08599; wy=9.85198}
! Header version: 2018
! Port assignment regex: !\s*Touchstone port\s*([0-9]+)\s*=\s*(CST MWS port|CST DS port)\s*([0-9]+|Zmin|Zmax)\s*\(\"(.*)\"\)(\s*mode\s*([0-9]+))?.*
! Touchstone port assignment:
! Touchstone port 1 = CST MWS port 1 ("")
# GHz S DB R 50
4.5                     -0.30414         91.3163
4.52                   -0.312984         89.8981
4.54                   -0.321462         88.4697
4.56                    -0.32961         87.0302
4.58                    -0.33748         85.5789
4.6                    -0.345125         84.1153
4.62                   -0.352607         82.6389
4.64                   -0.359987         81.1493
4.66                   -0.367325         79.6462
4.68                   -0.374681         78.1293
4.7                    -0.382108         76.5985
4.72                   -0.389656         75.0537
4.74                   -0.397365         73.4949
4.76                   -0.405273          71.922
4.78                   -0.413407         70.3349
4.8                     -0.42179         68.7337
4.82                   -0.430439         67.1185
4.84                   -0.439362         65.4892
4.86                   -0.448561         63.8459
4.88                   -0.458035         62.1886
4.9                    -0.467779         60.5173
4.92                   -0.477782          58.832
4.94                    -0.48803         57.1327
4.96                   -0.498507         55.4193
4.98                   -0.509195         53.6918
5                      -0.520072           51.95
5.02                   -0.531122         50.1939
5.04                   -0.542321         48.4234
5.06                   -0.553651         46.6384
5.08                    -0.56509         44.8386
5.1                    -0.576621         43.0239
5.12                   -0.588227         41.1943
5.14                   -0.599891         39.3494
5.16                     -0.6116         37.4891
5.18                   -0.623341         35.6133
5.2                    -0.635104         33.7218
5.22                    -0.64688         31.8144
5.24                   -0.658664         29.8909
5.26                   -0.670452         27.9513
5.28                   -0.682241         25.9953
5.3                     -0.69403         24.0227
5.32                   -0.705821         22.0336
5.34                   -0.717616         20.0278
5.36                   -0.729418         18.0051
5.38                   -0.741233         15.9657
5.4                    -0.753066         13.9093
5.42                   -0.764923         11.8359
5.44                   -0.776811         9.74567
5.46                   -0.788738         7.63846
5.48                    -0.80071         5.51434
5.5                    -0.812735         3.37335
5.52                   -0.824819         1.21556
5.54                   -0.836969       -0.958949
5.56                   -0.849189         -3.1501
5.58                   -0.861485        -5.35777
5.6                     -0.87386        -7.58186
5.62                   -0.886316        -9.82224
5.64                   -0.898855        -12.0788
5.66                   -0.911476        -14.3514
5.68                   -0.924178        -16.6399
5.7                     -0.93696        -18.9441
5.72                   -0.949815        -21.2641
5.74                    -0.96274        -23.5996
5.76                   -0.975728        -25.9505
5.78                   -0.988771         -28.317
5.8                     -1.00186        -30.6988
5.82                    -1.01499         -33.096
5.84                    -1.02815        -35.5087
5.86                    -1.04133         -37.937
5.88                    -1.05453         -40.381
5.9                     -1.06774        -42.8408
5.92                    -1.08095        -45.3169
5.94                    -1.09416        -47.8095
5.96                    -1.10739        -50.3191
5.98                    -1.12063        -52.8462
6                       -1.13391        -55.3915
6.02                    -1.14725        -57.9556
6.04                    -1.16068        -60.5396
6.06                    -1.17424        -63.1442
6.08                    -1.18801        -65.7707
6.1                     -1.20205        -68.4202
6.12                    -1.21645        -71.0942
6.14                    -1.23134        -73.7942
6.16                    -1.24684        -76.5219
6.18                    -1.26313         -79.279
6.2                      -1.2804        -82.0677
6.22                    -1.29888          -84.89
6.24                    -1.31883        -87.7483
6.26                    -1.34056         -90.645
6.28                    -1.36443        -93.5828
6.3                     -1.39083        -96.5646
6.32                    -1.42023        -99.5931
6.34                    -1.45312        -102.672
6.36                    -1.49011        -105.803
6.38                    -1.53183        -108.992
6.4                     -1.57901        -112.241
6.42                    -1.63246        -115.553
6.44                    -1.69309        -118.934
6.46                     -1.7619        -122.387
6.48                    -1.84001        -125.917
6.5                     -1.92867        -129.527
