! TOUCHSTONE file generated by CST MICROWAVE STUDIO
! Date and time: Fri Oct 28 19:59:24 2022
! Project name: L.cst
! Parameters = {Di=1.27; Epsilon_r=1.56; InnerDiameter=1.27; Length=2; Lf=10; Lg=60; OuterConductorThickness=0.2921; OuterDiameter=3.6; Wf=3; Wp=41.2; de=1.5; df=6.8; g=0.8; gx=2.99967; gy=2.27596; h=2.34; hf=1.524; px=10.7878; py=13.1662; w=9.7; wx=7.78811; wy=10.8902}
! Header version: 2018
! Port assignment regex: !\s*Touchstone port\s*([0-9]+)\s*=\s*(CST MWS port|CST DS port)\s*([0-9]+|Zmin|Zmax)\s*\(\"(.*)\"\)(\s*mode\s*([0-9]+))?.*
! Touchstone port assignment:
! Touchstone port 1 = CST MWS port 1 ("")
# GHz S DB R 50
4.5                    -0.554907         79.3452
4.52                   -0.597397         77.3989
4.54                   -0.661653         75.6688
4.56                   -0.709211         74.1456
4.58                   -0.721265         72.6258
4.6                    -0.712255         70.9091
4.62                   -0.712772         68.9671
4.64                   -0.741657         66.9392
4.66                   -0.792465         64.9927
4.68                   -0.842008         63.1822
4.7                    -0.871497         61.4157
4.72                   -0.882008         59.5476
4.74                   -0.891259          57.507
4.76                   -0.916656         55.3474
4.78                   -0.960994         53.1849
4.8                     -1.01184         51.0955
4.82                    -1.05334         49.0541
4.84                    -1.07992         46.9636
4.86                    -1.10011         44.7428
4.88                    -1.12794         42.3918
4.9                     -1.17075         39.9824
4.92                    -1.22378         37.5906
4.94                    -1.27506         35.2318
4.96                    -1.31603         32.8503
4.98                    -1.34858         30.3699
5                        -1.3827         27.7578
5.02                    -1.42757         25.0473
5.04                    -1.48395         22.3035
5.06                    -1.54414         19.5654
5.08                    -1.59882         16.8126
5.1                     -1.64504         13.9827
5.12                    -1.68844         11.0242
5.14                    -1.73814         7.93635
5.16                    -1.79903         4.76566
5.18                    -1.86789         1.56272
5.2                     -1.93637        -1.66235
5.22                    -1.99813        -4.95013
5.24                     -2.0542        -8.35944
5.26                    -2.11207          -11.92
5.28                    -2.17937        -15.6108
5.3                     -2.25767        -19.3804
5.32                    -2.34126        -23.1917
5.34                    -2.42194        -27.0549
5.36                     -2.4959         -31.021
5.38                    -2.56699        -35.1416
5.4                     -2.64366        -39.4265
5.42                    -2.73199        -43.8363
5.44                    -2.83059         -48.314
5.46                    -2.93139        -52.8312
5.48                    -3.02578         -57.413
5.5                     -3.11149        -62.1195
5.52                    -3.19446        -66.9972
5.54                    -3.28394        -72.0399
5.56                    -3.38467        -77.1909
5.58                     -3.4924        -82.3866
5.6                      -3.5963        -87.6076
5.62                    -3.68703        -92.8997
5.64                    -3.76451        -98.3415
5.66                    -3.83865        -103.983
5.68                    -3.92228        -109.801
5.7                     -4.02133        -115.715
5.72                    -4.13015         -121.64
5.74                    -4.23562        -127.557
5.76                    -4.32819         -133.53
5.78                    -4.41162        -139.657
5.8                     -4.50315        -145.983
5.82                    -4.62259        -152.445
5.84                    -4.77826         -158.89
5.86                    -4.95934        -165.162
5.88                    -5.14119        -171.205
5.9                     -5.30239        -177.108
5.92                    -5.44235         176.967
5.94                    -5.58318         170.933
5.96                    -5.75059          164.89
5.98                    -5.94666         159.083
6                       -6.13423         153.729
6.02                    -6.25037         148.772
6.04                    -6.25123         143.797
6.06                    -6.15427         138.267
6.08                    -6.02913         131.918
6.1                     -5.94102         124.921
6.12                    -5.89627         117.688
6.14                    -5.82659          110.45
6.16                    -5.63253         102.825
6.18                    -5.27678         93.7842
6.2                     -4.84257         82.2089
6.22                    -4.48777         67.4662
6.24                    -4.35973         49.4229
6.26                    -4.54969         28.1091
6.28                    -5.07884         3.42689
6.3                     -5.87592        -24.9195
6.32                    -6.73296        -57.0918
6.34                    -7.31529        -92.1322
6.36                    -7.37773        -127.221
6.38                     -7.0009        -159.205
6.4                     -6.43083         173.226
6.42                    -5.81178         149.544
6.44                    -5.17038         128.276
6.46                    -4.53062         107.617
6.48                    -3.98399         85.9573
6.5                      -3.6672          62.177
