! TOUCHSTONE file generated by CST MICROWAVE STUDIO
! Date and time: Thu Oct 27 08:39:15 2022
! Project name: L.cst
! Parameters = {Di=1.27; Epsilon_r=1.56; InnerDiameter=1.27; Length=2; Lf=10; Lg=60; OuterConductorThickness=0.2921; OuterDiameter=3.6; Wf=3; Wp=41.2; de=1.5; df=6.8; g=0.8; gx=2.58173; gy=1.72441; h=2.34; hf=1.524; px=14.5855; py=11.819; w=9.7; wx=12.0038; wy=10.0946}
! Header version: 2018
! Port assignment regex: !\s*Touchstone port\s*([0-9]+)\s*=\s*(CST MWS port|CST DS port)\s*([0-9]+|Zmin|Zmax)\s*\(\"(.*)\"\)(\s*mode\s*([0-9]+))?.*
! Touchstone port assignment:
! Touchstone port 1 = CST MWS port 1 ("")
# GHz S DB R 50
4.5                     -5.22157         48.0091
4.52                    -5.68782          45.016
4.54                    -6.17936         42.3595
4.56                    -6.70868         39.3417
4.58                    -7.31389         36.6374
4.6                     -7.92987          33.734
4.62                    -8.65933          30.943
4.64                    -9.40237         28.2561
4.66                    -10.2709         25.4278
4.68                    -11.1968         23.0042
4.7                     -12.2412         20.3012
4.72                    -13.4271         18.1789
4.74                    -14.7336         15.9013
4.76                    -16.3096         14.2491
4.78                    -18.0753         13.0081
4.8                     -20.3377         12.5989
4.82                     -23.088         14.4993
4.84                    -26.9737         20.2666
4.86                    -32.1888         44.2581
4.88                    -33.8367         104.968
4.9                     -28.6398         137.355
4.92                     -25.018         146.109
4.94                    -22.3621         149.025
4.96                    -20.5002         149.298
4.98                     -19.006         149.115
5                       -17.8351         147.938
5.02                    -16.8842         146.968
5.04                    -16.0759         145.521
5.06                    -15.4365         144.295
5.08                      -14.86         142.962
5.1                     -14.4177         141.727
5.12                    -14.0079         140.695
5.14                    -13.6916         139.654
5.16                    -13.4041         139.044
5.18                    -13.1592         138.424
5.2                      -12.944         138.331
5.22                    -12.7131         138.336
5.24                    -12.4951          138.79
5.26                    -12.2026          139.43
5.28                    -11.8809         140.197
5.3                     -11.4458         140.979
5.32                    -10.9501         141.282
5.34                    -10.3696         141.135
5.36                    -9.76534         139.932
5.38                    -9.19021         137.972
5.4                     -8.67957         134.984
5.42                    -8.31589         131.467
5.44                    -8.07276         127.583
5.46                    -8.01357         123.655
5.48                     -8.0752         120.139
5.5                     -8.28281         116.967
5.52                    -8.59326         114.803
5.54                    -8.97114         113.355
5.56                    -9.41657         113.381
5.58                    -9.79048         114.626
5.6                     -10.1099         117.487
5.62                    -10.1151         121.551
5.64                    -9.88156         125.871
5.66                    -9.21072         129.799
5.68                    -8.38038         131.405
5.7                     -7.34582         131.371
5.72                    -6.55059         126.649
5.74                    -6.61941         123.996
5.76                    -6.08705         126.405
5.78                    -5.01867          123.88
5.8                     -4.38521         119.156
5.82                    -3.86783         114.399
5.84                    -3.51997          109.02
5.86                    -3.27382         103.888
5.88                    -3.10119         98.3275
5.9                      -3.0425         92.7503
5.92                    -3.04121          86.787
5.94                    -3.18931         80.3058
5.96                    -3.48323         73.2686
5.98                    -4.06556         65.0505
6                       -5.17901         55.7022
6.02                    -7.43808         44.8448
6.04                    -13.2622         39.6018
6.06                    -16.4133         126.704
6.08                    -7.53802         130.779
6.1                     -4.37709         115.144
6.12                    -3.16288         102.258
6.14                    -2.62058         92.0259
6.16                    -2.43865         83.8444
6.18                    -2.35092         76.9172
6.2                     -2.40956         70.5862
6.22                    -2.47454         64.9021
6.24                    -2.76025         58.7586
6.26                    -3.19471         55.7844
6.28                    -3.06635         52.7841
6.3                     -3.14511         46.6476
6.32                    -3.48102          41.688
6.34                    -3.80608         36.3932
6.36                    -4.34669          31.378
6.38                    -4.92275         26.5329
6.4                     -5.78668         21.7401
6.42                    -6.81536         18.3215
6.44                    -8.19714         15.9027
6.46                    -9.84681         18.2012
6.48                    -11.3978         25.6523
6.5                     -12.0175         41.0843
