! TOUCHSTONE file generated by CST MICROWAVE STUDIO
! Date and time: Fri Oct 28 23:37:58 2022
! Project name: L.cst
! Parameters = {Di=1.27; Epsilon_r=1.56; InnerDiameter=1.27; Length=2; Lf=10; Lg=60; OuterConductorThickness=0.2921; OuterDiameter=3.6; Wf=3; Wp=41.2; de=1.5; df=6.8; g=0.8; gx=1.7338; gy=1.23503; h=2.34; hf=1.524; px=10.1939; py=10.0574; w=9.7; wx=8.46006; wy=8.82234}
! Header version: 2018
! Port assignment regex: !\s*Touchstone port\s*([0-9]+)\s*=\s*(CST MWS port|CST DS port)\s*([0-9]+|Zmin|Zmax)\s*\(\"(.*)\"\)(\s*mode\s*([0-9]+))?.*
! Touchstone port assignment:
! Touchstone port 1 = CST MWS port 1 ("")
# GHz S DB R 50
4.5                      -0.9277         66.7514
4.52                   -0.979811         64.7962
4.54                    -1.03312         62.8237
4.56                    -1.08736          60.831
4.58                    -1.14234         58.8151
4.6                     -1.19795         56.7729
4.62                    -1.25414         54.7012
4.64                    -1.31093          52.597
4.66                    -1.36841         50.4574
4.68                    -1.42669         48.2797
4.7                     -1.48593         46.0614
4.72                    -1.54633         43.8001
4.74                    -1.60808          41.494
4.76                     -1.6714         39.1413
4.78                     -1.7365         36.7403
4.8                      -1.8036         34.2899
4.82                    -1.87289          31.789
4.84                    -1.94456         29.2368
4.86                    -2.01876         26.6328
4.88                    -2.09564         23.9763
4.9                     -2.17529          21.267
4.92                    -2.25781          18.505
4.94                    -2.34322         15.6899
4.96                    -2.43154          12.822
4.98                    -2.52275         9.90144
5                       -2.61679         6.92838
5.02                    -2.71358         3.90322
5.04                    -2.81297        0.826406
5.06                    -2.91481        -2.30152
5.08                     -3.0189         -5.4799
5.1                     -3.12502        -8.70797
5.12                    -3.23291        -11.9849
5.14                    -3.34229        -15.3095
5.16                    -3.45283        -18.6808
5.18                     -3.5642        -22.0973
5.2                     -3.67604        -25.5575
5.22                    -3.78797        -29.0597
5.24                    -3.89961        -32.6018
5.26                    -4.01053        -36.1815
5.28                    -4.12035        -39.7966
5.3                     -4.22864        -43.4443
5.32                    -4.33501        -47.1214
5.34                    -4.43906        -50.8248
5.36                    -4.54042        -54.5509
5.38                    -4.63873        -58.2958
5.4                     -4.73367        -62.0556
5.42                    -4.82494        -65.8259
5.44                    -4.91228        -69.6024
5.46                    -4.99549        -73.3803
5.48                    -5.07439        -77.1549
5.5                     -5.14885        -80.9215
5.52                     -5.2188        -84.6752
5.54                    -5.28421        -88.4112
5.56                     -5.3451        -92.1246
5.58                    -5.40152         -95.811
5.6                     -5.45356        -99.4657
5.62                    -5.50137        -103.084
5.64                     -5.5451        -106.663
5.66                    -5.58494        -110.198
5.68                    -5.62108        -113.686
5.7                     -5.65375        -117.123
5.72                    -5.68317        -120.507
5.74                    -5.70955        -123.835
5.76                    -5.73311        -127.105
5.78                    -5.75405        -130.314
5.8                     -5.77256        -133.463
5.82                    -5.78882        -136.549
5.84                    -5.80298        -139.571
5.86                    -5.81517         -142.53
5.88                    -5.82549        -145.426
5.9                     -5.83405        -148.257
5.92                    -5.84091        -151.026
5.94                    -5.84613        -153.733
5.96                    -5.84974        -156.379
5.98                    -5.85178        -158.966
6                       -5.85227        -161.497
6.02                    -5.85126        -163.972
6.04                    -5.84879        -166.394
6.06                     -5.8449        -168.767
6.08                    -5.83968        -171.093
6.1                     -5.83324        -173.374
6.12                    -5.82572        -175.615
6.14                     -5.8173        -177.818
6.16                    -5.80822        -179.959
6.18                    -5.79876         177.877
6.2                     -5.78924         175.769
6.22                    -5.78007         173.686
6.24                    -5.77168         171.627
6.26                    -5.76457          169.59
6.28                    -5.75928         167.572
6.3                      -5.7564         165.574
6.32                    -5.75655         163.594
6.34                    -5.76038         161.633
6.36                    -5.76853         159.693
6.38                    -5.78167         157.776
6.4                     -5.80042         155.885
6.42                    -5.82536         154.025
6.44                    -5.85699         152.201
6.46                    -5.89573         150.421
6.48                     -5.9418         148.692
6.5                     -5.99525         147.025
