! TOUCHSTONE file generated by CST MICROWAVE STUDIO
! Date and time: Sat Oct 29 16:28:16 2022
! Project name: L.cst
! Parameters = {Di=1.27; Epsilon_r=1.56; InnerDiameter=1.27; Length=2; Lf=10; Lg=60; OuterConductorThickness=0.2921; OuterDiameter=3.6; Wf=3; Wp=41.2; de=1.5; df=6.8; g=0.8; gx=1.37242; gy=2.17841; h=2.34; hf=1.524; px=12.784; py=11.0621; w=9.7; wx=11.4116; wy=8.88374}
! Header version: 2018
! Port assignment regex: !\s*Touchstone port\s*([0-9]+)\s*=\s*(CST MWS port|CST DS port)\s*([0-9]+|Zmin|Zmax)\s*\(\"(.*)\"\)(\s*mode\s*([0-9]+))?.*
! Touchstone port assignment:
! Touchstone port 1 = CST MWS port 1 ("")
# GHz S DB R 50
4.5                     -3.99476         57.4562
4.52                    -4.29178         55.2566
4.54                    -4.60628         53.1808
4.56                    -4.92622          51.108
4.58                    -5.27299         48.9846
4.6                     -5.65386         46.9603
4.62                    -6.04851         45.0696
4.64                    -6.45744         43.1888
4.66                    -6.90165         41.3525
4.68                    -7.37596          39.708
4.7                     -7.86225          38.221
4.72                    -8.37151         36.8036
4.74                    -8.91831         35.5721
4.76                    -9.48575         34.6415
4.78                    -10.0616         33.9266
4.8                     -10.6629         33.4147
4.82                    -11.2894         33.2852
4.84                    -11.9128         33.5796
4.86                    -12.5285         34.1839
4.88                    -13.1484         35.1826
4.9                     -13.7458         36.7303
4.92                    -14.2864         38.6993
4.94                    -14.7758         40.9496
4.96                    -15.2076         43.5731
4.98                    -15.5409         46.4737
5                       -15.7724         49.3124
5.02                      -15.93         52.0001
5.04                    -16.0053         54.5453
5.06                    -15.9933         56.6839
5.08                    -15.9362         58.2451
5.1                     -15.8591         59.3526
5.12                    -15.7532          59.997
5.14                    -15.6374         60.0162
5.16                    -15.5473         59.4741
5.18                    -15.4821         58.5182
5.2                     -15.4338         57.0656
5.22                    -15.4271         55.0241
5.24                    -15.4813         52.5062
5.26                     -15.585         49.5509
5.28                    -15.7396         45.9827
5.3                      -15.975         41.7061
5.32                    -16.3034         36.7613
5.34                     -16.713         30.9972
5.36                     -17.215         24.0372
5.38                    -17.8375         15.5658
5.4                     -18.5656         5.26114
5.42                    -19.3241        -7.55199
5.44                    -19.9871        -23.7305
5.46                    -20.3389        -43.4229
5.48                    -20.1059        -65.1862
5.5                     -19.1977         -86.439
5.52                    -17.8395        -105.332
5.54                    -16.3551        -121.467
5.56                    -14.9524        -135.143
5.58                    -13.7063        -146.843
5.6                     -12.6385        -157.049
5.62                    -11.7626         -165.99
5.64                    -11.0605        -173.572
5.66                    -10.4612        -179.659
5.68                    -9.87382         175.505
5.7                     -9.22361         171.625
5.72                    -8.45287          168.12
5.74                    -7.55156          164.18
5.76                    -6.60196         159.109
5.78                    -5.72703         152.838
5.8                     -4.99936         145.786
5.82                    -4.43041         138.372
5.84                    -4.01423          130.86
5.86                    -3.74053         123.503
5.88                    -3.57593         116.521
5.9                     -3.47693         109.907
5.92                    -3.43037         103.515
5.94                     -3.4428         97.3603
5.96                    -3.49224         91.5453
5.98                    -3.54597         85.9145
6                       -3.61893          80.226
6.02                     -3.7386         74.5872
6.04                    -3.87081          69.151
6.06                    -3.97992         63.5559
6.08                    -4.12628         57.4447
6.1                     -4.36516         51.1941
6.12                    -4.61636         45.0549
6.14                    -4.83694         38.0409
6.16                     -5.2528         29.3879
6.18                    -6.12586         20.7248
6.2                     -7.26042         15.1624
6.22                    -7.90209          12.161
6.24                    -7.91797         5.14523
6.26                    -8.18068        -8.88395
6.28                    -9.23738         -27.831
6.3                     -10.9744        -50.5868
6.32                    -12.7589        -80.4271
6.34                     -13.351        -121.581
6.36                    -11.8744        -165.554
6.38                    -9.69872         159.045
6.4                     -8.01917         132.513
6.42                     -6.8861         112.461
6.44                    -6.05584         96.2137
6.46                    -5.51106         81.6038
6.48                    -5.34218          68.598
6.5                     -5.39216         58.1639
