! TOUCHSTONE file generated by CST MICROWAVE STUDIO
! Date and time: Thu Oct 27 04:44:51 2022
! Project name: L.cst
! Parameters = {Di=1.27; Epsilon_r=1.56; InnerDiameter=1.27; Length=2; Lf=10; Lg=60; OuterConductorThickness=0.2921; OuterDiameter=3.6; Wf=3; Wp=41.2; de=1.5; df=6.8; g=0.8; gx=1.27695; gy=4.65879; h=2.34; hf=1.524; px=12.9116; py=8.27419; w=9.7; wx=11.6347; wy=3.61541}
! Header version: 2018
! Port assignment regex: !\s*Touchstone port\s*([0-9]+)\s*=\s*(CST MWS port|CST DS port)\s*([0-9]+|Zmin|Zmax)\s*\(\"(.*)\"\)(\s*mode\s*([0-9]+))?.*
! Touchstone port assignment:
! Touchstone port 1 = CST MWS port 1 ("")
# GHz S DB R 50
4.5                     -1.06127         86.3983
4.52                     -1.0947         84.5644
4.54                    -1.15674          82.621
4.56                    -1.23819         80.7985
4.58                    -1.30557         79.0751
4.6                     -1.35709         77.2422
4.62                    -1.42174         75.2566
4.64                    -1.51019         73.2865
4.66                    -1.60063         71.4221
4.68                    -1.67716         69.5418
4.7                     -1.75479         67.5279
4.72                    -1.85268         65.4528
4.74                    -1.96392         63.4449
4.76                    -2.06941         61.4801
4.78                    -2.16995         59.4346
4.8                     -2.28372         57.2926
4.82                    -2.41629         55.1633
4.84                    -2.55332          53.098
4.86                    -2.68558         51.0138
4.88                    -2.82415         48.8381
4.9                     -2.98189         46.6281
4.92                    -3.15328         44.4739
4.94                    -3.32493         42.3549
4.96                    -3.49842         40.1821
4.98                    -3.68787         37.9513
5                       -3.89716         35.7527
5.02                    -4.11454         33.6275
5.04                    -4.33294         31.5085
5.06                    -4.56225         29.3411
5.08                    -4.81342         27.1836
5.1                      -5.0808         25.1213
5.12                    -5.35182          23.137
5.14                    -5.62831          21.152
5.16                    -5.92384         19.1734
5.18                    -6.24099         17.3023
5.2                     -6.56603         15.5852
5.22                    -6.89076         13.9527
5.24                    -7.22566         12.3557
5.26                    -7.58087         10.8771
5.28                    -7.94573         9.62252
5.3                     -8.30204         8.56318
5.32                    -8.65087          7.6007
5.34                    -9.00632         6.76033
5.36                    -9.36393         6.17721
5.38                    -9.69772         5.87577
5.4                     -9.99476         5.71369
5.42                    -10.2687         5.61156
5.44                    -10.5253         5.67335
5.46                    -10.7389         5.95994
5.48                    -10.8857         6.29566
5.5                     -10.9796         6.47464
5.52                    -11.0437         6.52325
5.54                    -11.0676          6.5422
5.56                    -11.0275         6.40225
5.58                    -10.9355         5.84774
5.6                       -10.83         4.84356
5.62                    -10.7216         3.55279
5.64                    -10.5892         1.98792
5.66                    -10.4314      -0.0658353
5.68                    -10.2855        -2.72311
5.7                     -10.1814        -5.82713
5.72                    -10.1078        -9.21799
5.74                    -10.0467        -13.0017
5.76                    -10.0202        -17.3812
5.78                    -10.0759        -22.3079
5.8                     -10.2308        -27.5039
5.82                    -10.4624        -32.8226
5.84                    -10.7618        -38.4018
5.86                    -11.1722        -44.3183
5.88                    -11.7438         -50.204
5.9                     -12.4549        -55.4112
5.92                    -13.2046        -59.6152
5.94                    -13.9073        -63.0466
5.96                    -14.5411        -65.8081
5.98                    -15.0074         -67.478
6                       -15.0346        -68.4789
6.02                    -14.4706        -71.1523
6.04                    -13.5137        -77.4013
6.06                    -12.3744        -86.9918
6.08                    -11.0464        -99.2124
6.1                     -9.48274        -114.209
6.12                    -7.78899         -132.33
6.14                    -6.17773        -153.113
6.16                    -4.83357         -175.34
6.18                    -3.85373         162.412
6.2                     -3.24323         141.398
6.22                    -2.92572         122.455
6.24                    -2.78295         105.772
6.26                    -2.73363         90.9448
6.28                    -2.78015         77.5528
6.3                     -2.93182         65.7215
6.32                     -3.0828         55.6354
6.34                    -3.08028         46.2374
6.36                     -3.0293         35.4074
6.38                    -3.37591         22.4051
6.4                     -4.65655         9.51902
6.42                     -7.2071         3.79888
6.44                    -9.38686         18.7372
6.46                     -7.2403         34.8988
6.48                    -4.49635         29.2735
6.5                     -3.18934         15.4106
