! TOUCHSTONE file generated by CST MICROWAVE STUDIO
! Date and time: Thu Oct 27 22:45:40 2022
! Project name: L.cst
! Parameters = {Di=1.27; Epsilon_r=1.56; InnerDiameter=1.27; Length=2; Lf=10; Lg=60; OuterConductorThickness=0.2921; OuterDiameter=3.6; Wf=3; Wp=41.2; de=1.5; df=6.8; g=0.8; gx=2.5692; gy=3.71569; h=2.34; hf=1.524; px=9.67461; py=12.1182; w=9.7; wx=7.10541; wy=8.40255}
! Header version: 2018
! Port assignment regex: !\s*Touchstone port\s*([0-9]+)\s*=\s*(CST MWS port|CST DS port)\s*([0-9]+|Zmin|Zmax)\s*\(\"(.*)\"\)(\s*mode\s*([0-9]+))?.*
! Touchstone port assignment:
! Touchstone port 1 = CST MWS port 1 ("")
# GHz S DB R 50
4.5                    -0.399754         92.0486
4.52                   -0.410749         90.6194
4.54                   -0.422044         89.1785
4.56                    -0.43366         87.7258
4.58                    -0.44561         86.2613
4.6                    -0.457906         84.7848
4.62                   -0.470552         83.2963
4.64                   -0.483554         81.7958
4.66                   -0.496911         80.2831
4.68                   -0.510624         78.7581
4.7                    -0.524691         77.2207
4.72                   -0.539106         75.6709
4.74                    -0.55387         74.1083
4.76                   -0.568976          72.533
4.78                   -0.584423         70.9446
4.8                    -0.600207         69.3432
4.82                   -0.616328         67.7284
4.84                   -0.632783         66.1001
4.86                   -0.649572         64.4582
4.88                   -0.666696         62.8025
4.9                    -0.684158         61.1328
4.92                   -0.701958         59.4489
4.94                     -0.7201         57.7508
4.96                    -0.73859         56.0382
4.98                   -0.757431          54.311
5                      -0.776627         52.5691
5.02                   -0.796186         50.8124
5.04                   -0.816111         49.0409
5.06                   -0.836408         47.2543
5.08                   -0.857083         45.4527
5.1                    -0.878141         43.6361
5.12                   -0.899586         41.8043
5.14                   -0.921421         39.9574
5.16                   -0.943651         38.0955
5.18                   -0.966276         36.2184
5.2                      -0.9893         34.3263
5.22                    -1.01272         32.4193
5.24                    -1.03654         30.4974
5.26                    -1.06075         28.5607
5.28                    -1.08536         26.6093
5.3                     -1.11035         24.6435
5.32                    -1.13573         22.6632
5.34                    -1.16148         20.6688
5.36                     -1.1876         18.6604
5.38                    -1.21408         16.6383
5.4                      -1.2409         14.6026
5.42                    -1.26806         12.5537
5.44                    -1.29554         10.4918
5.46                    -1.32333         8.41713
5.48                    -1.35141          6.3301
5.5                     -1.37977         4.23101
5.52                    -1.40839         2.12019
5.54                    -1.43725     -0.00197482
5.56                    -1.46633        -2.13512
5.58                    -1.49562        -4.27883
5.6                     -1.52509         -6.4327
5.62                    -1.55472         -8.5963
5.64                     -1.5845        -10.7692
5.66                    -1.61439        -12.9509
5.68                    -1.64439        -15.1409
5.7                     -1.67446        -17.3388
5.72                    -1.70458         -19.544
5.74                    -1.73473         -21.756
5.76                    -1.76489        -23.9744
5.78                    -1.79504        -26.1985
5.8                     -1.82515        -28.4278
5.82                    -1.85519        -30.6619
5.84                    -1.88515           -32.9
5.86                      -1.915        -35.1418
5.88                    -1.94472        -37.3866
5.9                     -1.97428        -39.6338
5.92                    -2.00367         -41.883
5.94                    -2.03285        -44.1335
5.96                    -2.06181        -46.3849
5.98                    -2.09052        -48.6367
6                       -2.11896        -50.8883
6.02                     -2.1471        -53.1392
6.04                    -2.17493        -55.3891
6.06                    -2.20242        -57.6374
6.08                    -2.22955        -59.8837
6.1                      -2.2563        -62.1278
6.12                    -2.28265        -64.3692
6.14                    -2.30859        -66.6077
6.16                     -2.3341        -68.8429
6.18                    -2.35916        -71.0748
6.2                     -2.38376         -73.303
6.22                    -2.40789        -75.5276
6.24                    -2.43154        -77.7484
6.26                    -2.45472        -79.9655
6.28                    -2.47743        -82.1789
6.3                     -2.49967        -84.3888
6.32                    -2.52145        -86.5952
6.34                     -2.5428        -88.7985
6.36                    -2.56374         -90.999
6.38                    -2.58431        -93.1969
6.4                     -2.60455        -95.3928
6.42                     -2.6245        -97.5871
6.44                    -2.64424        -99.7802
6.46                    -2.66383        -101.973
6.48                    -2.68335        -104.165
6.5                      -2.7029        -106.359
