! TOUCHSTONE file generated by CST MICROWAVE STUDIO
! Date and time: Sat Oct 29 11:24:52 2022
! Project name: L.cst
! Parameters = {Di=1.27; Epsilon_r=1.56; InnerDiameter=1.27; Length=2; Lf=10; Lg=60; OuterConductorThickness=0.2921; OuterDiameter=3.6; Wf=3; Wp=41.2; de=1.5; df=6.8; g=0.8; gx=3.93012; gy=2.38608; h=2.34; hf=1.524; px=11.014; py=14.0241; w=9.7; wx=7.08389; wy=11.6381}
! Header version: 2018
! Port assignment regex: !\s*Touchstone port\s*([0-9]+)\s*=\s*(CST MWS port|CST DS port)\s*([0-9]+|Zmin|Zmax)\s*\(\"(.*)\"\)(\s*mode\s*([0-9]+))?.*
! Touchstone port assignment:
! Touchstone port 1 = CST MWS port 1 ("")
# GHz S DB R 50
4.5                    -0.499347         84.7762
4.52                    -0.51929         83.0186
4.54                   -0.535833         81.5536
4.56                   -0.549465         79.7725
4.58                   -0.573205          78.233
4.6                    -0.582361         76.4326
4.62                   -0.611423         74.8067
4.64                   -0.618386         72.9889
4.66                   -0.650454         71.2693
4.68                   -0.657685         69.4286
4.7                    -0.690731         67.6156
4.72                   -0.699714         65.7391
4.74                   -0.732923         63.8331
4.76                   -0.744539         61.9098
4.78                   -0.777398          59.909
4.8                    -0.792505         57.9289
4.82                   -0.824163         55.8308
4.84                   -0.843745         53.7794
4.86                   -0.873751         51.5847
4.88                   -0.898075         49.4439
4.9                    -0.926895         47.1518
4.92                   -0.955513         44.9057
4.94                   -0.983772         42.5092
4.96                    -1.01644         40.1428
4.98                    -1.04455         37.6317
5                        -1.0813          35.127
5.02                    -1.10994         32.4912
5.04                     -1.1503         29.8268
5.06                    -1.18078         27.0508
5.08                    -1.22421         24.2062
5.1                     -1.25787         21.2671
5.12                    -1.30434           18.22
5.14                    -1.34255         15.0894
5.16                    -1.39266         11.8127
5.18                    -1.43718         8.45857
5.2                     -1.49186         4.92028
5.22                    -1.54524         1.30313
5.24                    -1.60626        -2.53103
5.26                    -1.67158        -6.45791
5.28                    -1.74212        -10.6258
5.3                     -1.82308        -14.9126
5.32                    -1.90748        -19.4562
5.34                    -2.00863        -24.1554
5.36                    -2.11222        -29.1178
5.38                    -2.23843        -34.2847
5.4                     -2.36758        -39.7111
5.42                    -2.52337        -45.4012
5.44                    -2.68478        -51.3437
5.46                     -2.8745        -57.6137
5.48                    -3.07492        -64.1341
5.5                     -3.30346        -71.0431
5.52                     -3.5502        -78.2035
5.54                    -3.82263        -85.8015
5.56                    -4.12368        -93.6523
5.58                    -4.44495        -101.947
5.6                     -4.80569        -110.492
5.62                    -5.17758        -119.405
5.64                    -5.59229        -128.548
5.66                    -6.00352        -137.887
5.68                    -6.44402        -147.404
5.7                     -6.85762        -156.876
5.72                    -7.26323        -166.467
5.74                     -7.6119         -175.79
5.76                    -7.89368          174.78
5.78                    -8.09282         165.678
5.8                      -8.1632         156.393
5.82                     -8.1419         147.214
5.84                    -7.95578         137.669
5.86                    -7.69045         127.721
5.88                    -7.26844         117.104
5.9                     -6.79542         105.335
5.92                    -6.22289         92.3723
5.94                    -5.64225         77.2077
5.96                    -5.09106         59.7613
5.98                    -4.64922         38.5829
6                       -4.52797         13.2215
6.02                    -4.83317        -17.1582
6.04                    -5.75594        -52.5743
6.06                    -7.00728        -91.1625
6.08                    -7.96656        -131.097
6.1                     -8.34243        -167.555
6.12                    -7.96698         163.135
6.14                    -7.08569         139.304
6.16                    -5.74215         118.776
6.18                    -4.17899         95.7718
6.2                     -3.07649         69.5853
6.22                    -2.47863         39.7837
6.24                    -2.76775         3.91508
6.26                    -4.17302        -39.9515
6.28                    -6.20713        -99.0027
6.3                     -6.76486        -170.273
6.32                    -5.35546         135.048
6.34                     -3.6932         97.6984
6.36                    -2.96773         68.1153
6.38                    -2.52012           47.03
6.4                     -2.17036         24.0159
6.42                    -2.71903         6.12871
6.44                      -2.234         -16.295
6.46                      -5.758        -50.2363
6.48                    -8.04992        -7.18086
6.5                     -1.32238         -41.392
