! TOUCHSTONE file generated by CST MICROWAVE STUDIO
! Date and time: Sat Oct 29 02:12:01 2022
! Project name: L.cst
! Parameters = {Di=1.27; Epsilon_r=1.56; InnerDiameter=1.27; Length=2; Lf=10; Lg=60; OuterConductorThickness=0.2921; OuterDiameter=3.6; Wf=3; Wp=41.2; de=1.5; df=6.8; g=0.8; gx=4.35212; gy=2.33757; h=2.34; hf=1.524; px=12.6163; py=12.948; w=9.7; wx=8.26414; wy=10.6104}
! Header version: 2018
! Port assignment regex: !\s*Touchstone port\s*([0-9]+)\s*=\s*(CST MWS port|CST DS port)\s*([0-9]+|Zmin|Zmax)\s*\(\"(.*)\"\)(\s*mode\s*([0-9]+))?.*
! Touchstone port assignment:
! Touchstone port 1 = CST MWS port 1 ("")
# GHz S DB R 50
4.5                    -0.624811          85.368
4.52                   -0.633795         83.8502
4.54                     -0.6329         82.1912
4.56                   -0.637575          80.385
4.58                   -0.658207         78.4939
4.6                    -0.695205         76.6028
4.62                   -0.740245          74.768
4.64                   -0.782072         72.9894
4.66                   -0.813254         71.2162
4.68                   -0.834028         69.3817
4.7                    -0.851223         67.4429
4.72                   -0.873525         65.4013
4.74                   -0.906359         63.2951
4.76                   -0.949301         61.1728
4.78                   -0.997028         59.0638
4.8                     -1.04284         56.9631
4.82                    -1.08264         54.8366
4.84                    -1.11706         52.6425
4.86                    -1.15068         50.3546
4.88                    -1.18903         47.9749
4.9                     -1.23549         45.5285
4.92                    -1.28956         43.0462
4.94                    -1.34756         40.5459
4.96                    -1.40497         38.0218
4.98                    -1.45903         35.4488
5                       -1.51031         32.7962
5.02                     -1.5621         30.0441
5.04                     -1.6185          27.193
5.06                    -1.68203           24.26
5.08                    -1.75242         21.2674
5.1                     -1.82689         18.2283
5.12                     -1.9019          15.138
5.14                    -1.97514         11.9763
5.16                    -2.04684         8.71721
5.18                    -2.11955         5.34262
5.2                     -2.19669         1.85035
5.22                    -2.28059        -1.74664
5.24                     -2.3713        -5.42921
5.26                    -2.46658         -9.1839
5.28                    -2.56316        -13.0118
5.3                     -2.65851        -16.9284
5.32                    -2.75223        -20.9566
5.34                    -2.84619        -25.1141
5.36                    -2.94347        -29.4046
5.38                    -3.04659        -33.8154
5.4                     -3.15604        -38.3243
5.42                    -3.26983          -42.91
5.44                    -3.38433         -47.563
5.46                    -3.49596        -52.2895
5.48                     -3.6029        -57.1063
5.5                     -3.70583        -62.0299
5.52                    -3.80736        -67.0646
5.54                    -3.91036        -72.1959
5.56                    -4.01601        -77.3942
5.58                    -4.12269        -82.6252
5.6                     -4.22619         -87.864
5.62                    -4.32138         -93.105
5.64                    -4.40445         -98.362
5.66                     -4.4748        -103.658
5.68                    -4.53529         -109.01
5.7                     -4.59072        -114.413
5.72                    -4.64523        -119.839
5.74                    -4.69994        -125.246
5.76                    -4.75204        -130.596
5.78                    -4.79605        -135.871
5.8                      -4.8267        -141.087
5.82                    -4.84237        -146.284
5.84                    -4.84685        -151.503
5.86                    -4.84844        -156.763
5.88                    -4.85644        -162.044
5.9                     -4.87672        -167.291
5.92                     -4.9086        -172.435
5.94                    -4.94465        -177.428
5.96                    -4.97403         177.729
5.98                    -4.98844         172.982
6                       -4.98761         168.248
6.02                    -4.98078         163.458
6.04                    -4.98257         158.606
6.06                    -5.00483          153.76
6.08                    -5.04851         149.037
6.1                     -5.09956         144.542
6.12                    -5.13215         140.294
6.14                    -5.12043         136.176
6.16                    -5.05427         131.961
6.18                    -4.94867         127.415
6.2                     -4.83819         122.419
6.22                    -4.75915         117.037
6.24                    -4.72951         111.476
6.26                    -4.73499         105.983
6.28                    -4.72779         100.665
6.3                     -4.64569         95.3192
6.32                    -4.45209         89.3837
6.34                    -4.17316         82.1273
6.36                    -3.89826         72.9607
6.38                    -3.74726         61.5979
6.4                     -3.84033         47.9812
6.42                     -4.2911         32.0899
6.44                     -5.2203         13.7094
6.46                     -6.7808        -7.94194
6.48                    -9.16676        -35.2022
6.5                     -12.3226        -74.8793
