! TOUCHSTONE file generated by CST MICROWAVE STUDIO
! Date and time: Sat Oct 29 06:57:16 2022
! Project name: L.cst
! Parameters = {Di=1.27; Epsilon_r=1.56; InnerDiameter=1.27; Length=2; Lf=10; Lg=60; OuterConductorThickness=0.2921; OuterDiameter=3.6; Wf=3; Wp=41.2; de=1.5; df=6.8; g=0.8; gx=1.02855; gy=4.69929; h=2.34; hf=1.524; px=9.35106; py=9.49675; w=9.7; wx=8.32251; wy=4.79747}
! Header version: 2018
! Port assignment regex: !\s*Touchstone port\s*([0-9]+)\s*=\s*(CST MWS port|CST DS port)\s*([0-9]+|Zmin|Zmax)\s*\(\"(.*)\"\)(\s*mode\s*([0-9]+))?.*
! Touchstone port assignment:
! Touchstone port 1 = CST MWS port 1 ("")
# GHz S DB R 50
4.5                    -0.475961         94.0114
4.52                   -0.491469         92.5301
4.54                   -0.507555         91.0375
4.56                   -0.524229         89.5338
4.58                   -0.541493         88.0188
4.6                    -0.559349         86.4926
4.62                   -0.577794         84.9552
4.64                   -0.596827         83.4065
4.66                   -0.616444         81.8465
4.68                   -0.636642         80.2751
4.7                    -0.657419         78.6921
4.72                   -0.678775         77.0973
4.74                   -0.700711         75.4908
4.76                   -0.723232         73.8724
4.78                   -0.746342         72.2419
4.8                     -0.77005         70.5991
4.82                   -0.794366          68.944
4.84                   -0.819303         67.2764
4.86                   -0.844876         65.5962
4.88                   -0.871101         63.9032
4.9                    -0.897997         62.1975
4.92                   -0.925584         60.4789
4.94                   -0.953883         58.7474
4.96                   -0.982916         57.0029
4.98                    -1.01271         55.2455
5                       -1.04328         53.4751
5.02                    -1.07465         51.6919
5.04                    -1.10685         49.8957
5.06                     -1.1399         48.0869
5.08                    -1.17383         46.2653
5.1                     -1.20864         44.4313
5.12                    -1.24438         42.5849
5.14                    -1.28105         40.7263
5.16                    -1.31867         38.8558
5.18                    -1.35727         36.9736
5.2                     -1.39685         35.0799
5.22                    -1.43744          33.175
5.24                    -1.47905         31.2593
5.26                    -1.52168          29.333
5.28                    -1.56535         27.3965
5.3                     -1.61007         25.4501
5.32                    -1.65585         23.4943
5.34                    -1.70268         21.5295
5.36                    -1.75059         19.5561
5.38                    -1.79956         17.5746
5.4                      -1.8496         15.5854
5.42                    -1.90072         13.5891
5.44                     -1.9529         11.5861
5.46                    -2.00615         9.57713
5.48                    -2.06047         7.56261
5.5                     -2.11585         5.54316
5.52                    -2.17228         3.51941
5.54                    -2.22975         1.49198
5.56                    -2.28827        -0.53848
5.58                    -2.34781        -2.57129
5.6                     -2.40837        -4.60575
5.62                    -2.46994        -6.64115
5.64                     -2.5325        -8.67675
5.66                    -2.59605        -10.7118
5.68                    -2.66055        -12.7455
5.7                       -2.726        -14.7771
5.72                    -2.79238        -16.8057
5.74                    -2.85967        -18.8305
5.76                    -2.92784        -20.8506
5.78                    -2.99688        -22.8652
5.8                     -3.06676        -24.8735
5.82                    -3.13744        -26.8744
5.84                    -3.20891         -28.867
5.86                    -3.28112        -30.8505
5.88                    -3.35405         -32.824
5.9                     -3.42765        -34.7863
5.92                    -3.50188        -36.7366
5.94                    -3.57671         -38.674
5.96                    -3.65207        -40.5974
5.98                    -3.72793        -42.5059
6                       -3.80422        -44.3986
6.02                    -3.88089        -46.2744
6.04                    -3.95788        -48.1324
6.06                    -4.03511        -49.9717
6.08                    -4.11253        -51.7914
6.1                     -4.19004        -53.5905
6.12                    -4.26758        -55.3681
6.14                    -4.34505        -57.1233
6.16                    -4.42237        -58.8554
6.18                    -4.49945        -60.5634
6.2                     -4.57618        -62.2465
6.22                    -4.65246        -63.9039
6.24                    -4.72818        -65.5349
6.26                    -4.80323        -67.1387
6.28                    -4.87749        -68.7147
6.3                     -4.95082         -70.262
6.32                     -5.0231        -71.7801
6.34                    -5.09417        -73.2682
6.36                    -5.16389        -74.7258
6.38                    -5.23209        -76.1523
6.4                     -5.29858         -77.547
6.42                    -5.36318        -78.9095
6.44                    -5.42566        -80.2392
6.46                     -5.4858        -81.5356
6.48                    -5.54333        -82.7985
6.5                     -5.59796        -84.0275
