! TOUCHSTONE file generated by CST MICROWAVE STUDIO
! Date and time: Fri Oct 28 23:53:44 2022
! Project name: L.cst
! Parameters = {Di=1.27; Epsilon_r=1.56; InnerDiameter=1.27; Length=2; Lf=10; Lg=60; OuterConductorThickness=0.2921; OuterDiameter=3.6; Wf=3; Wp=41.2; de=1.5; df=6.8; g=0.8; gx=2.32407; gy=1.18306; h=2.34; hf=1.524; px=10.0039; py=10.2288; w=9.7; wx=7.67981; wy=9.0457}
! Header version: 2018
! Port assignment regex: !\s*Touchstone port\s*([0-9]+)\s*=\s*(CST MWS port|CST DS port)\s*([0-9]+|Zmin|Zmax)\s*\(\"(.*)\"\)(\s*mode\s*([0-9]+))?.*
! Touchstone port assignment:
! Touchstone port 1 = CST MWS port 1 ("")
# GHz S DB R 50
4.5                     -0.65898         71.3118
4.52                   -0.683273         69.3868
4.54                   -0.711344         67.4387
4.56                   -0.742783         65.4692
4.58                   -0.777162         63.4793
4.6                    -0.814053         61.4694
4.62                   -0.853041         59.4391
4.64                    -0.89374         57.3874
4.66                     -0.9358         55.3132
4.68                   -0.978915         53.2145
4.7                     -1.02283         51.0893
4.72                    -1.06734         48.9354
4.74                    -1.11229         46.7502
4.76                    -1.15757         44.5314
4.78                    -1.20314         42.2762
4.8                     -1.24897         39.9822
4.82                    -1.29509         37.6471
4.84                    -1.34155         35.2685
4.86                    -1.38844         32.8443
4.88                    -1.43585         30.3727
4.9                     -1.48389         27.8519
4.92                    -1.53269         25.2804
4.94                    -1.58234          22.657
4.96                    -1.63297         19.9806
4.98                    -1.68467         17.2504
5                       -1.73753         14.4658
5.02                    -1.79161         11.6265
5.04                    -1.84696         8.73221
5.06                    -1.90359         5.78304
5.08                    -1.96151         2.77919
5.1                     -2.02067       -0.278919
5.12                    -2.08103        -3.39068
5.14                     -2.1425         -6.5553
5.16                    -2.20496         -9.7718
5.18                    -2.26828         -13.039
5.2                      -2.3323        -16.3556
5.22                    -2.39684        -19.7201
5.24                    -2.46169        -23.1306
5.26                    -2.52665        -26.5852
5.28                    -2.59148        -30.0819
5.3                     -2.65594        -33.6183
5.32                    -2.71979        -37.1919
5.34                    -2.78277        -40.7998
5.36                    -2.84465        -44.4392
5.38                    -2.90518        -48.1068
5.4                     -2.96412        -51.7994
5.42                    -3.02127        -55.5135
5.44                    -3.07643        -59.2453
5.46                    -3.12942        -62.9911
5.48                    -3.18008         -66.747
5.5                     -3.22828        -70.5088
5.52                    -3.27393        -74.2726
5.54                    -3.31696        -78.0342
5.56                    -3.35732        -81.7894
5.58                    -3.39499        -85.5343
5.6                        -3.43        -89.2647
5.62                    -3.46239        -92.9768
5.64                    -3.49222        -96.6666
5.66                    -3.51957        -100.331
5.68                    -3.54455        -103.965
5.7                     -3.56728        -107.567
5.72                    -3.58788        -111.134
5.74                     -3.6065        -114.662
5.76                    -3.62326        -118.149
5.78                     -3.6383        -121.592
5.8                     -3.65176        -124.991
5.82                    -3.66376        -128.343
5.84                    -3.67441        -131.646
5.86                    -3.68384          -134.9
5.88                    -3.69212        -138.104
5.9                     -3.69934        -141.258
5.92                    -3.70559        -144.362
5.94                    -3.71092        -147.415
5.96                    -3.71539        -150.418
5.98                    -3.71906        -153.373
6                       -3.72198        -156.281
6.02                    -3.72422        -159.142
6.04                    -3.72586        -161.959
6.06                    -3.72698        -164.734
6.08                     -3.7277        -167.469
6.1                     -3.72816        -170.167
6.12                    -3.72855         -172.83
6.14                    -3.72909        -175.461
6.16                    -3.73006        -178.063
6.18                    -3.73178         179.362
6.2                     -3.73464          176.81
6.22                     -3.7391          174.28
6.24                    -3.74566         171.768
6.26                     -3.7549         169.273
6.28                    -3.76747         166.794
6.3                     -3.78408         164.329
6.32                    -3.80549         161.878
6.34                    -3.83251         159.442
6.36                    -3.86601         157.022
6.38                    -3.90688          154.62
6.4                     -3.95604         152.241
6.42                    -4.01438         149.888
6.44                    -4.08278         147.568
6.46                    -4.16208          145.29
6.48                    -4.25299         143.064
6.5                     -4.35608         140.902
