! TOUCHSTONE file generated by CST MICROWAVE STUDIO
! Date and time: Thu Oct 27 12:10:19 2022
! Project name: L.cst
! Parameters = {Di=1.27; Epsilon_r=1.56; InnerDiameter=1.27; Length=2; Lf=10; Lg=60; OuterConductorThickness=0.2921; OuterDiameter=3.6; Wf=3; Wp=41.2; de=1.5; df=6.8; g=0.8; gx=4.10561; gy=4.67991; h=2.34; hf=1.524; px=14.9076; py=14.5614; w=9.7; wx=10.802; wy=9.88148}
! Header version: 2018
! Port assignment regex: !\s*Touchstone port\s*([0-9]+)\s*=\s*(CST MWS port|CST DS port)\s*([0-9]+|Zmin|Zmax)\s*\(\"(.*)\"\)(\s*mode\s*([0-9]+))?.*
! Touchstone port assignment:
! Touchstone port 1 = CST MWS port 1 ("")
# GHz S DB R 50
4.5                    -0.605674         94.6776
4.52                   -0.626758         93.1963
4.54                   -0.647279         91.6563
4.56                    -0.67497         90.0908
4.58                   -0.705655         88.5484
4.6                    -0.732278         87.0061
4.62                   -0.757604         85.4191
4.64                   -0.788112         83.8007
4.66                   -0.822322         82.1908
4.68                   -0.854555         80.5821
4.7                    -0.885489         78.9388
4.72                   -0.920261         77.2621
4.74                   -0.959031         75.5831
4.76                   -0.997421         73.9041
4.78                    -1.03486         72.1975
4.8                     -1.07529         70.4572
4.82                    -1.11985         68.7066
4.84                    -1.16531         66.9536
4.86                    -1.21039         65.1778
4.88                    -1.25797         63.3692
4.9                     -1.30976         61.5444
4.92                    -1.36353         59.7144
4.94                    -1.41763         57.8649
4.96                     -1.4741         55.9838
4.98                    -1.53494         54.0825
5                       -1.59873         52.1735
5.02                    -1.66362          50.248
5.04                    -1.73092         48.2926
5.06                    -1.80278          46.314
5.08                    -1.87853         44.3254
5.1                      -1.9563         42.3226
5.12                    -2.03676         40.2924
5.14                    -2.12209         38.2372
5.16                    -2.21228         36.1703
5.18                    -2.30556         34.0918
5.2                     -2.40202         31.9893
5.22                    -2.50375         29.8617
5.24                    -2.61135         27.7214
5.26                    -2.72329         25.5724
5.28                    -2.83922         23.4041
5.3                       -2.961         21.2128
5.32                    -3.08974         19.0097
5.34                    -3.22421          16.802
5.36                    -3.36367         14.5814
5.38                    -3.50984         12.3422
5.4                     -3.66423         10.0945
5.42                    -3.82595         7.84904
5.44                    -3.99394         5.60015
5.46                    -4.16969         3.34047
5.48                    -4.35519         1.07958
5.5                     -4.54991        -1.16804
5.52                    -4.75249        -3.40408
5.54                    -4.96414        -5.63641
5.56                    -5.18724        -7.85543
5.58                    -5.42166        -10.0415
5.6                      -5.6657        -12.1905
5.62                    -5.92009        -14.3082
5.64                    -6.18736        -16.3822
5.66                     -6.4673        -18.3845
5.68                    -6.75714        -20.3022
5.7                     -7.05627        -22.1359
5.72                    -7.36594        -23.8668
5.74                     -7.6835        -25.4577
5.76                    -8.00223        -26.8948
5.78                    -8.31774        -28.1898
5.8                     -8.62759        -29.3377
5.82                    -8.92399         -30.327
5.84                    -9.19603        -31.2021
5.86                    -9.44131        -32.0499
5.88                    -9.66413        -32.9166
5.9                     -9.86231        -33.8286
5.92                    -10.0335        -34.8907
5.94                    -10.1941        -36.2224
5.96                    -10.3667         -37.799
5.98                    -10.5497        -39.5513
6                        -10.736        -41.6169
6.02                    -10.9611        -44.2022
6.04                    -11.2783        -47.1814
6.06                    -11.6774        -50.3204
6.08                    -12.1288        -54.1331
6.1                     -12.8017        -59.7535
6.12                     -14.175        -67.0517
6.14                    -16.9426        -72.0899
6.16                    -21.3478        -59.7661
6.18                    -21.4881        -20.0534
6.2                     -18.0556        -10.1383
6.22                    -16.6134        -14.8531
6.24                    -16.7045        -17.4672
6.26                    -16.8501        -13.3711
6.28                    -16.1887         -10.298
6.3                     -15.9023        -12.9919
6.32                    -16.9442        -13.8509
6.34                     -18.287       -0.177656
6.36                    -16.7164         19.7926
6.38                    -13.9106         25.0967
6.4                     -11.7035         22.8826
6.42                    -9.82469         17.6709
6.44                    -8.25128         8.11614
6.46                    -7.51387        -5.75863
6.48                      -8.196        -20.4668
6.5                     -10.7284         -27.341
