! TOUCHSTONE file generated by CST MICROWAVE STUDIO
! Date and time: Thu Oct 27 01:14:00 2022
! Project name: L.cst
! Parameters = {Di=1.27; Epsilon_r=1.56; InnerDiameter=1.27; Length=2; Lf=10; Lg=60; OuterConductorThickness=0.2921; OuterDiameter=3.6; Wf=3; Wp=41.2; de=1.5; df=6.8; g=0.8; gx=3.58118; gy=2.97141; h=2.34; hf=1.524; px=8.09867; py=10.6083; w=9.7; wx=4.51748; wy=7.63688}
! Header version: 2018
! Port assignment regex: !\s*Touchstone port\s*([0-9]+)\s*=\s*(CST MWS port|CST DS port)\s*([0-9]+|Zmin|Zmax)\s*\(\"(.*)\"\)(\s*mode\s*([0-9]+))?.*
! Touchstone port assignment:
! Touchstone port 1 = CST MWS port 1 ("")
# GHz S DB R 50
4.5                    -0.304665         90.7878
4.52                   -0.312091         89.3662
4.54                   -0.319677          87.934
4.56                   -0.327433         86.4912
4.58                   -0.335365         85.0378
4.6                    -0.343476         83.5736
4.62                    -0.35177         82.0987
4.64                   -0.360244         80.6129
4.66                   -0.368898         79.1161
4.68                   -0.377727         77.6084
4.7                    -0.386728         76.0895
4.72                   -0.395895         74.5594
4.74                   -0.405226          73.018
4.76                   -0.414714         71.4652
4.78                   -0.424355         69.9009
4.8                    -0.434144         68.3249
4.82                   -0.444078         66.7371
4.84                   -0.454153         65.1375
4.86                   -0.464366         63.5259
4.88                   -0.474715         61.9023
4.9                    -0.485198         60.2666
4.92                   -0.495813         58.6185
4.94                    -0.50656         56.9582
4.96                   -0.517438         55.2855
4.98                   -0.528446         53.6004
5                      -0.539585         51.9028
5.02                   -0.550854         50.1927
5.04                   -0.562254           48.47
5.06                   -0.573785         46.7348
5.08                   -0.585446         44.9871
5.1                    -0.597235         43.2269
5.12                   -0.609154         41.4542
5.14                     -0.6212         39.6692
5.16                   -0.633373         37.8718
5.18                   -0.645668         36.0621
5.2                    -0.658084         34.2403
5.22                   -0.670618         32.4065
5.24                   -0.683265         30.5608
5.26                   -0.696019         28.7034
5.28                   -0.708877         26.8344
5.3                    -0.721831          24.954
5.32                   -0.734876         23.0623
5.34                   -0.748004         21.1597
5.36                   -0.761207         19.2463
5.38                   -0.774476         17.3224
5.4                    -0.787803         15.3883
5.42                   -0.801177         13.4441
5.44                   -0.814589         11.4903
5.46                   -0.828028         9.52702
5.48                   -0.841485         7.55467
5.5                    -0.854947         5.57358
5.52                   -0.868403         3.58407
5.54                   -0.881842          1.5865
5.56                   -0.895252        -0.41875
5.58                   -0.908621        -2.43131
5.6                    -0.921938        -4.45077
5.62                    -0.93519        -6.47675
5.64                   -0.948367        -8.50881
5.66                   -0.961455        -10.5465
5.68                   -0.974443        -12.5895
5.7                    -0.987321        -14.6372
5.72                    -1.00007        -16.6892
5.74                    -1.01269        -18.7451
5.76                    -1.02517        -20.8043
5.78                    -1.03749        -22.8665
5.8                     -1.04964        -24.9311
5.82                    -1.06161        -26.9977
5.84                     -1.0734        -29.0657
5.86                    -1.08498        -31.1347
5.88                    -1.09636        -33.2041
5.9                     -1.10751        -35.2736
5.92                    -1.11843        -37.3425
5.94                    -1.12912        -39.4105
5.96                    -1.13955        -41.4771
5.98                    -1.14972        -43.5417
6                       -1.15961         -45.604
6.02                    -1.16923        -47.6635
6.04                    -1.17855        -49.7197
6.06                    -1.18757        -51.7723
6.08                    -1.19627        -53.8208
6.1                     -1.20465        -55.8649
6.12                     -1.2127        -57.9043
6.14                    -1.22041        -59.9385
6.16                    -1.22777        -61.9672
6.18                    -1.23477        -63.9903
6.2                     -1.24141        -66.0073
6.22                    -1.24767        -68.0181
6.24                    -1.25357        -70.0225
6.26                    -1.25909        -72.0203
6.28                    -1.26423        -74.0113
6.3                     -1.26901        -75.9955
6.32                    -1.27341        -77.9726
6.34                    -1.27746        -79.9428
6.36                    -1.28116        -81.9058
6.38                    -1.28453        -83.8618
6.4                     -1.28759        -85.8106
6.42                    -1.29036        -87.7524
6.44                    -1.29288         -89.687
6.46                    -1.29517        -91.6146
6.48                    -1.29727        -93.5351
6.5                     -1.29922        -95.4487
