! TOUCHSTONE file generated by CST MICROWAVE STUDIO
! Date and time: Sat Oct 29 22:24:55 2022
! Project name: L.cst
! Parameters = {Di=1.27; Epsilon_r=1.56; InnerDiameter=1.27; Length=2; Lf=10; Lg=60; OuterConductorThickness=0.2921; OuterDiameter=3.6; Wf=3; Wp=41.2; de=1.5; df=6.8; g=0.8; gx=4.72155; gy=1.05469; h=2.34; hf=1.524; px=13.5943; py=9.02865; w=9.7; wx=8.87277; wy=7.97396}
! Header version: 2018
! Port assignment regex: !\s*Touchstone port\s*([0-9]+)\s*=\s*(CST MWS port|CST DS port)\s*([0-9]+|Zmin|Zmax)\s*\(\"(.*)\"\)(\s*mode\s*([0-9]+))?.*
! Touchstone port assignment:
! Touchstone port 1 = CST MWS port 1 ("")
# GHz S DB R 50
4.5                    -0.832702         75.6053
4.52                   -0.893209         73.5333
4.54                   -0.953751         71.4389
4.56                    -1.01397         69.3158
4.58                    -1.07369         67.1575
4.6                     -1.13288         64.9575
4.62                    -1.19164         62.7098
4.64                    -1.25021         60.4085
4.66                    -1.30891         58.0484
4.68                    -1.36813         55.6246
4.7                     -1.42831         53.1331
4.72                    -1.48991         50.5703
4.74                    -1.55339         47.9332
4.76                    -1.61919         45.2195
4.78                    -1.68775          42.427
4.8                     -1.75941         39.5545
4.82                    -1.83449         36.6008
4.84                    -1.91324         33.5652
4.86                    -1.99584         30.4474
4.88                    -2.08239          27.247
4.9                     -2.17289         23.9643
4.92                    -2.26729         20.5994
4.94                    -2.36545         17.1528
4.96                    -2.46713         13.6252
4.98                    -2.57202         10.0175
5                       -2.67973         6.33057
5.02                    -2.78979         2.56588
5.04                    -2.90165          -1.275
5.06                    -3.01472        -5.19015
5.08                    -3.12831        -9.17723
5.1                      -3.2417        -13.2335
5.12                    -3.35413        -17.3557
5.14                    -3.46479          -21.54
5.16                    -3.57286        -25.7821
5.18                    -3.67754         -30.077
5.2                     -3.77801         -34.419
5.22                     -3.8735         -38.802
5.24                    -3.96331        -43.2189
5.26                    -4.04676        -47.6624
5.28                    -4.12331        -52.1246
5.3                     -4.19249        -56.5971
5.32                    -4.25394        -61.0713
5.34                    -4.30743        -65.5383
5.36                    -4.35286        -69.9893
5.38                    -4.39024        -74.4155
5.4                      -4.4197        -78.8084
5.42                    -4.44151        -83.1599
5.44                    -4.45601        -87.4622
5.46                    -4.46363        -91.7083
5.48                    -4.46489        -95.8917
5.5                     -4.46033        -100.007
5.52                    -4.45054        -104.048
5.54                    -4.43614        -108.012
5.56                    -4.41773        -111.895
5.58                    -4.39591        -115.694
5.6                     -4.37124        -119.406
5.62                    -4.34426        -123.031
5.64                    -4.31546        -126.567
5.66                    -4.28529        -130.015
5.68                    -4.25413        -133.373
5.7                     -4.22233        -136.642
5.72                    -4.19017        -139.825
5.74                    -4.15788        -142.921
5.76                    -4.12566        -145.932
5.78                    -4.09364        -148.861
5.8                     -4.06193        -151.709
5.82                    -4.03059         -154.48
5.84                    -3.99967        -157.174
5.86                    -3.96919        -159.797
5.88                    -3.93916        -162.349
5.9                     -3.90958        -164.835
5.92                    -3.88044        -167.258
5.94                    -3.85175        -169.621
5.96                    -3.82352        -171.928
5.98                    -3.79579        -174.182
6                       -3.76861        -176.386
6.02                    -3.74205        -178.543
6.04                    -3.71623         179.342
6.06                    -3.69127         177.268
6.08                    -3.66733          175.23
6.1                      -3.6446         173.227
6.12                     -3.6233         171.256
6.14                    -3.60365         169.315
6.16                    -3.58591         167.401
6.18                    -3.57034         165.515
6.2                     -3.55718         163.655
6.22                    -3.54671          161.82
6.24                    -3.53915          160.01
6.26                    -3.53472         158.225
6.28                    -3.53358         156.467
6.3                     -3.53588         154.736
6.32                    -3.54168         153.033
6.34                    -3.55096         151.362
6.36                    -3.56365         149.722
6.38                    -3.57956         148.117
6.4                     -3.59843         146.548
6.42                    -3.61985         145.017
6.44                    -3.64334         143.526
6.46                     -3.6683         142.076
6.48                    -3.69401         140.667
6.5                     -3.71969         139.299
