! TOUCHSTONE file generated by CST MICROWAVE STUDIO
! Date and time: Wed Oct 26 23:48:52 2022
! Project name: L.cst
! Parameters = {Di=1.27; Epsilon_r=1.56; InnerDiameter=1.27; Length=2; Lf=10; Lg=60; OuterConductorThickness=0.2921; OuterDiameter=3.6; Wf=3; Wp=41.2; de=1.5; df=6.8; g=0.8; gx=4.18755; gy=4.7932; h=2.34; hf=1.524; px=9.20796; py=10.6433; w=9.7; wx=5.0204; wy=5.85009}
! Header version: 2018
! Port assignment regex: !\s*Touchstone port\s*([0-9]+)\s*=\s*(CST MWS port|CST DS port)\s*([0-9]+|Zmin|Zmax)\s*\(\"(.*)\"\)(\s*mode\s*([0-9]+))?.*
! Touchstone port assignment:
! Touchstone port 1 = CST MWS port 1 ("")
# GHz S DB R 50
4.5                    -0.276151         98.4431
4.52                   -0.282918         97.0467
4.54                   -0.289822         95.6413
4.56                   -0.296863         94.2269
4.58                   -0.304047         92.8033
4.6                    -0.311374         91.3706
4.62                   -0.318842         89.9288
4.64                   -0.326452         88.4776
4.66                   -0.334199         87.0172
4.68                   -0.342082         85.5474
4.7                    -0.350098         84.0682
4.72                   -0.358243         82.5794
4.74                   -0.366513         81.0812
4.76                   -0.374906         79.5733
4.78                   -0.383419         78.0558
4.8                    -0.392049         76.5285
4.82                   -0.400794         74.9914
4.84                   -0.409653         73.4445
4.86                   -0.418624         71.8877
4.88                   -0.427706          70.321
4.9                    -0.436898         68.7443
4.92                   -0.446201         67.1577
4.94                   -0.455615          65.561
4.96                   -0.465139         63.9544
4.98                   -0.474773         62.3378
5                      -0.484518         60.7112
5.02                   -0.494375         59.0747
5.04                   -0.504344         57.4283
5.06                   -0.514425         55.7721
5.08                   -0.524618         54.1061
5.1                    -0.534923         52.4304
5.12                   -0.545338         50.7451
5.14                   -0.555864         49.0503
5.16                   -0.566498         47.3462
5.18                    -0.57724         45.6328
5.2                    -0.588085         43.9103
5.22                   -0.599033         42.1788
5.24                    -0.61008         40.4386
5.26                   -0.621222         38.6899
5.28                   -0.632457         36.9327
5.3                    -0.643777         35.1674
5.32                   -0.655178         33.3941
5.34                   -0.666657         31.6131
5.36                   -0.678205         29.8246
5.38                   -0.689817         28.0288
5.4                    -0.701487         26.2261
5.42                   -0.713207         24.4168
5.44                    -0.72497          22.601
5.46                   -0.736769         20.7792
5.48                   -0.748594         18.9516
5.5                    -0.760439         17.1185
5.52                   -0.772294         15.2804
5.54                   -0.784152         13.4375
5.56                   -0.796003         11.5901
5.58                   -0.807839         9.73869
5.6                    -0.819651         7.88358
5.62                    -0.83143         6.02516
5.64                   -0.843166         4.16382
5.66                    -0.85485         2.29994
5.68                   -0.866473         0.43392
5.7                    -0.878027        -1.43383
5.72                   -0.889499         -3.3029
5.74                   -0.900883        -5.17288
5.76                   -0.912166        -7.04331
5.78                   -0.923341        -8.91385
5.8                    -0.934397         -10.784
5.82                   -0.945325        -12.6534
5.84                   -0.956113        -14.5216
5.86                   -0.966752        -16.3882
5.88                   -0.977233        -18.2527
5.9                    -0.987541        -20.1148
5.92                   -0.997669         -21.974
5.94                    -1.00761        -23.8298
5.96                    -1.01734         -25.682
5.98                    -1.02686        -27.5301
6                       -1.03615        -29.3737
6.02                    -1.04521        -31.2125
6.04                    -1.05402        -33.0461
6.06                    -1.06256        -34.8741
6.08                    -1.07084        -36.6962
6.1                     -1.07884         -38.512
6.12                    -1.08654        -40.3214
6.14                    -1.09395        -42.1239
6.16                    -1.10104        -43.9194
6.18                    -1.10782        -45.7075
6.2                     -1.11426        -47.4881
6.22                    -1.12038        -49.2609
6.24                    -1.12616        -51.0257
6.26                     -1.1316        -52.7823
6.28                    -1.13671        -54.5307
6.3                     -1.14147        -56.2707
6.32                     -1.1459        -58.0021
6.34                    -1.15001        -59.7248
6.36                     -1.1538        -61.4388
6.38                    -1.15728        -63.1439
6.4                     -1.16048        -64.8401
6.42                    -1.16341        -66.5272
6.44                    -1.16608        -68.2052
6.46                    -1.16853        -69.8741
6.48                    -1.17079        -71.5336
6.5                     -1.17287        -73.1838
