! TOUCHSTONE file generated by CST MICROWAVE STUDIO
! Date and time: Fri Oct 28 06:11:54 2022
! Project name: L.cst
! Parameters = {Di=1.27; Epsilon_r=1.56; InnerDiameter=1.27; Length=2; Lf=10; Lg=60; OuterConductorThickness=0.2921; OuterDiameter=3.6; Wf=3; Wp=41.2; de=1.5; df=6.8; g=0.8; gx=2.79908; gy=3.02499; h=2.34; hf=1.524; px=8.32754; py=9.38792; w=9.7; wx=5.52845; wy=6.36293}
! Header version: 2018
! Port assignment regex: !\s*Touchstone port\s*([0-9]+)\s*=\s*(CST MWS port|CST DS port)\s*([0-9]+|Zmin|Zmax)\s*\(\"(.*)\"\)(\s*mode\s*([0-9]+))?.*
! Touchstone port assignment:
! Touchstone port 1 = CST MWS port 1 ("")
# GHz S DB R 50
4.5                    -0.339607         89.5934
4.52                   -0.348528         88.1504
4.54                   -0.357699         86.6958
4.56                   -0.367126         85.2294
4.58                   -0.376816         83.7512
4.6                    -0.386769         82.2611
4.62                   -0.396984         80.7591
4.64                   -0.407455         79.2451
4.66                    -0.41818          77.719
4.68                   -0.429149         76.1807
4.7                    -0.440357         74.6299
4.72                   -0.451797         73.0668
4.74                   -0.463462         71.4911
4.76                   -0.475344         69.9026
4.78                   -0.487438         68.3013
4.8                    -0.499738         66.6869
4.82                   -0.512243         65.0593
4.84                   -0.524946         63.4185
4.86                   -0.537847         61.7642
4.88                   -0.550943         60.0963
4.9                    -0.564235         58.4148
4.92                   -0.577722         56.7195
4.94                   -0.591405         55.0103
4.96                   -0.605285         53.2871
4.98                   -0.619365         51.5499
5                      -0.633644         49.7987
5.02                   -0.648126         48.0334
5.04                    -0.66281         46.2539
5.06                   -0.677699         44.4605
5.08                   -0.692793         42.6529
5.1                    -0.708092         40.8314
5.12                   -0.723596         38.9959
5.14                   -0.739303         37.1466
5.16                   -0.755211         35.2836
5.18                   -0.771316          33.407
5.2                    -0.787615          31.517
5.22                   -0.804102         29.6137
5.24                    -0.82077         27.6974
5.26                   -0.837612         25.7683
5.28                    -0.85462         23.8266
5.3                    -0.871784         21.8726
5.32                   -0.889093         19.9065
5.34                   -0.906535         17.9287
5.36                   -0.924097         15.9395
5.38                   -0.941767         13.9392
5.4                    -0.959529         11.9282
5.42                   -0.977368         9.90682
5.44                   -0.995269         7.87556
5.46                    -1.01321         5.83478
5.48                    -1.03119         3.78494
5.5                     -1.04917         1.72648
5.52                    -1.06714       -0.340123
5.54                    -1.08509        -2.41438
5.56                    -1.10299        -4.49578
5.58                    -1.12083        -6.58381
5.6                     -1.13859        -8.67792
5.62                    -1.15625        -10.7776
5.64                    -1.17379        -12.8822
5.66                     -1.1912        -14.9912
5.68                    -1.20844         -17.104
5.7                     -1.22552          -19.22
5.72                     -1.2424        -21.3386
5.74                    -1.25908        -23.4592
5.76                    -1.27553        -25.5811
5.78                    -1.29173        -27.7037
5.8                     -1.30768        -29.8265
5.82                    -1.32335        -31.9487
5.84                    -1.33874        -34.0697
5.86                    -1.35381        -36.1888
5.88                    -1.36856        -38.3056
5.9                     -1.38297        -40.4192
5.92                    -1.39703        -42.5291
5.94                    -1.41072        -44.6347
5.96                    -1.42402        -46.7354
5.98                    -1.43692        -48.8307
6                       -1.44941        -50.9198
6.02                    -1.46148        -53.0023
6.04                     -1.4731        -55.0777
6.06                    -1.48426        -57.1455
6.08                    -1.49495        -59.2051
6.1                     -1.50517        -61.2561
6.12                    -1.51488        -63.2982
6.14                    -1.52409        -65.3308
6.16                    -1.53279        -67.3537
6.18                    -1.54096        -69.3665
6.2                      -1.5486        -71.3689
6.22                     -1.5557        -73.3607
6.24                    -1.56227        -75.3416
6.26                     -1.5683        -77.3115
6.28                    -1.57379        -79.2701
6.3                     -1.57876        -81.2175
6.32                    -1.58322        -83.1534
6.34                    -1.58717        -85.0778
6.36                    -1.59065        -86.9907
6.38                    -1.59367         -88.892
6.4                     -1.59627        -90.7817
6.42                    -1.59848        -92.6598
6.44                    -1.60034        -94.5263
6.46                    -1.60189        -96.3811
6.48                    -1.60318        -98.2242
6.5                     -1.60427        -100.056
