! TOUCHSTONE file generated by CST MICROWAVE STUDIO
! Date and time: Fri Oct 28 01:47:06 2022
! Project name: L.cst
! Parameters = {Di=1.27; Epsilon_r=1.56; InnerDiameter=1.27; Length=2; Lf=10; Lg=60; OuterConductorThickness=0.2921; OuterDiameter=3.6; Wf=3; Wp=41.2; de=1.5; df=6.8; g=0.8; gx=2.78479; gy=4.01134; h=2.34; hf=1.524; px=14.981; py=14.0309; w=9.7; wx=12.1962; wy=10.0196}
! Header version: 2018
! Port assignment regex: !\s*Touchstone port\s*([0-9]+)\s*=\s*(CST MWS port|CST DS port)\s*([0-9]+|Zmin|Zmax)\s*\(\"(.*)\"\)(\s*mode\s*([0-9]+))?.*
! Touchstone port assignment:
! Touchstone port 1 = CST MWS port 1 ("")
# GHz S DB R 50
4.5                     -1.37007         86.8343
4.52                    -1.43199         85.1933
4.54                    -1.52407         83.5901
4.56                     -1.6194         81.8111
4.58                    -1.69843         80.0914
4.6                     -1.79975         78.4538
4.62                    -1.91366         76.6799
4.64                    -2.01354         74.9052
4.66                    -2.12825         73.2328
4.68                    -2.26122         71.4725
4.7                     -2.38513         69.6702
4.72                    -2.51747         67.9749
4.74                    -2.67067         66.2413
4.76                    -2.82108         64.4451
4.78                    -2.97469         62.7494
4.8                     -3.14964         61.0631
4.82                    -3.32797         59.3141
4.84                    -3.50556         57.6512
4.86                    -3.70305         56.0431
4.88                    -3.90906         54.3876
4.9                     -4.11182         52.8007
4.92                    -4.33088         51.3095
4.94                    -4.56206         49.7979
4.96                    -4.78824         48.3368
4.98                    -5.02499         47.0014
5                       -5.27542         45.6785
5.02                    -5.51977         44.3849
5.04                     -5.7673         43.2301
5.06                    -6.02766         42.1176
5.08                    -6.28207         41.0057
5.1                     -6.53173         40.0192
5.12                    -6.79219         39.0903
5.14                    -7.04955         38.1238
5.16                    -7.29685         37.2344
5.18                    -7.55484         36.3989
5.2                     -7.81831         35.4829
5.22                    -8.07479         34.5699
5.24                    -8.34882         33.7027
5.26                     -8.6482         32.7384
5.28                    -8.95937         31.7309
5.3                     -9.30863         30.8266
5.32                    -9.72005         29.9503
5.34                    -10.1806          29.186
5.36                    -10.7071         28.8929
5.38                    -11.3218         29.2402
5.4                     -11.9741         30.4372
5.42                    -12.5899          32.986
5.44                    -13.1019         36.8412
5.46                    -13.4126         41.1798
5.48                    -13.4992         45.3076
5.5                     -13.5081          48.903
5.52                    -13.5761         52.0108
5.54                     -13.692         55.5572
5.56                      -13.77         60.8545
5.58                     -13.607         67.9554
5.6                     -12.9228         75.2128
5.62                    -11.7243         80.5705
5.64                    -10.3398         82.7485
5.66                    -9.03035          81.669
5.68                    -7.90737         78.4467
5.7                     -7.09043         74.3204
5.72                    -6.61397         70.8137
5.74                    -5.71948         69.1048
5.76                    -4.77538         62.2657
5.78                    -4.39523         54.9437
5.8                     -4.19803         47.8103
5.82                    -4.11804         40.6358
5.84                    -4.23743         32.7044
5.86                    -4.64096         22.9279
5.88                    -5.72075         10.2812
5.9                      -9.1136         -7.0727
5.92                    -25.8083         28.3294
5.94                    -8.79724         94.2563
5.96                    -4.74582         74.1165
5.98                    -3.45203         59.6491
6                       -2.84234         48.8618
6.02                    -2.51273         40.8523
6.04                      -2.547         33.0221
6.06                    -3.11934         21.3428
6.08                    -4.70155         36.3807
6.1                     -2.18007         30.5788
6.12                    -1.96898         24.5849
6.14                    -1.91156         18.8129
6.16                    -1.74144         14.2095
6.18                    -1.68588         10.6317
6.2                     -1.69256         6.56237
6.22                    -1.60191         2.59107
6.24                    -1.55077       -0.692865
6.26                     -1.5729        -4.32331
6.28                    -1.52312        -8.15678
6.3                     -1.47963        -11.4259
6.32                    -1.52099        -14.8961
6.34                    -1.51608        -18.7335
6.36                    -1.49337        -22.0203
6.38                    -1.53911        -25.2381
6.4                     -1.51306        -29.2197
6.42                     -1.4652        -33.2417
6.44                    -1.55264        -37.3548
6.46                    -1.68147         -42.382
6.48                    -1.81635        -47.6418
6.5                     -2.23035        -53.4623
