! TOUCHSTONE file generated by CST MICROWAVE STUDIO
! Date and time: Fri Oct 28 05:05:48 2022
! Project name: L.cst
! Parameters = {Di=1.27; Epsilon_r=1.56; InnerDiameter=1.27; Length=2; Lf=10; Lg=60; OuterConductorThickness=0.2921; OuterDiameter=3.6; Wf=3; Wp=41.2; de=1.5; df=6.8; g=0.8; gx=2.48375; gy=4.858; h=2.34; hf=1.524; px=11.8344; py=9.13022; w=9.7; wx=9.35069; wy=4.27221}
! Header version: 2018
! Port assignment regex: !\s*Touchstone port\s*([0-9]+)\s*=\s*(CST MWS port|CST DS port)\s*([0-9]+|Zmin|Zmax)\s*\(\"(.*)\"\)(\s*mode\s*([0-9]+))?.*
! Touchstone port assignment:
! Touchstone port 1 = CST MWS port 1 ("")
# GHz S DB R 50
4.5                    -0.450689         94.8309
4.52                   -0.465219         93.3311
4.54                   -0.480298         91.8194
4.56                   -0.495931         90.2958
4.58                   -0.512118         88.7602
4.6                    -0.528858         87.2128
4.62                   -0.546146         85.6532
4.64                   -0.563977         84.0816
4.66                   -0.582345         82.4978
4.68                   -0.601248         80.9017
4.7                    -0.620681          79.293
4.72                   -0.640643         77.6718
4.74                   -0.661133         76.0377
4.76                   -0.682155         74.3907
4.78                   -0.703712         72.7306
4.8                    -0.725812         71.0571
4.82                   -0.748463         69.3701
4.84                   -0.771678         67.6696
4.86                   -0.795471         65.9552
4.88                   -0.819854         64.2269
4.9                    -0.844847         62.4845
4.92                   -0.870465          60.728
4.94                   -0.896731         58.9573
4.96                   -0.923663         57.1724
4.98                   -0.951281         55.3731
5                      -0.979607         53.5594
5.02                    -1.00866         51.7315
5.04                    -1.03846         49.8892
5.06                    -1.06904         48.0328
5.08                     -1.1004         46.1621
5.1                     -1.13257         44.2775
5.12                    -1.16556         42.3789
5.14                    -1.19939         40.4665
5.16                    -1.23408         38.5406
5.18                    -1.26964         36.6013
5.2                     -1.30608         34.6488
5.22                    -1.34342         32.6834
5.24                    -1.38166         30.7053
5.26                     -1.4208          28.715
5.28                    -1.46087         26.7125
5.3                     -1.50186         24.6984
5.32                    -1.54378         22.6729
5.34                    -1.58662         20.6364
5.36                    -1.63039         18.5893
5.38                     -1.6751          16.532
5.4                     -1.72073         14.4651
5.42                    -1.76729         12.3888
5.44                    -1.81477         10.3037
5.46                    -1.86317         8.21039
5.48                    -1.91248         6.10926
5.5                      -1.9627         4.00088
5.52                    -2.01382         1.88582
5.54                    -2.06583       -0.235353
5.56                    -2.11873        -2.36203
5.58                    -2.17251         -4.4936
5.6                     -2.22716        -6.62943
5.62                    -2.28267        -8.76886
5.64                    -2.33902        -10.9112
5.66                    -2.39622        -13.0558
5.68                    -2.45425        -15.2019
5.7                      -2.5131        -17.3489
5.72                    -2.57276        -19.4958
5.74                    -2.63322        -21.6421
5.76                    -2.69447        -23.7869
5.78                    -2.75649        -25.9294
5.8                     -2.81928        -28.0689
5.82                    -2.88282        -30.2045
5.84                    -2.94709        -32.3355
5.86                    -3.01209        -34.4609
5.88                     -3.0778          -36.58
5.9                     -3.14419        -38.6919
5.92                    -3.21127        -40.7958
5.94                    -3.27899        -42.8908
5.96                    -3.34736        -44.9762
5.98                    -3.41635         -47.051
6                       -3.48593        -49.1145
6.02                    -3.55609        -51.1659
6.04                     -3.6268        -53.2043
6.06                    -3.69803         -55.229
6.08                    -3.76978        -57.2392
6.1                       -3.842        -59.2342
6.12                    -3.91468        -61.2133
6.14                    -3.98778        -63.1757
6.16                     -4.0613        -65.1209
6.18                    -4.13519        -67.0481
6.2                     -4.20945        -68.9567
6.22                    -4.28405        -70.8463
6.24                    -4.35897        -72.7161
6.26                    -4.43421        -74.5657
6.28                    -4.50975        -76.3946
6.3                     -4.58558        -78.2023
6.32                    -4.66171        -79.9882
6.34                    -4.73815        -81.7518
6.36                    -4.81489        -83.4928
6.38                    -4.89197        -85.2104
6.4                     -4.96939        -86.9042
6.42                    -5.04719        -88.5734
6.44                    -5.12539        -90.2174
6.46                    -5.20401        -91.8355
6.48                     -5.2831        -93.4266
6.5                     -5.36267        -94.9898
