! TOUCHSTONE file generated by CST MICROWAVE STUDIO
! Date and time: Fri Oct 28 15:01:09 2022
! Project name: L.cst
! Parameters = {Di=1.27; Epsilon_r=1.56; InnerDiameter=1.27; Length=2; Lf=10; Lg=60; OuterConductorThickness=0.2921; OuterDiameter=3.6; Wf=3; Wp=41.2; de=1.5; df=6.8; g=0.8; gx=2.90791; gy=4.92049; h=2.34; hf=1.524; px=10.6649; py=12.1914; w=9.7; wx=7.75698; wy=7.27087}
! Header version: 2018
! Port assignment regex: !\s*Touchstone port\s*([0-9]+)\s*=\s*(CST MWS port|CST DS port)\s*([0-9]+|Zmin|Zmax)\s*\(\"(.*)\"\)(\s*mode\s*([0-9]+))?.*
! Touchstone port assignment:
! Touchstone port 1 = CST MWS port 1 ("")
# GHz S DB R 50
4.5                    -0.364313         96.7434
4.52                   -0.374415         95.3226
4.54                   -0.384778         93.8919
4.56                   -0.395409         92.4511
4.58                   -0.406318         91.0003
4.6                    -0.417507         89.5393
4.62                   -0.428978         88.0683
4.64                   -0.440734         86.5869
4.66                   -0.452771         85.0953
4.68                    -0.46509         83.5934
4.7                    -0.477688          82.081
4.72                   -0.490564          80.558
4.74                   -0.503716         79.0245
4.76                   -0.517142         77.4803
4.78                   -0.530842         75.9253
4.8                    -0.544815         74.3594
4.82                   -0.559061         72.7825
4.84                   -0.573582         71.1945
4.86                   -0.588378         69.5954
4.88                   -0.603454         67.9851
4.9                     -0.61881         66.3635
4.92                   -0.634453         64.7305
4.94                   -0.650384         63.0862
4.96                   -0.666609         61.4304
4.98                   -0.683133         59.7632
5                       -0.69996         58.0845
5.02                   -0.717097         56.3943
5.04                   -0.734546         54.6927
5.06                   -0.752316         52.9796
5.08                   -0.770408         51.2552
5.1                     -0.78883         49.5195
5.12                   -0.807581         47.7725
5.14                    -0.82667         46.0144
5.16                   -0.846096         44.2452
5.18                   -0.865863         42.4651
5.2                    -0.885973         40.6743
5.22                   -0.906425         38.8729
5.24                   -0.927221          37.061
5.26                   -0.948359         35.2389
5.28                   -0.969839         33.4067
5.3                    -0.991658         31.5646
5.32                    -1.01381          29.713
5.34                     -1.0363          27.852
5.36                    -1.05911         25.9819
5.38                    -1.08225         24.1031
5.4                      -1.1057         22.2157
5.42                    -1.12946         20.3201
5.44                    -1.15352         18.4166
5.46                    -1.17788         16.5056
5.48                    -1.20251         14.5874
5.5                     -1.22743         12.6624
5.52                     -1.2526         10.7309
5.54                    -1.27803         8.79341
5.56                     -1.3037         6.85023
5.58                     -1.3296         4.90182
5.6                     -1.35572          2.9486
5.62                    -1.38204        0.991008
5.64                    -1.40855       -0.970496
5.66                    -1.43525        -2.93546
5.68                     -1.4621        -4.90341
5.7                      -1.4891        -6.87386
5.72                    -1.51624        -8.84633
5.74                    -1.54349        -10.8203
5.76                    -1.57085        -12.7953
5.78                    -1.59828        -14.7709
5.8                     -1.62579        -16.7464
5.82                    -1.65335        -18.7215
5.84                    -1.68093        -20.6955
5.86                    -1.70853        -22.6681
5.88                    -1.73613        -24.6386
5.9                     -1.76369        -26.6065
5.92                    -1.79121        -28.5715
5.94                    -1.81866        -30.5329
5.96                    -1.84602        -32.4903
5.98                    -1.87327        -34.4432
6                       -1.90038        -36.3911
6.02                    -1.92733        -38.3337
6.04                    -1.95411        -40.2704
6.06                    -1.98068        -42.2009
6.08                    -2.00703        -44.1248
6.1                     -2.03312        -46.0417
6.12                    -2.05895        -47.9513
6.14                    -2.08449        -49.8533
6.16                    -2.10972        -51.7474
6.18                    -2.13461        -53.6333
6.2                     -2.15917        -55.5109
6.22                    -2.18337        -57.3798
6.24                    -2.20719        -59.2401
6.26                    -2.23065        -61.0914
6.28                    -2.25372        -62.9337
6.3                     -2.27641         -64.767
6.32                    -2.29873        -66.5911
6.34                    -2.32069        -68.4061
6.36                    -2.34229        -70.2119
6.38                    -2.36357        -72.0085
6.4                     -2.38455        -73.7959
6.42                    -2.40527        -75.5741
6.44                    -2.42575        -77.3431
6.46                    -2.44606        -79.1028
6.48                    -2.46623        -80.8533
6.5                     -2.48632        -82.5944
