! TOUCHSTONE file generated by CST MICROWAVE STUDIO
! Date and time: Sat Oct 29 03:05:57 2022
! Project name: L.cst
! Parameters = {Di=1.27; Epsilon_r=1.56; InnerDiameter=1.27; Length=2; Lf=10; Lg=60; OuterConductorThickness=0.2921; OuterDiameter=3.6; Wf=3; Wp=41.2; de=1.5; df=6.8; g=0.8; gx=0.661367; gy=1.07365; h=2.34; hf=1.524; px=12.3933; py=12.5498; w=9.7; wx=11.7319; wy=11.4762}
! Header version: 2018
! Port assignment regex: !\s*Touchstone port\s*([0-9]+)\s*=\s*(CST MWS port|CST DS port)\s*([0-9]+|Zmin|Zmax)\s*\(\"(.*)\"\)(\s*mode\s*([0-9]+))?.*
! Touchstone port assignment:
! Touchstone port 1 = CST MWS port 1 ("")
# GHz S DB R 50
4.5                      -8.4992         91.9148
4.52                      -8.376         92.6119
4.54                     -8.1553         92.8271
4.56                    -8.00844         92.5034
4.58                    -7.83738         92.3708
4.6                     -7.65059         91.5587
4.62                    -7.53166         90.7069
4.64                    -7.37068         89.7514
4.66                    -7.25248          88.302
4.68                    -7.16144         86.9903
4.7                     -7.05037         85.3407
4.72                    -6.99965         83.4836
4.74                    -6.94464          81.678
4.76                     -6.9054         79.4714
4.78                    -6.91521         77.2491
4.8                     -6.91503         74.8828
4.82                    -6.95995         72.1806
4.84                    -7.03474         69.4864
4.86                    -7.11776         66.4597
4.88                    -7.26287         63.1828
4.9                     -7.43001         59.7758
4.92                    -7.64052         55.8841
4.94                    -7.92652         51.7316
4.96                    -8.25353         47.1624
4.98                    -8.67767           41.91
5                       -9.21123         36.1431
5.02                    -9.85354         29.4055
5.04                    -10.6926         21.4091
5.06                    -11.7421         11.8972
5.08                    -13.0487       -0.379273
5.1                      -14.686        -16.8945
5.12                    -16.4075        -40.2671
5.14                    -17.3636        -73.1114
5.16                    -16.5121        -108.936
5.18                    -14.3946        -137.391
5.2                      -12.164         -158.36
5.22                    -10.3026        -174.836
5.24                    -8.83921         171.475
5.26                    -7.71525         159.369
5.28                    -6.91889         148.352
5.3                     -6.40007          138.34
5.32                    -6.13232         129.081
5.34                    -6.13731         120.711
5.36                    -6.39311         113.631
5.38                    -6.88156         108.255
5.4                     -7.52977          105.56
5.42                    -8.07826         106.116
5.44                    -8.24633         108.984
5.46                    -7.89758         112.098
5.48                    -7.18928         113.264
5.5                      -6.4147         112.229
5.52                    -5.69406         109.644
5.54                    -5.09134         105.975
5.56                    -4.61556         101.865
5.58                    -4.22354         97.5023
5.6                      -3.9215         92.9597
5.62                    -3.68235         88.4665
5.64                    -3.48168          83.873
5.66                    -3.33746          79.226
5.68                    -3.22031         74.5959
5.7                     -3.13552         69.7812
5.72                    -3.09777         64.9357
5.74                    -3.07543          60.006
5.76                    -3.09367         54.8447
5.78                    -3.14795         49.6431
5.8                     -3.21551         44.1771
5.82                    -3.33681         38.3999
5.84                    -3.48746         32.4349
5.86                    -3.67134         25.9042
5.88                    -3.93618         18.8897
5.9                     -4.24534         11.3122
5.92                    -4.64799         2.64233
5.94                    -5.19879        -7.00673
5.96                    -5.87523         -18.184
5.98                    -6.81282        -31.8658
6                       -8.11509        -48.5333
6.02                    -9.78641         -70.671
6.04                    -11.8487        -103.143
6.06                    -13.2359         -149.96
6.08                    -11.9699         158.841
6.1                      -9.4218         117.239
6.12                    -7.43451         83.0512
6.14                    -6.23785         52.4181
6.16                    -5.59798         21.8387
6.18                    -5.46023        -11.3868
6.2                     -5.62694        -47.5065
6.22                    -5.51868        -85.7727
6.24                     -4.8798        -124.589
6.26                    -4.13107        -159.875
6.28                    -3.44887         172.008
6.3                     -2.63992         148.863
6.32                    -2.17997         127.613
6.34                    -2.14045         111.464
6.36                    -1.67564         96.8594
6.38                    -2.06481         76.6809
6.4                     -5.16881         67.0558
6.42                    -4.93219         90.3492
6.44                    -1.25737         80.8599
6.46                    -0.65981         61.1695
6.48                     -1.1188         51.8192
6.5                    -0.675421         43.7026
