! TOUCHSTONE file generated by CST MICROWAVE STUDIO
! Date and time: Fri Oct 28 14:28:35 2022
! Project name: L.cst
! Parameters = {Di=1.27; Epsilon_r=1.56; InnerDiameter=1.27; Length=2; Lf=10; Lg=60; OuterConductorThickness=0.2921; OuterDiameter=3.6; Wf=3; Wp=41.2; de=1.5; df=6.8; g=0.8; gx=4.49935; gy=4.99854; h=2.34; hf=1.524; px=12.271; py=14.5886; w=9.7; wx=7.77165; wy=9.5901}
! Header version: 2018
! Port assignment regex: !\s*Touchstone port\s*([0-9]+)\s*=\s*(CST MWS port|CST DS port)\s*([0-9]+|Zmin|Zmax)\s*\(\"(.*)\"\)(\s*mode\s*([0-9]+))?.*
! Touchstone port assignment:
! Touchstone port 1 = CST MWS port 1 ("")
# GHz S DB R 50
4.5                    -0.360075         97.8702
4.52                   -0.366069         96.4618
4.54                   -0.372369         95.0352
4.56                   -0.379305         93.5917
4.58                   -0.387117         92.1326
4.6                    -0.395951         90.6598
4.62                   -0.405858         89.1748
4.64                   -0.416812         87.6794
4.66                   -0.428713         86.1749
4.68                   -0.441419         84.6623
4.7                    -0.454754         83.1421
4.72                   -0.468532         81.6147
4.74                   -0.482572         80.0799
4.76                   -0.496714         78.5371
4.78                   -0.510832         76.9857
4.8                    -0.524835         75.4247
4.82                   -0.538674         73.8532
4.84                   -0.552342         72.2702
4.86                   -0.565872         70.6747
4.88                   -0.579325          69.066
4.9                    -0.592788         67.4434
4.92                   -0.606361         65.8065
4.94                   -0.620152         64.1552
4.96                   -0.634263         62.4894
4.98                   -0.648787         60.8093
5                      -0.663797         59.1152
5.02                   -0.679349         57.4076
5.04                   -0.695474         55.6869
5.06                   -0.712177         53.9538
5.08                   -0.729442         52.2086
5.1                    -0.747232         50.4518
5.12                   -0.765496         48.6838
5.14                   -0.784172         46.9048
5.16                   -0.803192         45.1149
5.18                   -0.822488         43.3142
5.2                    -0.842001         41.5024
5.22                   -0.861678         39.6794
5.24                   -0.881484          37.845
5.26                   -0.901396         35.9988
5.28                   -0.921415         34.1404
5.3                    -0.941557         32.2696
5.32                   -0.961849         30.3862
5.34                    -0.98234         28.4901
5.36                    -1.00308         26.5811
5.38                    -1.02414         24.6594
5.4                     -1.04558         22.7251
5.42                    -1.06745         20.7787
5.44                    -1.08981         18.8205
5.46                    -1.11269         16.8511
5.48                    -1.13612         14.8712
5.5                     -1.16011         12.8814
5.52                    -1.18465         10.8825
5.54                     -1.2097         8.87497
5.56                    -1.23521         6.85961
5.58                    -1.26114         4.83692
5.6                      -1.2874         2.80733
5.62                    -1.31394        0.771167
5.64                    -1.34066        -1.27136
5.66                     -1.3675        -3.32019
5.68                    -1.39441        -5.37536
5.7                     -1.42134        -7.43703
5.72                    -1.44829         -9.5054
5.74                    -1.47524        -11.5807
5.76                    -1.50224        -13.6631
5.78                    -1.52934         -15.753
5.8                     -1.55662        -17.8503
5.82                    -1.58417        -19.9549
5.84                    -1.61212        -22.0666
5.86                    -1.64056         -24.185
5.88                    -1.66962        -26.3094
5.9                      -1.6994        -28.4389
5.92                    -1.72996        -30.5725
5.94                    -1.76134        -32.7091
5.96                    -1.79354        -34.8473
5.98                    -1.82651         -36.986
6                       -1.86015         -39.124
6.02                    -1.89429        -41.2605
6.04                    -1.92874         -43.395
6.06                    -1.96325        -45.5275
6.08                    -1.99757        -47.6584
6.1                     -2.03144        -49.7892
6.12                    -2.06464        -51.9218
6.14                    -2.09699        -54.0592
6.16                    -2.12844        -56.2049
6.18                    -2.15905        -58.3633
6.2                     -2.18908        -60.5394
6.22                    -2.21898        -62.7384
6.24                    -2.24945        -64.9655
6.26                    -2.28142        -67.2257
6.28                    -2.31614        -69.5234
6.3                     -2.35509        -71.8618
6.32                    -2.40002        -74.2427
6.34                     -2.4529        -76.6658
6.36                    -2.51591        -79.1283
6.38                    -2.59139        -81.6249
6.4                     -2.68174        -84.1467
6.42                    -2.78941        -86.6813
6.44                    -2.91676        -89.2119
6.46                      -3.066        -91.7172
6.48                    -3.23898        -94.1706
6.5                     -3.43705        -96.5398
