! TOUCHSTONE file generated by CST MICROWAVE STUDIO
! Date and time: Thu Oct 27 18:35:23 2022
! Project name: L.cst
! Parameters = {Di=1.27; Epsilon_r=1.56; InnerDiameter=1.27; Length=2; Lf=10; Lg=60; OuterConductorThickness=0.2921; OuterDiameter=3.6; Wf=3; Wp=41.2; de=1.5; df=6.8; g=0.8; gx=0.629076; gy=4.14011; h=2.34; hf=1.524; px=14.2371; py=8.90034; w=9.7; wx=13.608; wy=4.76023}
! Header version: 2018
! Port assignment regex: !\s*Touchstone port\s*([0-9]+)\s*=\s*(CST MWS port|CST DS port)\s*([0-9]+|Zmin|Zmax)\s*\(\"(.*)\"\)(\s*mode\s*([0-9]+))?.*
! Touchstone port assignment:
! Touchstone port 1 = CST MWS port 1 ("")
# GHz S DB R 50
4.5                     -5.41681          110.87
4.52                    -5.17794           110.8
4.54                    -4.90285         110.072
4.56                    -4.69501         109.103
4.58                    -4.45782         108.062
4.6                     -4.24867          106.49
4.62                     -4.0771         104.963
4.64                    -3.88617         103.163
4.66                    -3.74633         101.096
4.68                    -3.61097          99.064
4.7                     -3.48289         96.6744
4.72                    -3.39837         94.2006
4.74                    -3.30632         91.5961
4.76                    -3.24599         88.6484
4.78                    -3.21201         85.6287
4.8                     -3.18173         82.2716
4.82                    -3.19815          78.577
4.84                    -3.23409          74.621
4.86                    -3.30303         70.0728
4.88                    -3.43476         64.9887
4.9                     -3.61079         59.1358
4.92                    -3.87982         52.0785
4.94                     -4.2758         43.5338
4.96                    -4.83568         32.5073
4.98                    -5.68223         17.3857
5                       -6.90491        -4.90215
5.02                    -8.29224         -41.032
5.04                    -8.24513        -95.4199
5.06                    -5.82906        -149.574
5.08                    -3.67082         169.697
5.1                     -2.77926         139.835
5.12                    -2.85464          117.68
5.14                    -3.60595         100.989
5.16                      -4.973         88.7278
5.18                    -7.04297         82.1797
5.2                     -9.54887         86.3295
5.22                    -10.7503         104.286
5.24                    -9.27117         120.327
5.26                    -7.11572         124.371
5.28                    -5.44631         122.061
5.3                     -4.26027         117.575
5.32                    -3.42576         112.376
5.34                    -2.84189         107.193
5.36                    -2.41466         102.178
5.38                    -2.12853         97.2535
5.4                     -2.03625         92.7926
5.42                    -1.85284         90.4894
5.44                    -1.54725         86.4597
5.46                    -1.38415         82.4179
5.48                    -1.26927         78.5178
5.5                      -1.1908          74.785
5.52                    -1.11961         71.1395
5.54                    -1.06899         67.4473
5.56                    -1.03336         63.8036
5.58                   -0.999156         60.0327
5.6                    -0.989715         56.0964
5.62                   -0.987948          51.981
5.64                    -1.00838         47.3685
5.66                    -1.09244         42.0853
5.68                    -1.36873         35.3839
5.7                     -2.75032         31.7509
5.72                    -1.76273          33.508
5.74                    -1.47455         22.7838
5.76                    -1.66848         9.39853
5.78                    -2.20153        -10.6381
5.8                     -3.31639        -48.1431
5.82                    -4.20786        -124.442
5.84                    -2.14774         153.344
5.86                   -0.860293         109.605
5.88                   -0.431629         86.8716
5.9                    -0.290354         72.9577
5.92                   -0.255096          63.564
5.94                   -0.206883         56.4369
5.96                   -0.210354          50.466
5.98                   -0.214947         45.7501
6                      -0.176289         41.2829
6.02                   -0.218217         37.2428
6.04                   -0.190196         33.9118
6.06                   -0.167779         30.0122
6.08                   -0.243747         26.9408
6.1                    -0.131311         23.8411
6.12                    -0.21358         19.4432
6.14                   -0.304431         17.1454
6.16                    0.186557         6.45725
6.18                    0.271042         25.8046
6.2                    -0.226715         12.9743
6.22                     -0.2207         11.4597
6.24                  -0.0444116         7.25642
6.26                   -0.232252          4.4567
6.28                   -0.109473         2.55214
6.3                    -0.111745       -0.975447
6.32                   -0.197097        -2.81106
6.34                   -0.066501        -5.34972
6.36                   -0.158244        -8.27147
6.38                   -0.136964        -9.88464
6.4                   -0.0660431        -12.8843
6.42                   -0.177021        -15.0736
6.44                  -0.0729546        -16.9888
6.46                   -0.100013        -20.0496
6.48                   -0.154427         -21.627
6.5                   -0.0327669        -24.1582
