! TOUCHSTONE file generated by CST MICROWAVE STUDIO
! Date and time: Wed Oct 26 16:10:03 2022
! Project name: L.cst
! Parameters = {Di=1.27; Epsilon_r=1.56; InnerDiameter=1.27; Length=2; Lf=10; Lg=60; OuterConductorThickness=0.2921; OuterDiameter=3.6; Wf=3; Wp=41.2; de=1.5; df=6.8; g=0.8; gx=1.21712; gy=1.83962; h=2.34; hf=1.524; px=8.35428; py=10.4819; w=9.7; wx=7.13717; wy=8.64231}
! Header version: 2018
! Port assignment regex: !\s*Touchstone port\s*([0-9]+)\s*=\s*(CST MWS port|CST DS port)\s*([0-9]+|Zmin|Zmax)\s*\(\"(.*)\"\)(\s*mode\s*([0-9]+))?.*
! Touchstone port assignment:
! Touchstone port 1 = CST MWS port 1 ("")
# GHz S DB R 50
4.5                    -0.616562         76.8657
4.52                    -0.63724         75.2459
4.54                   -0.659244         73.6069
4.56                   -0.682546         71.9488
4.58                   -0.707105         70.2719
4.6                    -0.732869         68.5763
4.62                   -0.759784         66.8617
4.64                   -0.787791         65.1279
4.66                   -0.816837         63.3747
4.68                    -0.84687         61.6015
4.7                    -0.877845         59.8078
4.72                   -0.909727          57.993
4.74                   -0.942488         56.1564
4.76                   -0.976107         54.2973
4.78                    -1.01058         52.4149
4.8                      -1.0459         50.5085
4.82                    -1.08208         48.5774
4.84                    -1.11913         46.6207
4.86                    -1.15709         44.6378
4.88                    -1.19597         42.6279
4.9                     -1.23582         40.5904
4.92                    -1.27667         38.5247
4.94                    -1.31856         36.4302
4.96                    -1.36153         34.3064
4.98                    -1.40563         32.1528
5                       -1.45089          29.969
5.02                    -1.49735         27.7548
5.04                    -1.54504         25.5097
5.06                    -1.59399         23.2336
5.08                    -1.64423         20.9263
5.1                     -1.69577         18.5876
5.12                    -1.74863         16.2176
5.14                    -1.80279         13.8163
5.16                    -1.85827         11.3836
5.18                    -1.91504         8.91977
5.2                     -1.97308         6.42493
5.22                    -2.03237         3.89933
5.24                    -2.09286         1.34323
5.26                     -2.1545        -1.24291
5.28                    -2.21725        -3.85883
5.3                     -2.28103        -6.50397
5.32                    -2.34577        -9.17781
5.34                     -2.4114        -11.8797
5.36                    -2.47782        -14.6091
5.38                    -2.54494        -17.3651
5.4                     -2.61266         -20.147
5.42                    -2.68087        -22.9539
5.44                    -2.74947        -25.7847
5.46                    -2.81833        -28.6386
5.48                    -2.88735        -31.5143
5.5                     -2.95639        -34.4106
5.52                    -3.02535        -37.3263
5.54                    -3.09409        -40.2599
5.56                     -3.1625        -43.2101
5.58                    -3.23044        -46.1753
5.6                     -3.29782        -49.1539
5.62                     -3.3645        -52.1442
5.64                    -3.43038        -55.1445
5.66                    -3.49535        -58.1529
5.68                     -3.5593        -61.1675
5.7                     -3.62215        -64.1865
5.72                    -3.68379        -67.2079
5.74                    -3.74415        -70.2295
5.76                    -3.80315        -73.2494
5.78                    -3.86071        -76.2656
5.8                     -3.91677        -79.2759
5.82                    -3.97127        -82.2784
5.84                    -4.02415        -85.2709
5.86                    -4.07538        -88.2515
5.88                    -4.12489        -91.2182
5.9                     -4.17267        -94.1691
5.92                    -4.21866        -97.1025
5.94                    -4.26283        -100.016
5.96                    -4.30515        -102.909
5.98                    -4.34559         -105.78
6                       -4.38411        -108.627
6.02                    -4.42068        -111.448
6.04                    -4.45527        -114.244
6.06                    -4.48785        -117.012
6.08                    -4.51837        -119.753
6.1                     -4.54682        -122.465
6.12                    -4.57314        -125.149
6.14                    -4.59733        -127.804
6.16                    -4.61934        -130.431
6.18                    -4.63916         -133.03
6.2                     -4.65678        -135.601
6.22                    -4.67219        -138.145
6.24                    -4.68542        -140.663
6.26                     -4.6965        -143.157
6.28                    -4.70547        -145.628
6.3                     -4.71242        -148.078
6.32                    -4.71745        -150.507
6.34                     -4.7207        -152.919
6.36                    -4.72234        -155.315
6.38                    -4.72258        -157.697
6.4                     -4.72165        -160.067
6.42                    -4.71985        -162.427
6.44                     -4.7175        -164.779
6.46                    -4.71496        -167.125
6.48                    -4.71264        -169.466
6.5                     -4.71095        -171.804
