! TOUCHSTONE file generated by CST MICROWAVE STUDIO
! Date and time: Fri Oct 28 17:22:22 2022
! Project name: L.cst
! Parameters = {Di=1.27; Epsilon_r=1.56; InnerDiameter=1.27; Length=2; Lf=10; Lg=60; OuterConductorThickness=0.2921; OuterDiameter=3.6; Wf=3; Wp=41.2; de=1.5; df=6.8; g=0.8; gx=2.59692; gy=1.0212; h=2.34; hf=1.524; px=13.548; py=11.3762; w=9.7; wx=10.951; wy=10.355}
! Header version: 2018
! Port assignment regex: !\s*Touchstone port\s*([0-9]+)\s*=\s*(CST MWS port|CST DS port)\s*([0-9]+|Zmin|Zmax)\s*\(\"(.*)\"\)(\s*mode\s*([0-9]+))?.*
! Touchstone port assignment:
! Touchstone port 1 = CST MWS port 1 ("")
# GHz S DB R 50
4.5                     -3.27714         44.6788
4.52                    -3.52038         41.4883
4.54                    -3.77533         38.2106
4.56                    -4.04317         34.8097
4.58                    -4.32805         31.2599
4.6                     -4.63504         27.5546
4.62                    -4.96771         23.7037
4.64                    -5.32682         19.7208
4.66                    -5.71062         15.6097
4.68                    -6.11637         11.3554
4.7                     -6.54221         6.92571
4.72                    -6.98823         2.27967
4.74                    -7.45619        -2.62045
4.76                    -7.94804        -7.80189
4.78                    -8.46398        -13.2824
4.8                     -9.00098        -19.0768
4.82                    -9.55228         -25.207
4.84                     -10.108        -31.7075
4.86                     -10.656        -38.6226
4.88                    -11.1832        -45.9949
4.9                     -11.6753         -53.847
4.92                    -12.1171        -62.1627
4.94                    -12.4927        -70.8745
4.96                    -12.7863        -79.8631
4.98                    -12.9851        -88.9697
5                       -13.0822        -98.0199
5.02                    -13.0787        -106.851
5.04                    -12.9841        -115.333
5.06                    -12.8147        -123.379
5.08                    -12.5903        -130.937
5.1                     -12.3307        -137.986
5.12                    -12.0528         -144.52
5.14                    -11.7692        -150.548
5.16                    -11.4878        -156.095
5.18                    -11.2132        -161.194
5.2                     -10.9482        -165.891
5.22                    -10.6952        -170.235
5.24                    -10.4569        -174.265
5.26                    -10.2357        -178.013
5.28                    -10.0328         178.507
5.3                     -9.84767         175.288
5.32                    -9.67765         172.324
5.34                    -9.51883         169.603
5.36                    -9.36723         167.103
5.38                    -9.21987         164.797
5.4                     -9.07503          162.66
5.42                    -8.93162         160.674
5.44                    -8.78808         158.829
5.46                    -8.64153         157.116
5.48                    -8.48777         155.519
5.5                     -8.32235         154.009
5.52                    -8.14206          152.54
5.54                    -7.94618         151.061
5.56                    -7.73686         149.519
5.58                    -7.51859         147.869
5.6                      -7.2974          146.08
5.62                    -7.08024         144.129
5.64                    -6.87488         142.006
5.66                    -6.68995         139.714
5.68                     -6.5346         137.273
5.7                     -6.41755         134.725
5.72                    -6.34554         132.135
5.74                    -6.32159         129.587
5.76                    -6.34394         127.171
5.78                    -6.40591         124.966
5.8                     -6.49723          123.03
5.82                    -6.60631         121.393
5.84                    -6.72266          120.06
5.86                    -6.83781         119.027
5.88                    -6.94405         118.298
5.9                     -7.03141         117.883
5.92                    -7.08512         117.779
5.94                    -7.08653         117.936
5.96                    -7.01875         118.232
5.98                    -6.87481         118.485
6                       -6.66283         118.505
6.02                    -6.40357          118.16
6.04                    -6.12179         117.414
6.06                    -5.83697         116.308
6.08                    -5.55847         114.916
6.1                     -5.28663         113.294
6.12                    -5.01829         111.449
6.14                    -4.75324         109.348
6.16                    -4.49792         106.944
6.18                    -4.26449         104.215
6.2                     -4.06632         101.185
6.22                    -3.91312         97.9078
6.24                    -3.80901         94.4426
6.26                    -3.75497         90.8165
6.28                    -3.75521         87.0133
6.3                     -3.82451          82.998
6.32                     -3.9926         78.7764
6.34                    -4.30283         74.4768
6.36                    -4.80423         70.4392
6.38                    -5.53496         67.3131
6.4                       -6.486         66.1632
6.42                    -7.51824         68.4157
6.44                     -8.2444         74.9425
6.46                    -8.15406         83.7782
6.48                    -7.21115          90.372
6.5                     -5.91805         92.3268
