! TOUCHSTONE file generated by CST MICROWAVE STUDIO
! Date and time: Sat Oct 29 13:54:43 2022
! Project name: L.cst
! Parameters = {Di=1.27; Epsilon_r=1.56; InnerDiameter=1.27; Length=2; Lf=10; Lg=60; OuterConductorThickness=0.2921; OuterDiameter=3.6; Wf=3; Wp=41.2; de=1.5; df=6.8; g=0.8; gx=2.17295; gy=1.41242; h=2.34; hf=1.524; px=9.63658; py=11.0431; w=9.7; wx=7.46362; wy=9.63068}
! Header version: 2018
! Port assignment regex: !\s*Touchstone port\s*([0-9]+)\s*=\s*(CST MWS port|CST DS port)\s*([0-9]+|Zmin|Zmax)\s*\(\"(.*)\"\)(\s*mode\s*([0-9]+))?.*
! Touchstone port assignment:
! Touchstone port 1 = CST MWS port 1 ("")
# GHz S DB R 50
4.5                    -0.733137         72.5067
4.52                   -0.745516         70.8178
4.54                   -0.757526         69.0777
4.56                   -0.770087         67.2867
4.58                   -0.783987          65.446
4.6                    -0.799869         63.5577
4.62                   -0.818226         61.6241
4.64                     -0.8394         59.6481
4.66                   -0.863595         57.6321
4.68                   -0.890894         55.5789
4.7                     -0.92127         53.4906
4.72                   -0.954607         51.3692
4.74                   -0.990718          49.216
4.76                    -1.02936         47.0319
4.78                    -1.07027         44.8173
4.8                     -1.11313         42.5721
4.82                    -1.15767         40.2956
4.84                    -1.20359         37.9868
4.86                    -1.25061         35.6442
4.88                    -1.29852         33.2661
4.9                      -1.3471         30.8502
4.92                    -1.39618         28.3944
4.94                    -1.44567         25.8963
4.96                    -1.49546         23.3534
4.98                    -1.54554         20.7632
5                       -1.59591         18.1234
5.02                    -1.64659         15.4318
5.04                    -1.69766         12.6864
5.06                    -1.74919          9.8853
5.08                    -1.80129         7.02706
5.1                     -1.85405          4.1104
5.12                    -1.90758         1.13438
5.14                    -1.96197        -1.90159
5.16                    -2.01732        -4.99782
5.18                    -2.07369        -8.15425
5.2                     -2.13113        -11.3705
5.22                    -2.18965        -14.6459
5.24                    -2.24924        -17.9794
5.26                    -2.30987        -21.3696
5.28                    -2.37148        -24.8151
5.3                     -2.43394        -28.3138
5.32                    -2.49715        -31.8635
5.34                    -2.56093        -35.4617
5.36                     -2.6251        -39.1058
5.38                    -2.68944        -42.7926
5.4                     -2.75373        -46.5191
5.42                    -2.81771        -50.2816
5.44                    -2.88112        -54.0766
5.46                    -2.94368        -57.9003
5.48                    -3.00512        -61.7486
5.5                     -3.06515        -65.6174
5.52                     -3.1235        -69.5026
5.54                    -3.17989        -73.3999
5.56                    -3.23409         -77.305
5.58                    -3.28583        -81.2138
5.6                     -3.33491         -85.122
5.62                    -3.38112        -89.0255
5.64                     -3.4243        -92.9206
5.66                    -3.46429        -96.8036
5.68                    -3.50098        -100.671
5.7                     -3.53429         -104.52
5.72                    -3.56418        -108.347
5.74                    -3.59064        -112.151
5.76                    -3.61369        -115.928
5.78                    -3.63341        -119.679
5.8                     -3.64991        -123.401
5.82                    -3.66335        -127.093
5.84                    -3.67394        -130.756
5.86                    -3.68194        -134.389
5.88                    -3.68765        -137.993
5.9                     -3.69145        -141.568
5.92                    -3.69375        -145.115
5.94                    -3.69504        -148.635
5.96                    -3.69585        -152.129
5.98                    -3.69679          -155.6
6                        -3.6985        -159.047
6.02                     -3.7017        -162.471
6.04                    -3.70716        -165.874
6.06                    -3.71569        -169.256
6.08                    -3.72814        -172.616
6.1                     -3.74541        -175.955
6.12                    -3.76843        -179.271
6.14                    -3.79814         177.439
6.16                    -3.83549         174.176
6.18                    -3.88141         170.946
6.2                     -3.93681         167.752
6.22                    -4.00255         164.602
6.24                     -4.0794         161.503
6.26                    -4.16802         158.464
6.28                    -4.26889         155.496
6.3                     -4.38228         152.612
6.32                    -4.50815         149.828
6.34                    -4.64607         147.158
6.36                    -4.79509         144.621
6.38                    -4.95362         142.238
6.4                     -5.11926         140.028
6.42                    -5.28865         138.012
6.44                    -5.45728         136.208
6.46                    -5.61938         134.631
6.48                    -5.76789         133.289
6.5                     -5.89462         132.177
