! TOUCHSTONE file generated by CST MICROWAVE STUDIO
! Date and time: Fri Oct 28 10:44:55 2022
! Project name: L.cst
! Parameters = {Di=1.27; Epsilon_r=1.56; InnerDiameter=1.27; Length=2; Lf=10; Lg=60; OuterConductorThickness=0.2921; OuterDiameter=3.6; Wf=3; Wp=41.2; de=1.5; df=6.8; g=0.8; gx=0.871824; gy=2.07198; h=2.34; hf=1.524; px=12.7476; py=14.8085; w=9.7; wx=11.8757; wy=12.7365}
! Header version: 2018
! Port assignment regex: !\s*Touchstone port\s*([0-9]+)\s*=\s*(CST MWS port|CST DS port)\s*([0-9]+|Zmin|Zmax)\s*\(\"(.*)\"\)(\s*mode\s*([0-9]+))?.*
! Touchstone port assignment:
! Touchstone port 1 = CST MWS port 1 ("")
# GHz S DB R 50
4.5                     -7.02707          69.675
4.52                    -7.36592         70.2434
4.54                    -7.55682         69.9838
4.56                    -7.63904         70.7541
4.58                    -7.84944         71.6414
4.6                     -7.99529         71.4999
4.62                    -7.99797          71.815
4.64                    -8.08964         72.5074
4.66                    -8.19398          72.238
4.68                    -8.16703         71.9232
4.7                     -8.18822         72.0817
4.72                    -8.27595         71.5189
4.74                    -8.26974         70.5776
4.76                    -8.27916         70.0868
4.78                    -8.38386         69.1644
4.8                     -8.44082         67.6899
4.82                    -8.49382         66.5757
4.84                    -8.65595         65.2899
4.86                    -8.82034         63.3957
4.88                    -8.97817         61.7527
4.9                     -9.25963         60.1734
4.92                    -9.60353         58.0378
4.94                    -9.96422         56.1098
4.96                     -10.484         54.5898
4.98                    -11.1594         52.8383
5                       -11.9196         51.6532
5.02                    -12.9136         52.0106
5.04                    -14.1915         53.9304
5.06                    -15.5335         59.1407
5.08                     -16.655         70.5681
5.1                     -16.9056         86.8805
5.12                    -15.7469         100.886
5.14                    -13.8061         108.412
5.16                    -11.9555         110.307
5.18                    -10.4588         107.988
5.2                     -9.26466         103.478
5.22                    -8.42172         98.2505
5.24                    -7.91738         92.4162
5.26                    -7.63292         86.5056
5.28                    -7.57854         81.3236
5.3                     -7.76096         76.8545
5.32                     -8.0467         73.5339
5.34                    -8.34174         72.3084
5.36                    -8.50956         72.8273
5.38                    -8.28043          73.728
5.4                     -7.62325         73.5445
5.42                    -6.79074         70.5849
5.44                     -5.9466         63.9375
5.46                    -5.21629         53.8222
5.48                    -4.81279         39.2137
5.5                     -5.00615         16.8883
5.52                     -6.8169        -18.7857
5.54                    -12.5091        -83.8747
5.56                    -13.1921         168.599
5.58                    -9.32185         120.084
5.6                       -7.491         96.6687
5.62                    -6.75114         81.0151
5.64                    -6.52251         68.6643
5.66                    -6.72865         60.1404
5.68                    -7.16096         58.7791
5.7                     -5.23734         55.5806
5.72                     -4.6316         38.3515
5.74                    -4.84465         25.8396
5.76                     -5.1553         12.6672
5.78                    -5.48207        -1.61146
5.8                     -6.02018        -17.8935
5.82                    -6.64397        -38.5816
5.84                    -7.20049        -63.9424
5.86                    -7.66206        -96.5131
5.88                    -7.39168        -136.113
5.9                     -7.10369        -178.045
5.92                    -8.54929         146.365
5.94                    -8.30373         143.704
5.96                    -5.25201         123.881
5.98                    -3.32238         90.8221
6                       -2.45335         46.7827
6.02                    -2.89549        -36.0036
6.04                    -2.94628        -141.856
6.06                    -2.32496         156.266
6.08                    -1.91852         124.601
6.1                     -1.90019         104.559
6.12                    -1.72935         88.6768
6.14                    -1.91436         75.0408
6.16                    -2.46476         57.0435
6.18                    -3.61738         30.3048
6.2                     -12.2418        -141.646
6.22                   -0.225594         109.419
6.24                   -0.435234          80.311
6.26                   -0.250054         64.5328
6.28                   -0.180742         56.8704
6.3                    -0.466556         49.4591
6.32                     -0.4092         41.7727
6.34                   -0.310917         36.9555
6.36                   -0.494562         31.9137
6.38                   -0.485808         25.7936
6.4                    -0.376792         21.3374
6.42                   -0.478728         16.8909
6.44                   -0.555721         11.1484
6.46                    -1.12156         2.39862
6.48                    -1.38057         13.0022
6.5                    -0.652463         2.59058
