! TOUCHSTONE file generated by CST MICROWAVE STUDIO
! Date and time: Thu Oct 27 11:20:50 2022
! Project name: L.cst
! Parameters = {Di=1.27; Epsilon_r=1.56; InnerDiameter=1.27; Length=2; Lf=10; Lg=60; OuterConductorThickness=0.2921; OuterDiameter=3.6; Wf=3; Wp=41.2; de=1.5; df=6.8; g=0.8; gx=2.24889; gy=3.00808; h=2.34; hf=1.524; px=12.8902; py=11.7361; w=9.7; wx=10.6413; wy=8.72798}
! Header version: 2018
! Port assignment regex: !\s*Touchstone port\s*([0-9]+)\s*=\s*(CST MWS port|CST DS port)\s*([0-9]+|Zmin|Zmax)\s*\(\"(.*)\"\)(\s*mode\s*([0-9]+))?.*
! Touchstone port assignment:
! Touchstone port 1 = CST MWS port 1 ("")
# GHz S DB R 50
4.5                     -1.23642         76.8392
4.52                    -1.29897         74.9152
4.54                    -1.37032         72.9733
4.56                    -1.44733         71.0345
4.58                    -1.52586         69.0957
4.6                     -1.60378         67.1341
4.62                    -1.68233          65.125
4.64                    -1.76495         63.0583
4.66                    -1.85486         60.9431
4.68                    -1.95301         58.7986
4.7                      -2.0579         56.6401
4.72                    -2.16702         54.4683
4.74                    -2.27878           52.27
4.76                    -2.39371         50.0285
4.78                    -2.51408         47.7346
4.8                     -2.64235          45.392
4.82                    -2.77967         43.0137
4.84                    -2.92545         40.6118
4.86                      -3.078         38.1896
4.88                    -3.23603         35.7396
4.9                     -3.39964         33.2493
4.92                     -3.5704         30.7101
4.94                    -3.75038         28.1228
4.96                    -3.94088         25.4968
4.98                    -4.14178         22.8433
5                       -4.35186         20.1677
5.02                     -4.5698         17.4661
5.04                    -4.79528         14.7286
5.06                    -5.02932         11.9461
5.08                    -5.27369         9.11707
5.1                     -5.52979         6.24835
5.12                    -5.79779         3.35092
5.14                    -6.07657        0.432329
5.16                     -6.3645        -2.50846
5.18                    -6.66061        -5.48043
5.2                     -6.96522        -8.49447
5.22                    -7.27975        -11.5559
5.24                    -7.60557        -14.6605
5.26                    -7.94296        -17.7974
5.28                    -8.29058        -20.9568
5.3                     -8.64599        -24.1371
5.32                    -9.00695        -27.3475
5.34                    -9.37255        -30.6031
5.36                    -9.74334        -33.9156
5.38                    -10.1204         -37.286
5.4                     -10.5038        -40.7041
5.42                    -10.8914        -44.1568
5.44                     -11.279        -47.6392
5.46                    -11.6618        -51.1614
5.48                    -12.0364        -54.7459
5.5                     -12.4014        -58.4159
5.52                    -12.7571        -62.1823
5.54                     -13.103        -66.0382
5.56                     -13.436        -69.9662
5.58                    -13.7497        -73.9552
5.6                     -14.0363         -78.015
5.62                    -14.2894        -82.1785
5.64                    -14.5067        -86.4875
5.66                    -14.6901        -90.9711
5.68                    -14.8433        -95.6306
5.7                     -14.9687        -100.443
5.72                    -15.0656        -105.382
5.74                    -15.1318        -110.438
5.76                    -15.1676        -115.631
5.78                    -15.1795        -120.991
5.8                     -15.1816        -126.528
5.82                    -15.1923        -132.204
5.84                    -15.2294        -137.913
5.86                    -15.3036        -143.505
5.88                    -15.4161        -148.811
5.9                     -15.5585        -153.683
5.92                    -15.7167        -158.015
5.94                    -15.8753        -161.747
5.96                    -16.0202         -164.83
5.98                    -16.1343        -167.199
6                       -16.1885        -168.787
6.02                     -16.136        -169.611
6.04                    -15.9216          -169.9
6.06                    -15.5116        -170.131
6.08                    -14.9201        -170.872
6.1                     -14.2055        -172.523
6.12                     -13.437        -175.183
6.14                    -12.6642         -178.74
6.16                    -11.9082         176.967
6.18                    -11.1714         172.013
6.2                     -10.4557         166.353
6.22                    -9.77752         159.875
6.24                    -9.17157         152.499
6.26                    -8.68374          144.26
6.28                    -8.35944         135.336
6.3                     -8.23319         126.032
6.32                    -8.32007         116.757
6.34                    -8.60694         107.972
6.36                    -9.04222         100.101
6.38                    -9.53207         93.3401
6.4                     -9.96474         87.3926
6.42                    -10.2782         81.3727
6.44                    -10.5274         74.1703
6.46                    -10.8782         65.0317
6.48                    -11.5501         53.7731
6.5                     -12.7961         40.5787
