! TOUCHSTONE file generated by CST MICROWAVE STUDIO
! Date and time: Sat Oct 29 22:04:14 2022
! Project name: L.cst
! Parameters = {Di=1.27; Epsilon_r=1.56; InnerDiameter=1.27; Length=2; Lf=10; Lg=60; OuterConductorThickness=0.2921; OuterDiameter=3.6; Wf=3; Wp=41.2; de=1.5; df=6.8; g=0.8; gx=2.06208; gy=2.69969; h=2.34; hf=1.524; px=11.2619; py=13.1183; w=9.7; wx=9.19979; wy=10.4186}
! Header version: 2018
! Port assignment regex: !\s*Touchstone port\s*([0-9]+)\s*=\s*(CST MWS port|CST DS port)\s*([0-9]+|Zmin|Zmax)\s*\(\"(.*)\"\)(\s*mode\s*([0-9]+))?.*
! Touchstone port assignment:
! Touchstone port 1 = CST MWS port 1 ("")
# GHz S DB R 50
4.5                    -0.818501         79.9162
4.52                   -0.821481         78.2961
4.54                   -0.832666         76.4896
4.56                   -0.867896         74.6101
4.58                   -0.922674         72.7963
4.6                    -0.978547         71.1002
4.62                    -1.01949          69.456
4.64                    -1.04457         67.7467
4.66                    -1.06689         65.9047
4.68                     -1.1012         63.9595
4.7                     -1.15203         62.0005
4.72                    -1.21143          60.099
4.74                    -1.26667         58.2528
4.76                    -1.31101         56.3951
4.78                    -1.34864         54.4543
4.8                     -1.39018         52.4125
4.82                    -1.44354         50.3133
4.84                    -1.50792         48.2206
4.86                    -1.57532         46.1652
4.88                    -1.63757         44.1223
4.9                     -1.69307         42.0354
4.92                    -1.74762          39.864
4.94                    -1.80921         37.6151
4.96                    -1.88146         35.3333
4.98                    -1.96109         33.0618
5                       -2.04099         30.8075
5.02                     -2.1163         28.5366
5.04                     -2.1883         26.2036
5.06                    -2.26312         23.7891
5.08                     -2.3466         21.3134
5.1                     -2.43958         18.8183
5.12                    -2.53748         16.3317
5.14                    -2.63419         13.8451
5.16                    -2.72718         11.3208
5.18                    -2.81957         8.72286
5.2                     -2.91748          6.0466
5.22                    -3.02502         3.32132
5.24                    -3.14102        0.585773
5.26                    -3.25995        -2.14371
5.28                    -3.37652        -4.88742
5.3                     -3.49004        -7.68598
5.32                    -3.60508        -10.5673
5.34                    -3.72778        -13.5236
5.36                     -3.8608         -16.517
5.38                    -4.00101        -19.5103
5.4                     -4.14181        -22.4974
5.42                    -4.27841        -25.5103
5.44                    -4.41183        -28.5939
5.46                    -4.54822        -31.7695
5.48                    -4.69392        -35.0153
5.5                     -4.84999        -38.2827
5.52                     -5.0108        -41.5346
5.54                    -5.16803        -44.7777
5.56                    -5.31715        -48.0612
5.58                    -5.46137        -51.4391
5.6                      -5.6093         -54.926
5.62                    -5.76789        -58.4822
5.64                    -5.93615        -62.0432
5.66                    -6.10484        -65.5724
5.68                    -6.26298        -69.0974
5.7                     -6.40678        -72.6968
5.72                    -6.54353        -76.4413
5.74                    -6.68644        -80.3351
5.76                    -6.84409        -84.3078
5.78                    -7.01252        -88.2669
5.8                     -7.17663        -92.1758
5.82                    -7.32134        -96.0983
5.84                    -7.44478        -100.165
5.86                    -7.56226        -104.474
5.88                    -7.69606        -109.008
5.9                     -7.85836        -113.635
5.92                    -8.04011        -118.205
5.94                    -8.21496        -122.671
5.96                    -8.35895        -127.163
5.98                    -8.47306        -131.914
6                       -8.58825        -137.078
6.02                    -8.74552        -142.596
6.04                    -8.96517          -148.2
6.06                    -9.22594        -153.588
6.08                    -9.46964        -158.669
6.1                     -9.63944        -163.737
6.12                    -9.73205        -169.342
6.14                     -9.8126        -175.894
6.16                    -9.97043         176.665
6.18                    -10.2525          168.84
6.2                     -10.6119         161.257
6.22                    -10.8968         154.075
6.24                    -10.9302         146.337
6.26                    -10.6724         136.127
6.28                     -10.268         121.754
6.3                     -9.89716         102.508
6.32                    -9.63187         78.4211
6.34                    -9.40036         50.0103
6.36                    -9.04663         18.5032
6.38                    -8.47315         -14.062
6.4                     -7.75239        -45.5787
6.42                    -7.06806        -74.7717
6.44                    -6.58218        -101.218
6.46                    -6.37031        -124.871
6.48                     -6.4162         -145.78
6.5                     -6.62541        -164.188
