! TOUCHSTONE file generated by CST MICROWAVE STUDIO
! Date and time: Fri Oct 28 10:30:23 2022
! Project name: L.cst
! Parameters = {Di=1.27; Epsilon_r=1.56; InnerDiameter=1.27; Length=2; Lf=10; Lg=60; OuterConductorThickness=0.2921; OuterDiameter=3.6; Wf=3; Wp=41.2; de=1.5; df=6.8; g=0.8; gx=2.95848; gy=0.876153; h=2.34; hf=1.524; px=12.895; py=10.3779; w=9.7; wx=9.93654; wy=9.50173}
! Header version: 2018
! Port assignment regex: !\s*Touchstone port\s*([0-9]+)\s*=\s*(CST MWS port|CST DS port)\s*([0-9]+|Zmin|Zmax)\s*\(\"(.*)\"\)(\s*mode\s*([0-9]+))?.*
! Touchstone port assignment:
! Touchstone port 1 = CST MWS port 1 ("")
# GHz S DB R 50
4.5                     -1.93112         52.4162
4.52                    -2.04162         49.5797
4.54                    -2.15836         46.6489
4.56                    -2.28196         43.6199
4.58                    -2.41301         40.4892
4.6                     -2.55202         37.2536
4.62                    -2.69942           33.91
4.64                    -2.85555         30.4554
4.66                    -3.02063         26.8867
4.68                    -3.19477         23.2009
4.7                      -3.3779         19.3947
4.72                    -3.56984         15.4649
4.74                     -3.7702          11.408
4.76                    -3.97842         7.22068
4.78                    -4.19371         2.89915
4.8                     -4.41508         -1.5598
4.82                    -4.64129        -6.15924
4.84                    -4.87082        -10.9017
4.86                    -5.10192        -15.7887
4.88                    -5.33255        -20.8208
4.9                     -5.56042        -25.9968
4.92                    -5.78305        -31.3134
4.94                    -5.99774        -36.7649
4.96                    -6.20171        -42.3424
4.98                    -6.39219        -48.0339
5                       -6.56648        -53.8238
5.02                    -6.72215        -59.6933
5.04                    -6.85714          -65.62
5.06                    -6.96987        -71.5792
5.08                    -7.05937        -77.5442
5.1                     -7.12533        -83.4876
5.12                    -7.16811        -89.3819
5.14                    -7.18871        -95.2014
5.16                    -7.18868        -100.922
5.18                    -7.17003        -106.523
5.2                     -7.13506        -111.987
5.22                    -7.08629          -117.3
5.24                    -7.02626        -122.452
5.26                    -6.95746        -127.435
5.28                    -6.88225        -132.244
5.3                     -6.80279        -136.879
5.32                    -6.72097         -141.34
5.34                    -6.63845        -145.627
5.36                    -6.55658        -149.744
5.38                    -6.47647        -153.695
5.4                     -6.39898        -157.484
5.42                    -6.32472        -161.116
5.44                    -6.25409        -164.597
5.46                    -6.18731        -167.932
5.48                    -6.12444        -171.126
5.5                     -6.06536        -174.185
5.52                    -6.00987        -177.115
5.54                    -5.95767        -179.916
5.56                    -5.90836         177.387
5.58                    -5.86152         174.806
5.6                     -5.81669          172.33
5.62                    -5.77339          169.95
5.64                    -5.73119          167.66
5.66                    -5.68967         165.453
5.68                    -5.64847         163.321
5.7                      -5.6073         161.256
5.72                    -5.56595         159.253
5.74                    -5.52433         157.301
5.76                    -5.48244         155.396
5.78                    -5.44039         153.529
5.8                     -5.39839         151.694
5.82                    -5.35679         149.885
5.84                    -5.31601         148.096
5.86                    -5.27657         146.323
5.88                    -5.23907         144.562
5.9                     -5.20416          142.81
5.92                    -5.17255         141.064
5.94                    -5.14497         139.324
5.96                    -5.12215          137.59
5.98                    -5.10482         135.862
6                       -5.09366         134.142
6.02                     -5.0893         132.434
6.04                     -5.0923         130.742
6.06                    -5.10311         129.071
6.08                    -5.12206         127.427
6.1                     -5.14933         125.816
6.12                    -5.18491         124.247
6.14                    -5.22857         122.727
6.16                    -5.27986         121.267
6.18                    -5.33802         119.875
6.2                       -5.402          118.56
6.22                    -5.47037         117.331
6.24                    -5.54133         116.196
6.26                     -5.6127         115.163
6.28                    -5.68189         114.235
6.3                     -5.74597         113.413
6.32                    -5.80171         112.697
6.34                    -5.84573         112.078
6.36                     -5.8746         111.546
6.38                    -5.88514         111.081
6.4                     -5.87457         110.662
6.42                    -5.84081          110.26
6.44                     -5.7827         109.842
6.46                    -5.70012         109.375
6.48                    -5.59412         108.824
6.5                     -5.46686         108.157
