! TOUCHSTONE file generated by CST MICROWAVE STUDIO
! Date and time: Wed Oct 26 23:33:05 2022
! Project name: L.cst
! Parameters = {Di=1.27; Epsilon_r=1.56; InnerDiameter=1.27; Length=2; Lf=10; Lg=60; OuterConductorThickness=0.2921; OuterDiameter=3.6; Wf=3; Wp=41.2; de=1.5; df=6.8; g=0.8; gx=0.729625; gy=0.436622; h=2.34; hf=1.524; px=13.7903; py=12.2243; w=9.7; wx=13.0606; wy=11.7877}
! Header version: 2018
! Port assignment regex: !\s*Touchstone port\s*([0-9]+)\s*=\s*(CST MWS port|CST DS port)\s*([0-9]+|Zmin|Zmax)\s*\(\"(.*)\"\)(\s*mode\s*([0-9]+))?.*
! Touchstone port assignment:
! Touchstone port 1 = CST MWS port 1 ("")
# GHz S DB R 50
4.5                     -5.22165         91.4191
4.52                    -5.23903         89.2546
4.54                    -5.26853         86.9341
4.56                    -5.31596          84.423
4.58                    -5.38683         81.7058
4.6                     -5.48584          78.774
4.62                    -5.61449         75.6141
4.64                     -5.7739         72.1693
4.66                    -5.97118         68.3547
4.68                    -6.21771          64.078
4.7                     -6.53002         59.2265
4.72                    -6.92944         53.6777
4.74                    -7.43943         47.2539
4.76                    -8.09222         39.6687
4.78                    -8.93074         30.4801
4.8                     -10.0058         18.9455
4.82                    -11.3563         3.77829
4.84                    -12.9044        -17.2027
4.86                    -14.1473        -46.5205
4.88                    -14.0387        -81.9012
4.9                      -12.426         -113.82
4.92                    -10.3772        -138.008
4.94                    -8.56087        -156.408
4.96                    -7.12341        -171.175
4.98                    -6.03752         176.458
5                       -5.24564         165.818
5.02                    -4.70027         156.542
5.04                    -4.36662         148.521
5.06                    -4.19599         141.879
5.08                    -4.09093         136.663
5.1                     -3.96146         132.387
5.12                    -3.80968         128.459
5.14                    -3.67427          124.71
5.16                    -3.56998         121.204
5.18                    -3.49045          118.02
5.2                     -3.41759          115.19
5.22                    -3.32846         112.669
5.24                    -3.20413          110.33
5.26                    -3.03593         107.987
5.28                    -2.83174         105.441
5.3                     -2.61307         102.565
5.32                    -2.40354         99.3267
5.34                    -2.22186         95.7577
5.36                    -2.07905         91.9162
5.38                    -1.98005         87.8394
5.4                     -1.93144         83.5291
5.42                    -1.94822         78.9629
5.44                    -2.07446         74.1527
5.46                    -2.40655         69.7432
5.48                    -2.73895         68.0062
5.5                     -2.52412         65.6637
5.52                    -2.36581         60.3124
5.54                    -2.41274         53.8638
5.56                     -2.6141         46.6211
5.58                    -2.98054         38.2707
5.6                     -3.59491         28.2259
5.62                    -4.68258         15.7167
5.64                    -6.47806        0.772092
5.66                    -10.0287        -23.5067
5.68                    -19.8968        -75.0293
5.7                     -15.9739         132.414
5.72                    -11.1747         86.7026
5.74                    -13.7254         37.5511
5.76                    -16.0586         -124.75
5.78                    -6.00737         170.025
5.8                     -2.95222         137.937
5.82                    -1.81557          117.64
5.84                    -1.31071         103.527
5.86                    -1.05377         92.8465
5.88                    -0.91226         84.2079
5.9                    -0.832316         76.8684
5.92                   -0.788807         70.3977
5.94                    -0.76745         64.5336
5.96                   -0.758065         59.0886
5.98                   -0.755585         53.9109
6                      -0.759655         48.8826
6.02                   -0.773354         43.9183
6.04                   -0.800838         38.9712
6.06                   -0.842533         34.0189
6.08                   -0.894609         29.0184
6.1                    -0.953477         23.8764
6.12                    -1.02299         18.4283
6.14                    -1.12636         12.4371
6.16                     -1.3272         5.54224
6.18                     -1.9468        -3.71938
6.2                     -1.93652        -2.71474
6.22                    -3.04969        -8.73284
6.24                    -2.66841        -8.80585
6.26                    -2.03897        -20.2169
6.28                    -2.30318        -36.4816
6.3                     -3.46599        -58.3628
6.32                    -6.61579        -93.2674
6.34                    -13.3614        -177.202
6.36                    -8.31715         79.0652
6.38                    -4.56948         40.9557
6.4                     -3.05588         18.6098
6.42                    -2.35308         2.42356
6.44                    -1.99381        -10.8778
6.46                    -1.81109        -22.7881
6.48                    -1.73422        -34.0806
6.5                     -1.72386        -45.2404
