! TOUCHSTONE file generated by CST MICROWAVE STUDIO
! Date and time: Sat Oct 29 06:37:03 2022
! Project name: L.cst
! Parameters = {Di=1.27; Epsilon_r=1.56; InnerDiameter=1.27; Length=2; Lf=10; Lg=60; OuterConductorThickness=0.2921; OuterDiameter=3.6; Wf=3; Wp=41.2; de=1.5; df=6.8; g=0.8; gx=4.17594; gy=1.03849; h=2.34; hf=1.524; px=14.3845; py=9.36612; w=9.7; wx=10.2086; wy=8.32763}
! Header version: 2018
! Port assignment regex: !\s*Touchstone port\s*([0-9]+)\s*=\s*(CST MWS port|CST DS port)\s*([0-9]+|Zmin|Zmax)\s*\(\"(.*)\"\)(\s*mode\s*([0-9]+))?.*
! Touchstone port assignment:
! Touchstone port 1 = CST MWS port 1 ("")
# GHz S DB R 50
4.5                     -1.62973         63.2492
4.52                     -1.7368          60.617
4.54                    -1.84643         57.9257
4.56                    -1.95863         55.1469
4.58                    -2.07622         52.2604
4.6                     -2.20285         49.2636
4.62                    -2.34077         46.1687
4.64                    -2.48981         42.9906
4.66                    -2.64789         39.7346
4.68                    -2.81277         36.3914
4.7                     -2.98362         32.9416
4.72                    -3.16153         29.3662
4.74                    -3.34873         25.6558
4.76                    -3.54704         21.8128
4.78                    -3.75677         17.8454
4.8                     -3.97644         13.7597
4.82                    -4.20363         9.55242
4.84                    -4.43619         5.21095
4.86                    -4.67306        0.718869
4.88                    -4.91429        -3.93603
4.9                     -5.16007        -8.75647
4.92                    -5.40969         -13.736
4.94                    -5.66082         -18.864
4.96                    -5.90968        -24.1324
4.98                    -6.15188        -29.5386
5                       -6.38348        -35.0842
5.02                    -6.60163        -40.7689
5.04                    -6.80445        -46.5839
5.06                    -6.99034        -52.5081
5.08                    -7.15725        -58.5103
5.1                     -7.30232        -64.5548
5.12                    -7.42239        -70.6083
5.14                    -7.51492        -76.6436
5.16                    -7.57894         -82.639
5.18                    -7.61544        -88.5736
5.2                       -7.627        -94.4236
5.22                    -7.61682         -100.16
5.24                    -7.58766        -105.753
5.26                    -7.54142        -111.176
5.28                    -7.47937        -116.415
5.3                     -7.40295        -121.467
5.32                    -7.31448        -126.337
5.34                     -7.2173        -131.033
5.36                    -7.11519        -135.558
5.38                    -7.01135        -139.909
5.4                     -6.90762         -144.08
5.42                    -6.80433         -148.07
5.44                    -6.70105        -151.887
5.46                    -6.59765        -155.545
5.48                    -6.49507        -159.064
5.5                     -6.39524        -162.458
5.52                    -6.30026        -165.731
5.54                    -6.21122         -168.88
5.56                    -6.12765        -171.902
5.58                    -6.04785          -174.8
5.6                     -5.97011        -177.587
5.62                    -5.89389         179.719
5.64                    -5.82034         177.098
5.66                    -5.75152         174.542
5.68                    -5.68899         172.056
5.7                     -5.63259         169.648
5.72                    -5.58033         167.323
5.74                    -5.52964          165.07
5.76                    -5.47925         162.869
5.78                    -5.43033         160.694
5.8                     -5.38611         158.532
5.82                    -5.34994          156.39
5.84                    -5.32315         154.285
5.86                    -5.30414         152.235
5.88                    -5.28965         150.238
5.9                     -5.27756         148.273
5.92                     -5.2694         146.311
5.94                    -5.27059         144.335
5.96                    -5.28757         142.365
5.98                    -5.32357         140.448
6                       -5.37548         138.642
6.02                    -5.43455         136.974
6.04                     -5.4914         135.421
6.06                    -5.54286         133.918
6.08                     -5.5957         132.409
6.1                     -5.66293         130.904
6.12                     -5.7534         129.499
6.14                    -5.85995         128.347
6.16                     -5.9539         127.545
6.18                    -5.99398         127.021
6.2                     -5.95128         126.472
6.22                    -5.83636          125.48
6.24                    -5.70468         123.731
6.26                    -5.63469         121.202
6.28                    -5.69677         118.179
6.3                     -5.93001         115.183
6.32                    -6.32694         112.849
6.34                    -6.82217          111.76
6.36                    -7.29505         112.168
6.38                    -7.61444         113.709
6.4                     -7.72524         115.464
6.42                    -7.69286         116.589
6.44                    -7.64228         116.893
6.46                    -7.66289         116.825
6.48                    -7.75917         117.061
6.5                     -7.85413         118.052
