! TOUCHSTONE file generated by CST MICROWAVE STUDIO
! Date and time: Thu Oct 27 19:17:58 2022
! Project name: L.cst
! Parameters = {Di=1.27; Epsilon_r=1.56; InnerDiameter=1.27; Length=2; Lf=10; Lg=60; OuterConductorThickness=0.2921; OuterDiameter=3.6; Wf=3; Wp=41.2; de=1.5; df=6.8; g=0.8; gx=0.9745; gy=3.10512; h=2.34; hf=1.524; px=14.9491; py=13.261; w=9.7; wx=13.9746; wy=10.1559}
! Header version: 2018
! Port assignment regex: !\s*Touchstone port\s*([0-9]+)\s*=\s*(CST MWS port|CST DS port)\s*([0-9]+|Zmin|Zmax)\s*\(\"(.*)\"\)(\s*mode\s*([0-9]+))?.*
! Touchstone port assignment:
! Touchstone port 1 = CST MWS port 1 ("")
# GHz S DB R 50
4.5                     -4.06064         99.9036
4.52                    -3.99856         97.9917
4.54                    -4.16877         95.6247
4.56                     -4.2304         93.6224
4.58                    -4.49588         90.6854
4.6                     -4.76866         88.5013
4.62                    -5.24065         85.2232
4.64                    -5.91396         83.1524
4.66                    -6.88038         80.7457
4.68                    -8.38115         81.8347
4.7                     -10.1881         88.5798
4.72                    -11.2586         108.871
4.74                    -9.35132         127.455
4.76                    -6.65584          132.22
4.78                    -4.62314         127.609
4.8                     -3.45616         120.845
4.82                    -2.74988         113.604
4.84                    -2.46803         106.835
4.86                    -2.35259         100.712
4.88                    -2.48371         94.7842
4.9                     -2.75687         89.6214
4.92                    -3.27303         84.5752
4.94                    -4.05452         81.1044
4.96                    -5.10762         79.5219
4.98                     -6.2759         82.9259
5                       -6.85061         90.5583
5.02                    -6.53974         98.8227
5.04                    -5.73185         103.184
5.06                    -4.84937         105.904
5.08                    -3.73936          105.48
5.1                     -2.90997         102.311
5.12                    -2.31514         98.2669
5.14                    -1.97598         94.1101
5.16                    -1.70165         90.3557
5.18                    -1.54441         86.4734
5.2                     -1.40751         83.1052
5.22                     -1.3198          79.385
5.24                    -1.26263         76.1454
5.26                    -1.20507         72.4028
5.28                    -1.20999         68.9851
5.3                     -1.17275         64.9769
5.32                    -1.24426         60.9184
5.34                    -1.24748         56.1601
5.36                    -1.43394         50.4663
5.38                    -1.60312         43.6438
5.4                      -2.1366         33.5586
5.42                     -3.1256         18.6058
5.44                      -6.648        -14.2387
5.46                    -15.6364        -141.464
5.48                    -5.09328          130.68
5.5                     -2.41712         101.415
5.52                    -1.59623         87.4562
5.54                     -1.1809         77.5255
5.56                    -1.06037         71.0653
5.58                   -0.902798         65.5744
5.6                      -0.8917         61.1855
5.62                   -0.802852         57.3171
5.64                   -0.811465         53.7184
5.66                   -0.755208         50.5934
5.68                   -0.760784          47.359
5.7                    -0.724452         44.5757
5.72                   -0.737033          41.458
5.74                   -0.744429         39.0662
5.76                   -0.705632         36.2777
5.78                   -0.706497           33.72
5.8                    -0.675532         30.9897
5.82                    -0.68584         28.4205
5.84                   -0.653874         25.7783
5.86                   -0.666609         23.1453
5.88                   -0.637558         20.5648
5.9                    -0.647887         17.8466
5.92                   -0.626552         15.2948
5.94                   -0.630668         12.4909
5.96                   -0.621051         9.92655
5.98                    -0.61693         7.05167
6                      -0.621176         4.42643
6.02                   -0.609399         1.50257
6.04                   -0.627264        -1.23191
6.06                   -0.610989        -4.18508
6.08                   -0.640064        -7.07268
6.1                     -0.62491        -10.0461
6.12                   -0.661185        -13.1221
6.14                   -0.654937         -16.126
6.16                   -0.693923        -19.4141
6.18                   -0.706036        -22.4887
6.2                    -0.745236        -26.0036
6.22                   -0.786992        -29.2288
6.24                   -0.830885        -32.9926
6.26                   -0.921011        -36.5021
6.28                   -0.998147        -40.5703
6.3                     -1.20017        -44.5091
6.32                    -1.45808        -48.5887
6.34                    -1.93737        -50.7474
6.36                    -1.85251        -51.0934
6.38                    -1.56615        -55.1893
6.4                     -1.49964        -60.5784
6.42                     -1.6173         -67.008
6.44                    -1.88339        -73.3293
6.46                    -2.27049        -81.6091
6.48                    -3.16969        -91.0973
6.5                     -4.87778        -104.569
