! TOUCHSTONE file generated by CST MICROWAVE STUDIO
! Date and time: Thu Oct 27 20:19:34 2022
! Project name: L.cst
! Parameters = {Di=1.27; Epsilon_r=1.56; InnerDiameter=1.27; Length=2; Lf=10; Lg=60; OuterConductorThickness=0.2921; OuterDiameter=3.6; Wf=3; Wp=41.2; de=1.5; df=6.8; g=0.8; gx=3.14992; gy=0.832457; h=2.34; hf=1.524; px=10.5244; py=12.0869; w=9.7; wx=7.37452; wy=11.2545}
! Header version: 2018
! Port assignment regex: !\s*Touchstone port\s*([0-9]+)\s*=\s*(CST MWS port|CST DS port)\s*([0-9]+|Zmin|Zmax)\s*\(\"(.*)\"\)(\s*mode\s*([0-9]+))?.*
! Touchstone port assignment:
! Touchstone port 1 = CST MWS port 1 ("")
# GHz S DB R 50
4.5                    -0.758953         66.2385
4.52                    -0.77499         64.0771
4.54                   -0.806991         61.8295
4.56                   -0.851157         59.5926
4.58                   -0.893505          57.388
4.6                    -0.924673          55.148
4.62                   -0.948454         52.7895
4.64                   -0.976467         50.2927
4.66                    -1.01601         47.7088
4.68                    -1.06369         45.0976
4.7                     -1.10998         42.4661
4.72                    -1.14911         39.7624
4.74                    -1.18431         36.9281
4.76                    -1.22374         33.9501
4.78                    -1.27226         30.8626
4.8                     -1.32716         27.7044
4.82                    -1.38159         24.4751
4.84                    -1.43154         21.1324
4.86                    -1.47955         17.6295
4.88                    -1.53182         13.9527
4.9                     -1.59218         10.1238
4.92                    -1.65883          6.1683
4.94                    -1.72671         2.08322
4.96                    -1.79271        -2.16704
4.98                    -1.85885        -6.62344
5                       -1.93038         -11.302
5.02                    -2.01119        -16.1885
5.04                    -2.10081        -21.2605
5.06                     -2.1957        -26.5138
5.08                    -2.29328          -31.97
5.1                     -2.39492        -37.6564
5.12                    -2.50515        -43.5802
5.14                    -2.62793        -49.7171
5.16                    -2.76333        -56.0258
5.18                    -2.90748         -62.473
5.2                     -3.05552        -69.0473
5.22                    -3.20499        -75.7514
5.24                    -3.35664        -82.5793
5.26                    -3.51197         -89.501
5.28                    -3.66986        -96.4689
5.3                      -3.8255        -103.441
5.32                    -3.97281        -110.404
5.34                    -4.10884         -117.37
5.36                    -4.23632        -124.358
5.38                    -4.36231        -131.361
5.4                     -4.49397        -138.343
5.42                     -4.6352        -145.252
5.44                    -4.78711         -152.05
5.46                    -4.95186        -158.724
5.48                     -5.1364        -165.265
5.5                     -5.35214        -171.636
5.52                    -5.60977        -177.744
5.54                    -5.91251         176.549
5.56                    -6.25263          171.38
5.58                    -6.61404         166.846
5.6                     -6.97889         162.987
5.62                    -7.33177         159.823
5.64                    -7.65552         157.387
5.66                    -7.92186         155.707
5.68                    -8.09007           154.7
5.7                     -8.12482         154.091
5.72                    -8.02174         153.483
5.74                    -7.81193         152.568
5.76                    -7.53663         151.251
5.78                    -7.21979         149.584
5.8                     -6.86547         147.586
5.82                    -6.47807         145.167
5.84                    -6.08021         142.215
5.86                    -5.70771         138.741
5.88                    -5.38682         134.914
5.9                     -5.11679         130.945
5.92                    -4.87554         126.913
5.94                    -4.64855         122.683
5.96                    -4.45909         118.046
5.98                    -4.36981         112.987
6                       -4.44892         107.899
6.02                    -4.71796           103.6
6.04                    -5.09368         101.091
6.06                    -5.35154         100.894
6.08                    -5.22021         102.051
6.1                      -4.6413         102.299
6.12                    -3.84173         100.048
6.14                    -3.09008         95.3793
6.16                    -2.52467         89.2406
6.18                    -2.15744         82.5822
6.2                      -1.9299         75.9806
6.22                    -1.76873         69.5603
6.24                    -1.63024          63.132
6.26                    -1.51372         56.4733
6.28                    -1.43692         49.5315
6.3                     -1.40195         42.3817
6.32                    -1.38744         35.0119
6.34                    -1.37723         27.1747
6.36                    -1.39935         18.5015
6.38                    -1.53306         8.82355
6.4                     -1.87231        -1.56869
6.42                    -2.46848        -11.8808
6.44                    -3.26248         -20.999
6.46                     -4.0152        -28.1637
6.48                    -4.36666        -34.3922
6.5                     -4.18259        -42.8799
