! TOUCHSTONE file generated by CST MICROWAVE STUDIO
! Date and time: Sat Oct 29 07:05:22 2022
! Project name: L.cst
! Parameters = {Di=1.27; Epsilon_r=1.56; InnerDiameter=1.27; Length=2; Lf=10; Lg=60; OuterConductorThickness=0.2921; OuterDiameter=3.6; Wf=3; Wp=41.2; de=1.5; df=6.8; g=0.8; gx=2.14321; gy=1.9948; h=2.34; hf=1.524; px=8.82372; py=13.4442; w=9.7; wx=6.68051; wy=11.4494}
! Header version: 2018
! Port assignment regex: !\s*Touchstone port\s*([0-9]+)\s*=\s*(CST MWS port|CST DS port)\s*([0-9]+|Zmin|Zmax)\s*\(\"(.*)\"\)(\s*mode\s*([0-9]+))?.*
! Touchstone port assignment:
! Touchstone port 1 = CST MWS port 1 ("")
# GHz S DB R 50
4.5                    -0.585593         75.7114
4.52                   -0.573501          74.197
4.54                   -0.567245         72.4145
4.56                   -0.595742         70.5637
4.58                   -0.641939          68.874
4.6                    -0.669653         67.3202
4.62                   -0.670671         65.6831
4.64                   -0.671581         63.8454
4.66                   -0.696284         61.9229
4.68                   -0.737042         60.0911
4.7                    -0.767655         58.3615
4.72                    -0.77797         56.5831
4.74                   -0.784936         54.6474
4.76                   -0.808509         52.6175
4.78                    -0.84666         50.6301
4.8                    -0.880061         48.7179
4.82                   -0.897741         46.7765
4.84                   -0.910164         44.7058
4.86                   -0.934181          42.534
4.88                   -0.971454          40.369
4.9                     -1.00759         38.2562
4.92                     -1.0313         36.1241
4.94                    -1.04844           33.88
4.96                    -1.07344         31.5267
4.98                    -1.11057         29.1501
5                       -1.14923         26.8041
5.02                    -1.17796          24.442
5.04                    -1.19902         21.9774
5.06                    -1.22479         19.3926
5.08                    -1.26166         16.7543
5.1                     -1.30216         14.1227
5.12                    -1.33483         11.4713
5.14                    -1.35886         8.71876
5.16                    -1.38484         5.82857
5.18                     -1.4211         2.84911
5.2                      -1.4633       -0.154941
5.22                    -1.50019        -3.19077
5.24                    -1.52811        -6.33453
5.26                    -1.55591        -9.64102
5.28                    -1.59394        -13.0816
5.3                      -1.6414        -16.5877
5.32                    -1.68766        -20.1448
5.34                    -1.72604        -23.8198
5.36                    -1.76298        -27.6862
5.38                    -1.81066        -31.7393
5.4                     -1.87236        -35.9098
5.42                    -1.93861        -40.1588
5.44                    -1.99914        -44.5398
5.46                    -2.05659        -49.1495
5.48                    -2.12464        -54.0227
5.5                     -2.21259        -59.1038
5.52                    -2.31489        -64.3307
5.54                    -2.41901        -69.7355
5.56                    -2.52334        -75.4387
5.58                    -2.64398        -81.5345
5.6                     -2.80148        -88.0011
5.62                    -3.00287        -94.7449
5.64                    -3.24016        -101.729
5.66                     -3.5089        -109.043
5.68                    -3.82729         -116.81
5.7                     -4.23292        -125.024
5.72                    -4.75732        -133.469
5.74                    -5.40204        -141.835
5.76                    -6.13869        -149.909
5.78                    -6.93786        -157.686
5.8                     -7.80004        -165.218
5.82                    -8.74335        -172.293
5.84                    -9.73444         -178.35
5.86                    -10.6223         176.991
5.88                    -11.2031         172.989
5.9                     -11.4373         167.897
5.92                    -11.4951         160.693
5.94                    -11.4999         151.823
5.96                    -11.3418         141.893
5.98                      -10.79         129.995
6                       -9.80351         113.925
6.02                     -8.5891         92.3747
6.04                    -7.36203         65.8515
6.06                    -6.22871         35.8779
6.08                    -5.23757         4.18572
6.1                     -4.43843        -27.6967
6.12                     -3.8907        -58.5852
6.14                     -3.6369        -87.5713
6.16                    -3.66533        -113.892
6.18                    -3.87303        -136.971
6.2                     -4.05977        -156.841
6.22                    -4.02591         -174.67
6.24                    -3.74892         167.639
6.26                    -3.40283         148.868
6.28                    -3.18028         129.115
6.3                     -3.15283         109.247
6.32                    -3.24357         90.0791
6.34                    -3.27544         71.6604
6.36                    -3.10446         52.9256
6.38                    -2.75679         32.3657
6.4                     -2.39752         9.17747
6.42                    -2.18728        -16.4348
6.44                    -2.20336        -43.6708
6.46                    -2.43641        -71.4893
6.48                    -2.80188        -98.7847
6.5                     -3.14794        -124.631
