! TOUCHSTONE file generated by CST MICROWAVE STUDIO
! Date and time: Sat Oct 29 16:48:23 2022
! Project name: L.cst
! Parameters = {Di=1.27; Epsilon_r=1.56; InnerDiameter=1.27; Length=2; Lf=10; Lg=60; OuterConductorThickness=0.2921; OuterDiameter=3.6; Wf=3; Wp=41.2; de=1.5; df=6.8; g=0.8; gx=2.73803; gy=1.43024; h=2.34; hf=1.524; px=12.4809; py=8.9421; w=9.7; wx=9.74283; wy=7.51185}
! Header version: 2018
! Port assignment regex: !\s*Touchstone port\s*([0-9]+)\s*=\s*(CST MWS port|CST DS port)\s*([0-9]+|Zmin|Zmax)\s*\(\"(.*)\"\)(\s*mode\s*([0-9]+))?.*
! Touchstone port assignment:
! Touchstone port 1 = CST MWS port 1 ("")
# GHz S DB R 50
4.5                     -1.42639          63.511
4.52                    -1.50011         61.2577
4.54                    -1.57548         58.9492
4.56                      -1.653          56.582
4.58                    -1.73317         54.1531
4.6                     -1.81648         51.6602
4.62                    -1.90343         49.1011
4.64                    -1.99446         46.4745
4.66                       -2.09         43.7791
4.68                     -2.1904         41.0139
4.7                     -2.29597         38.1785
4.72                    -2.40696          35.272
4.74                    -2.52356         32.2943
4.76                    -2.64587         29.2451
4.78                    -2.77394          26.124
4.8                     -2.90776         22.9309
4.82                     -3.0472         19.6655
4.84                    -3.19212         16.3277
4.86                    -3.34225         12.9172
4.88                    -3.49727         9.43379
4.9                     -3.65678         5.87745
4.92                     -3.8203          2.2481
4.94                    -3.98727         -1.4542
4.96                    -4.15706        -5.22917
4.98                    -4.32896        -9.07631
5                       -4.50218        -12.9948
5.02                    -4.67586        -16.9834
5.04                     -4.8491        -21.0405
5.06                    -5.02093        -25.1637
5.08                    -5.19032        -29.3502
5.1                     -5.35625        -33.5962
5.12                    -5.51765        -37.8975
5.14                     -5.6735        -42.2487
5.16                    -5.82277        -46.6437
5.18                    -5.96452        -51.0754
5.2                     -6.09787        -55.5361
5.22                    -6.22206        -60.0173
5.24                    -6.33643        -64.5096
5.26                    -6.44048        -69.0033
5.28                    -6.53387        -73.4885
5.3                     -6.61643        -77.9549
5.32                    -6.68814        -82.3924
5.34                    -6.74916         -86.791
5.36                    -6.79979        -91.1412
5.38                    -6.84047        -95.4341
5.4                     -6.87177        -99.6615
5.42                    -6.89435        -103.816
5.44                    -6.90891        -107.891
5.46                    -6.91624        -111.882
5.48                    -6.91712        -115.783
5.5                     -6.91235        -119.591
5.52                    -6.90269        -123.304
5.54                    -6.88887        -126.919
5.56                    -6.87158        -130.435
5.58                    -6.85146        -133.851
5.6                     -6.82907        -137.169
5.62                     -6.8049        -140.388
5.64                     -6.7794         -143.51
5.66                    -6.75291        -146.537
5.68                    -6.72575         -149.47
5.7                     -6.69816        -152.313
5.72                    -6.67033        -155.067
5.74                     -6.6424        -157.736
5.76                    -6.61448        -160.323
5.78                    -6.58666        -162.831
5.8                     -6.55898        -165.265
5.82                     -6.5315        -167.627
5.84                    -6.50426        -169.922
5.86                    -6.47732        -172.154
5.88                    -6.45073        -174.328
5.9                     -6.42459        -176.446
5.92                    -6.39901        -178.514
5.94                    -6.37415         179.465
5.96                    -6.35021         177.486
5.98                    -6.32743         175.546
6                       -6.30609         173.642
6.02                    -6.28656         171.769
6.04                    -6.26921         169.924
6.06                    -6.25448         168.107
6.08                    -6.24288         166.313
6.1                     -6.23492         164.542
6.12                    -6.23119         162.793
6.14                    -6.23228         161.066
6.16                    -6.23881         159.361
6.18                    -6.25143         157.679
6.2                     -6.27076         156.023
6.22                    -6.29742         154.395
6.24                    -6.33202         152.801
6.26                    -6.37507         151.246
6.28                    -6.42706         149.735
6.3                     -6.48833         148.278
6.32                     -6.5591         146.882
6.34                     -6.6394         145.558
6.36                    -6.72902         144.319
6.38                    -6.82744         143.177
6.4                     -6.93377         142.147
6.42                    -7.04662         141.243
6.44                    -7.16409         140.481
6.46                    -7.28355         139.877
6.48                    -7.40164         139.445
6.5                     -7.51419         139.196
