! TOUCHSTONE file generated by CST MICROWAVE STUDIO
! Date and time: Thu Oct 27 22:24:17 2022
! Project name: L.cst
! Parameters = {Di=1.27; Epsilon_r=1.56; InnerDiameter=1.27; Length=2; Lf=10; Lg=60; OuterConductorThickness=0.2921; OuterDiameter=3.6; Wf=3; Wp=41.2; de=1.5; df=6.8; g=0.8; gx=4.69816; gy=0.815115; h=2.34; hf=1.524; px=8.20938; py=12.748; w=9.7; wx=3.51122; wy=11.9329}
! Header version: 2018
! Port assignment regex: !\s*Touchstone port\s*([0-9]+)\s*=\s*(CST MWS port|CST DS port)\s*([0-9]+|Zmin|Zmax)\s*\(\"(.*)\"\)(\s*mode\s*([0-9]+))?.*
! Touchstone port assignment:
! Touchstone port 1 = CST MWS port 1 ("")
# GHz S DB R 50
4.5                    -0.400272           76.97
4.52                   -0.382011         75.2138
4.54                   -0.422832         73.4825
4.56                   -0.432043         72.0276
4.58                   -0.419018         70.2476
4.6                    -0.453729         68.4603
4.62                   -0.465513         66.9006
4.64                   -0.456807         65.0795
4.66                   -0.487165         63.2284
4.68                   -0.500885         61.5658
4.7                    -0.495599         59.6881
4.72                   -0.522827         57.7626
4.74                   -0.538282         55.9944
4.76                   -0.535941         54.0467
4.78                   -0.560846         52.0367
4.8                    -0.577641         50.1576
4.82                   -0.577695         48.1245
4.84                   -0.600926         46.0167
4.86                   -0.618955         44.0176
4.88                      -0.621         41.8839
4.9                     -0.64285         39.6634
4.92                   -0.661845         37.5315
4.94                   -0.665439         35.2786
4.96                   -0.686033         32.9267
4.98                   -0.705657         30.6447
5                      -0.710178         28.2503
5.02                   -0.729246         25.7425
5.04                   -0.748972         23.2853
5.06                    -0.75369         20.7196
5.08                   -0.770703          18.023
5.1                    -0.789803         15.3551
5.12                   -0.793778          12.577
5.14                   -0.807868         9.64447
5.16                   -0.825459         6.71263
5.18                   -0.827839         3.66072
5.2                    -0.838414        0.421301
5.22                   -0.854348        -2.85565
5.24                   -0.855578        -6.27386
5.26                   -0.863886        -9.92619
5.28                   -0.880913        -13.6694
5.3                    -0.885581        -17.5877
5.32                   -0.898106        -21.8014
5.34                   -0.925597        -26.1745
5.36                   -0.946314        -30.7654
5.38                   -0.978228        -35.7226
5.4                     -1.03476        -40.9211
5.42                    -1.09365        -46.3861
5.44                    -1.16909        -52.3006
5.46                    -1.28225        -58.5663
5.48                    -1.41205        -65.1704
5.5                     -1.56804        -72.3406
5.52                    -1.78312         -80.031
5.54                    -2.04357        -88.1761
5.56                    -2.35451        -97.0344
5.58                    -2.76636        -106.634
5.6                     -3.28392        -116.806
5.62                    -3.90517         -127.76
5.64                    -4.69744        -139.614
5.66                    -5.69718        -152.023
5.68                    -6.88141            -165
5.7                     -8.31328        -178.856
5.72                     -10.096         166.666
5.74                    -12.2074         151.987
5.76                    -14.7019         135.953
5.78                    -17.9845         117.449
5.8                     -22.5991         95.4583
5.82                    -29.1199         56.0252
5.84                    -29.7206        -35.9202
5.86                    -23.6537        -83.0452
5.88                     -20.052        -107.541
5.9                     -17.4614        -124.748
5.92                    -15.1575        -141.089
5.94                    -13.3703        -157.958
5.96                     -11.978         -172.83
5.98                    -10.5223         173.527
6                       -9.16453         158.656
6.02                     -8.1843         144.223
6.04                    -7.24449         131.575
6.06                     -6.2278           117.9
6.08                    -5.61017         103.002
6.1                     -5.30657         89.9167
6.12                    -4.86979          76.156
6.14                    -5.16142         57.2127
6.16                    -8.02839          39.839
6.18                    -12.9913         66.4139
6.2                     -6.86324         91.2509
6.22                    -3.05891         72.8048
6.24                    -1.96442         52.6111
6.26                    -1.86902         38.6839
6.28                    -1.60683         28.1528
6.3                     -1.35058         16.3457
6.32                      -1.472         4.71942
6.34                    -1.68321        -5.07481
6.36                    -1.70582        -15.5062
6.38                    -2.00477        -30.0883
6.4                     -3.80096        -47.4322
6.42                    -8.64704        -49.2506
6.44                    -7.60761        -7.06813
6.46                    -2.43065        -18.0561
6.48                   -0.823152        -44.9913
6.5                     -1.29854        -68.8531
