! TOUCHSTONE file generated by CST MICROWAVE STUDIO
! Date and time: Sat Oct 29 17:17:29 2022
! Project name: L.cst
! Parameters = {Di=1.27; Epsilon_r=1.56; InnerDiameter=1.27; Length=2; Lf=10; Lg=60; OuterConductorThickness=0.2921; OuterDiameter=3.6; Wf=3; Wp=41.2; de=1.5; df=6.8; g=0.8; gx=3.36415; gy=3.14217; h=2.34; hf=1.524; px=9.81539; py=10.2632; w=9.7; wx=6.45124; wy=7.12106}
! Header version: 2018
! Port assignment regex: !\s*Touchstone port\s*([0-9]+)\s*=\s*(CST MWS port|CST DS port)\s*([0-9]+|Zmin|Zmax)\s*\(\"(.*)\"\)(\s*mode\s*([0-9]+))?.*
! Touchstone port assignment:
! Touchstone port 1 = CST MWS port 1 ("")
# GHz S DB R 50
4.5                    -0.362939         91.5817
4.52                   -0.372593         90.1261
4.54                   -0.382566         88.6574
4.56                   -0.392876         87.1757
4.58                    -0.40353          85.681
4.6                    -0.414532         84.1731
4.62                   -0.425881         82.6521
4.64                   -0.437573         81.1179
4.66                   -0.449601         79.5703
4.68                   -0.461956         78.0092
4.7                    -0.474629         76.4346
4.72                   -0.487608         74.8461
4.74                   -0.500885         73.2438
4.76                   -0.514449         71.6273
4.78                   -0.528292         69.9965
4.8                    -0.542407         68.3512
4.82                   -0.556788         66.6911
4.84                   -0.571429          65.016
4.86                   -0.586327         63.3259
4.88                   -0.601481         61.6203
4.9                    -0.616889         59.8992
4.92                   -0.632554         58.1624
4.94                   -0.648475         56.4096
4.96                   -0.664657         54.6408
4.98                   -0.681102         52.8558
5                      -0.697814         51.0545
5.02                   -0.714795         49.2368
5.04                   -0.732052         47.4026
5.06                   -0.749586         45.5518
5.08                     -0.7674         43.6845
5.1                    -0.785498         41.8006
5.12                    -0.80388         39.9001
5.14                   -0.822547         37.9831
5.16                   -0.841499         36.0496
5.18                   -0.860731         34.0998
5.2                    -0.880244         32.1338
5.22                   -0.900029         30.1516
5.24                   -0.920081         28.1535
5.26                   -0.940393         26.1398
5.28                   -0.960954         24.1104
5.3                    -0.981753         22.0658
5.32                    -1.00278         20.0062
5.34                    -1.02401          17.932
5.36                    -1.04544         15.8433
5.38                    -1.06705         13.7406
5.4                     -1.08882         11.6243
5.42                    -1.11073          9.4947
5.44                    -1.13275         7.35228
5.46                    -1.15487         5.19747
5.48                    -1.17706         3.03074
5.5                     -1.19931        0.852585
5.52                    -1.22158        -1.33648
5.54                    -1.24385        -3.53591
5.56                    -1.26609        -5.74514
5.58                    -1.28829         -7.9636
5.6                     -1.31041        -10.1907
5.62                    -1.33243        -12.4257
5.64                    -1.35432        -14.6681
5.66                    -1.37606        -16.9172
5.68                    -1.39763        -19.1723
5.7                     -1.41899        -21.4327
5.72                    -1.44013        -23.6977
5.74                    -1.46102        -25.9666
5.76                    -1.48163        -28.2385
5.78                    -1.50196        -30.5129
5.8                     -1.52196        -32.7888
5.82                    -1.54163        -35.0657
5.84                    -1.56094        -37.3426
5.86                    -1.57988        -39.6189
5.88                    -1.59841        -41.8938
5.9                     -1.61653        -44.1664
5.92                    -1.63421        -46.4361
5.94                    -1.65144        -48.7021
5.96                     -1.6682        -50.9636
5.98                    -1.68446          -53.22
6                       -1.70022        -55.4705
6.02                    -1.71546        -57.7145
6.04                    -1.73016        -59.9513
6.06                     -1.7443        -62.1802
6.08                    -1.75786        -64.4008
6.1                     -1.77085        -66.6123
6.12                    -1.78322        -68.8144
6.14                    -1.79499        -71.0064
6.16                    -1.80613         -73.188
6.18                    -1.81663        -75.3588
6.2                     -1.82648        -77.5184
6.22                    -1.83568        -79.6665
6.24                    -1.84422        -81.8028
6.26                     -1.8521        -83.9272
6.28                    -1.85933        -86.0395
6.3                     -1.86591        -88.1395
6.32                    -1.87185        -90.2273
6.34                    -1.87717        -92.3028
6.36                    -1.88189        -94.3659
6.38                    -1.88605        -96.4168
6.4                     -1.88969        -98.4555
6.42                    -1.89283        -100.482
6.44                    -1.89555        -102.497
6.46                    -1.89788        -104.499
6.48                    -1.89992         -106.49
6.5                     -1.90171        -108.469
