! TOUCHSTONE file generated by CST MICROWAVE STUDIO
! Date and time: Thu Oct 27 06:24:16 2022
! Project name: L.cst
! Parameters = {Di=1.27; Epsilon_r=1.56; InnerDiameter=1.27; Length=2; Lf=10; Lg=60; OuterConductorThickness=0.2921; OuterDiameter=3.6; Wf=3; Wp=41.2; de=1.5; df=6.8; g=0.8; gx=2.47413; gy=1.07994; h=2.34; hf=1.524; px=10.8048; py=14.6115; w=9.7; wx=8.33067; wy=13.5316}
! Header version: 2018
! Port assignment regex: !\s*Touchstone port\s*([0-9]+)\s*=\s*(CST MWS port|CST DS port)\s*([0-9]+|Zmin|Zmax)\s*\(\"(.*)\"\)(\s*mode\s*([0-9]+))?.*
! Touchstone port assignment:
! Touchstone port 1 = CST MWS port 1 ("")
# GHz S DB R 50
4.5                     -1.43957         57.2655
4.52                    -1.49023         54.8805
4.54                    -1.53822         52.3922
4.56                    -1.58369         49.7851
4.58                    -1.62585         47.0356
4.6                     -1.66546         44.1129
4.62                    -1.70342         40.9885
4.64                    -1.74072         37.6218
4.66                    -1.78034         33.9678
4.68                    -1.82541         29.9785
4.7                     -1.88073         25.5895
4.72                    -1.95394           20.73
4.74                    -2.05502         15.3142
4.76                    -2.20001         9.23779
4.78                    -2.41321         2.38901
4.8                     -2.73163        -5.34123
4.82                    -3.21093         -14.013
4.84                    -3.92813        -23.5437
4.86                    -4.97399        -33.5668
4.88                    -6.42582        -43.2908
4.9                     -8.29534         -51.475
4.92                    -10.4645        -56.6931
4.94                    -12.6411        -58.0008
4.96                    -14.4101        -56.0781
4.98                    -15.5074        -53.8011
5                       -16.0524        -54.3207
5.02                    -16.3295        -59.0345
5.04                    -16.5089        -68.0239
5.06                    -16.5914        -80.9263
5.08                    -16.4552        -97.0946
5.1                     -15.9593        -115.341
5.12                    -15.0618        -134.006
5.14                     -13.859         -151.71
5.16                    -12.5144         -167.88
5.18                    -11.1679         177.427
5.2                      -9.9075         163.869
5.22                    -8.78555         151.061
5.24                    -7.83823         138.677
5.26                    -7.10409         126.451
5.28                    -6.65062         114.202
5.3                     -6.62157         102.052
5.32                     -7.3173         91.5502
5.34                    -8.82836         90.7246
5.36                    -7.80701         104.012
5.38                    -4.67695         97.1741
5.4                     -3.08387         79.6409
5.42                    -2.50245         61.0781
5.44                    -2.44775         41.6205
5.46                    -2.82268         19.2667
5.48                    -3.75841        -9.56846
5.5                     -5.45091        -51.8498
5.52                    -6.83052        -116.478
5.54                    -5.39375         175.919
5.56                    -3.47863         130.168
5.58                    -2.43436         99.6975
5.6                     -1.98976         77.2318
5.62                    -1.91157         58.7404
5.64                    -2.24654         41.2037
5.66                    -5.07862         22.5918
5.68                    -2.33718         42.8812
5.7                     -1.79402         21.4287
5.72                      -1.967         6.98352
5.74                    -2.21592        -6.06921
5.76                    -2.49777        -19.0932
5.78                    -2.80467         -32.784
5.8                     -3.13145         -47.753
5.82                    -3.46786        -64.7322
5.84                    -3.79226        -84.7593
5.86                    -4.05917        -109.452
5.88                    -4.17333        -141.605
5.9                     -3.94988         173.444
5.92                    -3.14177         105.953
5.94                    -2.17745         12.9494
5.96                    -1.83027        -72.3949
5.98                    -1.41596        -132.192
6                      -0.920245         -175.54
6.02                   -0.561647         150.726
6.04                   -0.410449         123.497
6.06                    -0.43758          101.14
6.08                   -0.585458         82.5409
6.1                    -0.804243         66.8512
6.12                    -1.05865         53.4131
6.14                    -1.32754           41.72
6.16                    -1.59866         31.3959
6.18                    -1.86474         22.1543
6.2                     -2.12247         13.7799
6.22                    -2.36989         6.11083
6.24                    -2.60613       -0.979206
6.26                    -2.83111        -7.58701
6.28                    -3.04484        -13.7884
6.3                     -3.24748        -19.6442
6.32                    -3.43945         -25.203
6.34                    -3.62109         -30.503
6.36                    -3.79262         -35.577
6.38                    -3.95458        -40.4518
6.4                     -4.10731         -45.148
6.42                      -4.251        -49.6851
6.44                     -4.3863        -54.0787
6.46                     -4.5133        -58.3405
6.48                    -4.63244        -62.4849
6.5                     -4.74439        -66.5191
