! TOUCHSTONE file generated by CST MICROWAVE STUDIO
! Date and time: Thu Oct 27 08:54:22 2022
! Project name: L.cst
! Parameters = {Di=1.27; Epsilon_r=1.56; InnerDiameter=1.27; Length=2; Lf=10; Lg=60; OuterConductorThickness=0.2921; OuterDiameter=3.6; Wf=3; Wp=41.2; de=1.5; df=6.8; g=0.8; gx=2.85849; gy=4.31897; h=2.34; hf=1.524; px=9.97912; py=8.40527; w=9.7; wx=7.12063; wy=4.0863}
! Header version: 2018
! Port assignment regex: !\s*Touchstone port\s*([0-9]+)\s*=\s*(CST MWS port|CST DS port)\s*([0-9]+|Zmin|Zmax)\s*\(\"(.*)\"\)(\s*mode\s*([0-9]+))?.*
! Touchstone port assignment:
! Touchstone port 1 = CST MWS port 1 ("")
# GHz S DB R 50
4.5                    -0.340931          96.088
4.52                   -0.350246         94.6517
4.54                   -0.359805         93.2053
4.56                   -0.369614         91.7487
4.58                   -0.379674         90.2819
4.6                    -0.389983         88.8048
4.62                   -0.400541         87.3174
4.64                   -0.411344         85.8196
4.66                   -0.422387         84.3114
4.68                   -0.433665         82.7926
4.7                    -0.445176         81.2632
4.72                   -0.456913         79.7231
4.74                   -0.468872         78.1723
4.76                   -0.481051         76.6107
4.78                   -0.493446          75.038
4.8                    -0.506055         73.4543
4.82                   -0.518878         71.8595
4.84                   -0.531913         70.2535
4.86                   -0.545161         68.6363
4.88                   -0.558623         67.0077
4.9                      -0.5723         65.3678
4.92                   -0.586195         63.7165
4.94                   -0.600309         62.0538
4.96                   -0.614646         60.3796
4.98                   -0.629208          58.694
5                      -0.643998         56.9971
5.02                   -0.659018         55.2887
5.04                   -0.674272         53.5691
5.06                   -0.689761         51.8382
5.08                   -0.705486         50.0962
5.1                     -0.72145         48.3431
5.12                   -0.737652         46.5791
5.14                   -0.754093         44.8043
5.16                   -0.770772         43.0188
5.18                   -0.787688         41.2229
5.2                    -0.804836         39.4167
5.22                   -0.822215         37.6005
5.24                   -0.839821         35.7744
5.26                   -0.857647         33.9387
5.28                   -0.875689         32.0936
5.3                     -0.89394         30.2394
5.32                   -0.912393         28.3765
5.34                   -0.931039         26.5049
5.36                    -0.94987         24.6253
5.38                   -0.968874         22.7377
5.4                    -0.988043         20.8426
5.42                    -1.00737         18.9403
5.44                    -1.02683         17.0312
5.46                    -1.04642         15.1157
5.48                    -1.06614         13.1942
5.5                     -1.08595         11.2671
5.52                    -1.10586         9.33473
5.54                    -1.12585         7.39763
5.56                     -1.1459         5.45621
5.58                    -1.16599         3.51092
5.6                     -1.18613         1.56223
5.62                    -1.20628       -0.389394
5.64                    -1.22644        -2.34347
5.66                     -1.2466         -4.2995
5.68                    -1.26673          -6.257
5.7                     -1.28682        -8.21546
5.72                    -1.30685        -10.1744
5.74                    -1.32682        -12.1332
5.76                     -1.3467        -14.0915
5.78                    -1.36649        -16.0486
5.8                     -1.38616        -18.0042
5.82                    -1.40569        -19.9577
5.84                    -1.42508        -21.9085
5.86                    -1.44431        -23.8561
5.88                    -1.46336        -25.8001
5.9                     -1.48221        -27.7399
5.92                    -1.50086         -29.675
5.94                    -1.51927         -31.605
5.96                    -1.53744        -33.5293
5.98                    -1.55535        -35.4476
6                       -1.57298        -37.3593
6.02                    -1.59032        -39.2641
6.04                    -1.60735        -41.1614
6.06                    -1.62405         -43.051
6.08                     -1.6404        -44.9325
6.1                      -1.6564        -46.8054
6.12                    -1.67203        -48.6696
6.14                    -1.68728        -50.5246
6.16                    -1.70213        -52.3702
6.18                    -1.71657        -54.2061
6.2                      -1.7306        -56.0322
6.22                    -1.74421        -57.8481
6.24                    -1.75739        -59.6538
6.26                    -1.77015        -61.4491
6.28                    -1.78249        -63.2339
6.3                      -1.7944         -65.008
6.32                    -1.80591        -66.7714
6.34                    -1.81702         -68.524
6.36                    -1.82775        -70.2657
6.38                    -1.83812        -71.9965
6.4                     -1.84815        -73.7164
6.42                    -1.85788        -75.4252
6.44                    -1.86735         -77.123
6.46                    -1.87657        -78.8096
6.48                     -1.8856        -80.4849
6.5                     -1.89448         -82.149
