! TOUCHSTONE file generated by CST MICROWAVE STUDIO
! Date and time: Sat Oct 29 20:29:29 2022
! Project name: L.cst
! Parameters = {Di=1.27; Epsilon_r=1.56; InnerDiameter=1.27; Length=2; Lf=10; Lg=60; OuterConductorThickness=0.2921; OuterDiameter=3.6; Wf=3; Wp=41.2; de=1.5; df=6.8; g=0.8; gx=0.797515; gy=3.05301; h=2.34; hf=1.524; px=10.4711; py=12.6467; w=9.7; wx=9.6736; wy=9.5937}
! Header version: 2018
! Port assignment regex: !\s*Touchstone port\s*([0-9]+)\s*=\s*(CST MWS port|CST DS port)\s*([0-9]+|Zmin|Zmax)\s*\(\"(.*)\"\)(\s*mode\s*([0-9]+))?.*
! Touchstone port assignment:
! Touchstone port 1 = CST MWS port 1 ("")
# GHz S DB R 50
4.5                     -1.39947         77.2062
4.52                    -1.49009         75.5872
4.54                    -1.57606         73.9886
4.56                    -1.65664         72.3835
4.58                    -1.73281         70.7466
4.6                     -1.80695          69.059
4.62                    -1.88225         67.3104
4.64                    -1.96206         65.4996
4.66                    -2.04934         63.6338
4.68                     -2.1463         61.7264
4.7                     -2.25411         59.7939
4.72                    -2.37293         57.8533
4.74                    -2.50196         55.9193
4.76                    -2.63977         54.0027
4.78                    -2.78455         52.1087
4.8                     -2.93452         50.2372
4.82                     -3.0882         48.3831
4.84                    -3.24473         46.5381
4.86                    -3.40398         44.6921
4.88                    -3.56656         42.8362
4.9                     -3.73373         40.9638
4.92                    -3.90714         39.0725
4.94                    -4.08855         37.1647
4.96                     -4.2796         35.2473
4.98                    -4.48148         33.3313
5                       -4.69481         31.4304
5.02                     -4.9195          29.559
5.04                    -5.15474         27.7312
5.06                    -5.39914         25.9585
5.08                    -5.65087         24.2489
5.1                     -5.90791         22.6062
5.12                     -6.1683         21.0299
5.14                    -6.43043         19.5159
5.16                    -6.69319         18.0579
5.18                    -6.95608          16.649
5.2                     -7.21913         15.2841
5.22                    -7.48278         13.9615
5.24                    -7.74751         12.6835
5.26                    -8.01353         11.4573
5.28                    -8.28046         10.2936
5.3                     -8.54696           9.205
5.32                    -8.81059         8.20298
5.34                    -9.06784         7.29493
5.36                    -9.31434          6.4807
5.38                    -9.54534         5.75005
5.4                     -9.75632         5.08146
5.42                     -9.9437         4.44291
5.44                    -10.1055          3.7949
5.46                    -10.2416          3.0951
5.48                    -10.3538         2.30383
5.5                     -10.4454         1.38868
5.52                    -10.5207        0.327565
5.54                    -10.5838       -0.890866
5.56                    -10.6382        -2.26907
5.58                    -10.6863        -3.80443
5.6                      -10.729        -5.49407
5.62                    -10.7659        -7.33999
5.64                    -10.7957        -9.35334
5.66                    -10.8173        -11.5573
5.68                    -10.8298        -13.9879
5.7                     -10.8343         -16.692
5.72                    -10.8337        -19.7238
5.74                    -10.8335        -23.1397
5.76                    -10.8415        -26.9933
5.78                    -10.8675        -31.3324
5.8                     -10.9226        -36.1969
5.82                     -11.019        -41.6197
5.84                    -11.1688        -47.6301
5.86                    -11.3846         -54.258
5.88                    -11.6784        -61.5402
5.9                     -12.0621        -69.5286
5.92                    -12.5466        -78.3003
5.94                    -13.1414        -87.9715
5.96                    -13.8523        -98.7153
5.98                     -14.677        -110.783
6                       -15.5956        -124.523
6.02                    -16.5538        -140.356
6.04                    -17.4393        -158.638
6.06                    -18.0741        -179.281
6.08                    -18.2766         158.655
6.1                     -17.9927          136.93
6.12                    -17.3471          117.04
6.14                    -16.5363         99.5597
6.16                    -15.7167          84.342
6.18                    -14.9771          70.992
6.2                     -14.3579          59.136
6.22                    -13.8724         48.5003
6.24                    -13.5206         38.9118
6.26                    -13.2951         30.2787
6.28                    -13.1835         22.5704
6.3                     -13.1689         15.7996
6.32                    -13.2286         10.0032
6.34                    -13.3329         5.21774
6.36                    -13.4448         1.44722
6.38                    -13.5223          -1.375
6.4                     -13.5247        -3.41666
6.42                     -13.422        -4.94603
6.44                    -13.2035        -6.28539
6.46                    -12.8798        -7.73316
6.48                    -12.4766        -9.49646
6.5                     -12.0242        -11.6671
