! TOUCHSTONE file generated by CST MICROWAVE STUDIO
! Date and time: Thu Oct 27 07:10:16 2022
! Project name: L.cst
! Parameters = {Di=1.27; Epsilon_r=1.56; InnerDiameter=1.27; Length=2; Lf=10; Lg=60; OuterConductorThickness=0.2921; OuterDiameter=3.6; Wf=3; Wp=41.2; de=1.5; df=6.8; g=0.8; gx=1.09424; gy=3.18225; h=2.34; hf=1.524; px=10.8868; py=8.66654; w=9.7; wx=9.79252; wy=5.48429}
! Header version: 2018
! Port assignment regex: !\s*Touchstone port\s*([0-9]+)\s*=\s*(CST MWS port|CST DS port)\s*([0-9]+|Zmin|Zmax)\s*\(\"(.*)\"\)(\s*mode\s*([0-9]+))?.*
! Touchstone port assignment:
! Touchstone port 1 = CST MWS port 1 ("")
# GHz S DB R 50
4.5                     -1.00818         80.4555
4.52                    -1.05626         78.6743
4.54                     -1.1071         76.8747
4.56                    -1.16066         75.0568
4.58                     -1.2169         73.2206
4.6                      -1.2758         71.3658
4.62                    -1.33736          69.492
4.64                    -1.40158         67.5987
4.66                     -1.4685         65.6852
4.68                    -1.53817         63.7508
4.7                     -1.61066          61.795
4.72                    -1.68607         59.8169
4.74                    -1.76452         57.8159
4.76                    -1.84615         55.7915
4.78                    -1.93111         53.7429
4.8                     -2.01958         51.6699
4.82                    -2.11173          49.572
4.84                    -2.20776          47.449
4.86                    -2.30787         45.3008
4.88                    -2.41227         43.1274
4.9                     -2.52116         40.9289
4.92                    -2.63476         38.7057
4.94                    -2.75326         36.4579
4.96                    -2.87689         34.1863
4.98                    -3.00583         31.8913
5                       -3.14029         29.5737
5.02                    -3.28045         27.2344
5.04                     -3.4265         24.8742
5.06                    -3.57861         22.4943
5.08                    -3.73694         20.0958
5.1                     -3.90166           17.68
5.12                     -4.0729         15.2482
5.14                    -4.25082         12.8019
5.16                    -4.43553         10.3427
5.18                    -4.62717          7.8724
5.2                     -4.82583         5.39271
5.22                    -5.03163         2.90562
5.24                    -5.24465        0.413282
5.26                    -5.46497        -2.08201
5.28                    -5.69267        -4.57792
5.3                     -5.92781        -7.07173
5.32                    -6.17043        -9.56059
5.34                    -6.42056        -12.0414
5.36                    -6.67822        -14.5107
5.38                    -6.94342         -16.965
5.4                     -7.21611        -19.4001
5.42                    -7.49626        -21.8116
5.44                    -7.78378        -24.1948
5.46                    -8.07855        -26.5443
5.48                    -8.38039        -28.8543
5.5                     -8.68907        -31.1185
5.52                    -9.00429        -33.3298
5.54                    -9.32566        -35.4806
5.56                    -9.65266        -37.5625
5.58                    -9.98464        -39.5664
5.6                     -10.3208        -41.4825
5.62                    -10.6601        -43.3002
5.64                    -11.0012        -45.0083
5.66                    -11.3427        -46.5952
5.68                    -11.6824        -48.0489
5.7                     -12.0181        -49.3577
5.72                    -12.3469        -50.5106
5.74                    -12.6654        -51.4978
5.76                    -12.9698        -52.3121
5.78                    -13.2556        -52.9494
5.8                     -13.5178        -53.4108
5.82                    -13.7512        -53.7032
5.84                    -13.9503        -53.8408
5.86                      -14.11        -53.8461
5.88                    -14.2255        -53.7497
5.9                     -14.2929        -53.5901
5.92                    -14.3099        -53.4115
5.94                    -14.2753        -53.2618
5.96                    -14.1899        -53.1893
5.98                    -14.0559        -53.2396
6                       -13.8768        -53.4531
6.02                    -13.6573         -53.863
6.04                    -13.4026        -54.4943
6.06                    -13.1182        -55.3642
6.08                    -12.8094        -56.4822
6.1                     -12.4816        -57.8519
6.12                    -12.1393        -59.4718
6.14                    -11.7869        -61.3368
6.16                    -11.4279        -63.4396
6.18                    -11.0656        -65.7714
6.2                     -10.7026        -68.3227
6.22                    -10.3414        -71.0841
6.24                    -9.98374        -74.0466
6.26                    -9.63143        -77.2018
6.28                    -9.28584        -80.5423
6.3                     -8.94824        -84.0617
6.32                    -8.61971        -87.7546
6.34                    -8.30123        -91.6166
6.36                    -7.99368        -95.6447
6.38                    -7.69787        -99.8367
6.4                     -7.41457        -104.192
6.42                    -7.14451         -108.71
6.44                    -6.88835        -113.393
6.46                    -6.64678        -118.244
6.48                    -6.42042        -123.265
6.5                     -6.20987        -128.462
