! TOUCHSTONE file generated by CST MICROWAVE STUDIO
! Date and time: Fri Oct 28 23:34:00 2022
! Project name: L.cst
! Parameters = {Di=1.27; Epsilon_r=1.56; InnerDiameter=1.27; Length=2; Lf=10; Lg=60; OuterConductorThickness=0.2921; OuterDiameter=3.6; Wf=3; Wp=41.2; de=1.5; df=6.8; g=0.8; gx=4.03893; gy=1.20209; h=2.34; hf=1.524; px=13.2536; py=12.7636; w=9.7; wx=9.21465; wy=11.5615}
! Header version: 2018
! Port assignment regex: !\s*Touchstone port\s*([0-9]+)\s*=\s*(CST MWS port|CST DS port)\s*([0-9]+|Zmin|Zmax)\s*\(\"(.*)\"\)(\s*mode\s*([0-9]+))?.*
! Touchstone port assignment:
! Touchstone port 1 = CST MWS port 1 ("")
# GHz S DB R 50
4.5                     -1.10111         67.4901
4.52                    -1.15273         64.6503
4.54                    -1.27671         62.0491
4.56                    -1.37783         59.8562
4.58                    -1.41009          57.533
4.6                     -1.43667           54.68
4.62                    -1.52556         51.5713
4.64                    -1.65566         48.6692
4.66                    -1.75733         45.9549
4.68                    -1.81587         42.9952
4.7                      -1.8868         39.5922
4.72                    -2.00997         36.0191
4.74                    -2.15715         32.5753
4.76                    -2.27838         29.1573
4.78                    -2.37455         25.4245
4.8                     -2.49196         21.2861
4.82                    -2.65399         16.9854
4.84                    -2.83178         12.7185
4.86                    -2.98833         8.35073
4.88                    -3.13093         3.60817
4.9                     -3.29799        -1.55017
4.92                    -3.50406        -6.91278
4.94                    -3.72152        -12.3371
4.96                    -3.91978        -17.9569
4.98                    -4.10646        -24.0016
5                       -4.31364        -30.4903
5.02                    -4.55155        -37.2245
5.04                    -4.79335        -44.0629
5.06                    -5.00883        -51.1028
5.08                    -5.20138         -58.529
5.1                     -5.39841        -66.3374
5.12                    -5.60991        -74.3076
5.14                    -5.81114        -82.2453
5.16                    -5.97083        -90.1769
5.18                      -6.089        -98.2436
5.2                      -6.1939        -106.433
5.22                    -6.30261        -114.517
5.24                    -6.39779        -122.269
5.26                    -6.45071        -129.695
5.28                     -6.4617        -136.965
5.3                     -6.46303        -144.127
5.32                    -6.47881        -151.005
5.34                     -6.4959          -157.4
5.36                    -6.48484        -163.354
5.38                    -6.44467        -169.088
5.4                     -6.40877        -174.695
5.42                    -6.40121         179.976
5.44                    -6.40424         175.158
5.46                    -6.38264         170.738
5.48                    -6.33452         166.474
5.5                     -6.29463         162.275
5.52                    -6.28245         158.336
5.54                    -6.26989         154.833
5.56                    -6.21755         151.623
5.58                    -6.13193         148.396
5.6                     -6.05629           145.1
5.62                    -6.00547         141.988
5.64                    -5.94139         139.205
5.66                    -5.82875         136.515
5.68                    -5.69214         133.609
5.7                     -5.58287         130.556
5.72                    -5.50217         127.705
5.74                    -5.39452         125.159
5.76                     -5.2265         122.578
5.78                     -5.0362         119.663
5.8                     -4.86982         116.595
5.82                    -4.70049          113.71
5.84                    -4.45658         110.867
5.86                     -4.1312         107.465
5.88                    -3.80578         103.201
5.9                     -3.54428         98.4022
5.92                    -3.31697         93.4552
5.94                    -3.05933         88.1543
5.96                    -2.78923          81.886
5.98                     -2.6107         74.4477
6                       -2.59589         66.2907
6.02                    -2.71158         57.8429
6.04                    -2.89678         48.7127
6.06                    -3.23742         37.8633
6.08                    -4.03894         24.8595
6.1                     -5.76566         11.0346
6.12                    -9.02806         1.54381
6.14                    -13.5191          15.391
6.16                    -11.7467         48.0696
6.18                    -7.76717         43.5437
6.2                     -5.66039         23.7488
6.22                    -4.96516         -1.3829
6.24                    -5.23441        -29.8365
6.26                    -6.08105        -62.1214
6.28                    -6.99748        -99.8976
6.3                     -7.30399        -143.476
6.32                    -6.67413         170.838
6.34                    -5.63616         126.879
6.36                    -4.90504         84.6103
6.38                    -4.83711         42.0653
6.4                     -5.43403        -2.86775
6.42                    -6.33638        -51.2749
6.44                    -6.94647        -100.385
6.46                    -7.07164        -143.006
6.48                       -6.84        -173.812
6.5                     -5.82441         165.055
