! TOUCHSTONE file generated by CST MICROWAVE STUDIO
! Date and time: Sat Oct 29 12:57:33 2022
! Project name: L.cst
! Parameters = {Di=1.27; Epsilon_r=1.56; InnerDiameter=1.27; Length=2; Lf=10; Lg=60; OuterConductorThickness=0.2921; OuterDiameter=3.6; Wf=3; Wp=41.2; de=1.5; df=6.8; g=0.8; gx=4.62201; gy=0.969097; h=2.34; hf=1.524; px=9.78248; py=14.994; w=9.7; wx=5.16048; wy=14.0249}
! Header version: 2018
! Port assignment regex: !\s*Touchstone port\s*([0-9]+)\s*=\s*(CST MWS port|CST DS port)\s*([0-9]+|Zmin|Zmax)\s*\(\"(.*)\"\)(\s*mode\s*([0-9]+))?.*
! Touchstone port assignment:
! Touchstone port 1 = CST MWS port 1 ("")
# GHz S DB R 50
4.5                    -0.837047          73.059
4.52                   -0.779269          70.943
4.54                   -0.837032         69.5301
4.56                   -0.920935         67.0776
4.58                   -0.874715         64.9667
4.6                    -0.943294         63.2137
4.62                   -0.996994         60.5559
4.64                    -0.95788         58.3105
4.66                    -1.02292         56.1093
4.68                    -1.04222         53.1103
4.7                     -1.00198         50.4721
4.72                    -1.04968         47.5381
4.74                     -1.0327         43.8214
4.76                   -0.993371         40.2303
4.78                     -1.0327         35.8707
4.8                     -1.01758         30.5402
4.82                    -1.05203         24.7706
4.84                    -1.21008          17.417
4.86                    -1.43679          8.4837
4.88                    -1.97542        -2.02296
4.9                     -2.99775        -15.2352
4.92                    -4.76535        -29.9989
4.94                    -7.97319        -45.1755
4.96                    -13.4118        -58.1829
4.98                    -24.9886        -41.8658
5                       -20.2491            63.4
5.02                    -14.7627         61.7607
5.04                    -12.2897         53.5728
5.06                    -11.2448         45.9172
5.08                    -11.0485         37.0056
5.1                     -11.2971         28.4001
5.12                    -12.3631         20.3301
5.14                     -14.312         10.7046
5.16                    -17.7524         2.95324
5.18                    -27.1142         4.08215
5.2                     -25.0493          143.72
5.22                    -15.7087         137.003
5.24                    -11.1291         126.214
5.26                    -8.49064         113.123
5.28                    -6.69812         98.6934
5.3                     -5.78528         84.2048
5.32                    -5.91725         66.4098
5.34                    -8.23825         44.5149
5.36                    -20.9644         112.577
5.38                    -5.09024         120.013
5.4                      -2.3491          91.891
5.42                     -1.6417         74.2168
5.44                    -1.50673          60.371
5.46                    -1.51465         48.1883
5.48                     -1.7997         36.2806
5.5                     -2.41002         22.2165
5.52                    -3.95609         4.66639
5.54                    -9.95564         -21.388
5.56                    -11.7377         100.208
5.58                     -3.2262         66.0249
5.6                     -1.77385         40.4612
5.62                    -1.66936         16.0798
5.64                    -2.65188        -14.3239
5.66                    -10.2556        -100.607
5.68                    -4.54697         97.5378
5.7                     -1.94167          53.949
5.72                    -1.24309         33.2725
5.74                     -1.1255         18.5355
5.76                    -1.10164         5.31765
5.78                    -1.14808        -7.78789
5.8                     -1.23464        -22.2846
5.82                    -1.47552        -40.1977
5.84                    -1.74627        -66.3129
5.86                    -2.27903        -107.854
5.88                    -3.11217         160.692
5.9                      -2.0651         34.1199
5.92                    -1.52908        -63.8925
5.94                    -1.25145        -139.843
5.96                   -0.715696         157.562
5.98                   -0.515395         117.402
6                      -0.497436         89.1814
6.02                   -0.406627         70.6894
6.04                   -0.561083         56.6411
6.06                   -0.535627         45.0119
6.08                   -0.566556         36.6245
6.1                    -0.698036          28.575
6.12                   -0.647137         21.6633
6.14                   -0.722533         16.2876
6.16                     -0.8124         10.3179
6.18                   -0.753043         5.40864
6.2                    -0.856553         1.23384
6.22                    -0.90521        -3.77177
6.24                   -0.848793         -7.5768
6.26                   -0.973241        -11.2195
6.28                   -0.980377          -15.67
6.3                    -0.936342        -18.7504
6.32                    -1.07611        -22.1824
6.34                    -1.04009        -26.2374
6.36                    -1.01827        -28.7857
6.38                    -1.16675        -32.1969
6.4                     -1.08543        -35.9016
6.42                    -1.09716        -38.0364
6.44                    -1.24531        -41.5611
6.46                    -1.11731        -44.8921
6.48                    -1.17609         -46.708
6.5                     -1.31086        -50.4516
