! TOUCHSTONE file generated by CST MICROWAVE STUDIO
! Date and time: Fri Oct 28 13:38:43 2022
! Project name: L.cst
! Parameters = {Di=1.27; Epsilon_r=1.56; InnerDiameter=1.27; Length=2; Lf=10; Lg=60; OuterConductorThickness=0.2921; OuterDiameter=3.6; Wf=3; Wp=41.2; de=1.5; df=6.8; g=0.8; gx=1.78565; gy=3.92128; h=2.34; hf=1.524; px=10.7604; py=12.6376; w=9.7; wx=8.9748; wy=8.71636}
! Header version: 2018
! Port assignment regex: !\s*Touchstone port\s*([0-9]+)\s*=\s*(CST MWS port|CST DS port)\s*([0-9]+|Zmin|Zmax)\s*\(\"(.*)\"\)(\s*mode\s*([0-9]+))?.*
! Touchstone port assignment:
! Touchstone port 1 = CST MWS port 1 ("")
# GHz S DB R 50
4.5                    -0.565725         91.0503
4.52                   -0.585653         89.5591
4.54                   -0.606409         88.0563
4.56                    -0.62798         86.5418
4.58                    -0.65035         85.0155
4.6                    -0.673504         83.4773
4.62                   -0.697426         81.9271
4.64                   -0.722106         80.3645
4.66                   -0.747539         78.7894
4.68                   -0.773719         77.2015
4.7                    -0.800652         75.6005
4.72                   -0.828342         73.9862
4.74                   -0.856804         72.3581
4.76                   -0.886053          70.716
4.78                   -0.916113         69.0595
4.8                    -0.947011         67.3884
4.82                   -0.978777         65.7024
4.84                    -1.01144         64.0012
4.86                    -1.04505         62.2846
4.88                    -1.07964         60.5524
4.9                     -1.11525         58.8044
4.92                    -1.15192         57.0404
4.94                    -1.18971         55.2604
4.96                    -1.22865         53.4642
4.98                    -1.26879         51.6518
5                       -1.31018          49.823
5.02                    -1.35286         47.9781
5.04                    -1.39688         46.1168
5.06                    -1.44227         44.2394
5.08                    -1.48908         42.3459
5.1                     -1.53735         40.4365
5.12                    -1.58711         38.5112
5.14                     -1.6384         36.5703
5.16                    -1.69125         34.6139
5.18                    -1.74568         32.6423
5.2                     -1.80173         30.6558
5.22                    -1.85942         28.6546
5.24                    -1.91877          26.639
5.26                     -1.9798         24.6094
5.28                    -2.04252         22.5661
5.3                     -2.10695         20.5094
5.32                     -2.1731         18.4399
5.34                    -2.24097          16.358
5.36                    -2.31058          14.264
5.38                    -2.38192         12.1585
5.4                     -2.45499          10.042
5.42                    -2.52978         7.91509
5.44                     -2.6063         5.77828
5.46                    -2.68453          3.6322
5.48                    -2.76446         1.47749
5.5                     -2.84608       -0.685192
5.52                    -2.92936        -2.85513
5.54                    -3.01428         -5.0316
5.56                    -3.10082        -7.21383
5.58                    -3.18894          -9.401
5.6                     -3.27862        -11.5923
5.62                    -3.36981        -13.7868
5.64                    -3.46248        -15.9835
5.66                    -3.55656        -18.1817
5.68                    -3.65201        -20.3802
5.7                     -3.74876         -22.578
5.72                    -3.84675        -24.7741
5.74                    -3.94591        -26.9674
5.76                    -4.04613        -29.1567
5.78                    -4.14734        -31.3409
5.8                     -4.24943         -33.519
5.82                    -4.35227        -35.6896
5.84                    -4.45576        -37.8517
5.86                    -4.55973         -40.004
5.88                    -4.66405        -42.1455
5.9                     -4.76854        -44.2749
5.92                    -4.87301        -46.3913
5.94                    -4.97727        -48.4936
5.96                     -5.0811        -50.5809
5.98                    -5.18427        -52.6524
6                       -5.28652        -54.7073
6.02                     -5.3876        -56.7451
6.04                    -5.48721        -58.7656
6.06                    -5.58506        -60.7684
6.08                    -5.68085        -62.7538
6.1                     -5.77426         -64.722
6.12                    -5.86499        -66.6739
6.14                     -5.9527        -68.6103
6.16                    -6.03709        -70.5327
6.18                    -6.11787        -72.4429
6.2                     -6.19477        -74.3432
6.22                    -6.26754         -76.236
6.24                    -6.33597        -78.1246
6.26                    -6.39993        -80.0124
6.28                    -6.45932        -81.9034
6.3                     -6.51413        -83.8019
6.32                    -6.56442        -85.7128
6.34                    -6.61036         -87.641
6.36                    -6.65222         -89.592
6.38                    -6.69038        -91.5712
6.4                     -6.72533        -93.5846
6.42                    -6.75771        -95.6378
6.44                    -6.78828         -97.737
6.46                    -6.81794        -99.8878
6.48                    -6.84773        -102.096
6.5                     -6.87885        -104.367
