! TOUCHSTONE file generated by CST MICROWAVE STUDIO
! Date and time: Fri Oct 28 04:49:23 2022
! Project name: L.cst
! Parameters = {Di=1.27; Epsilon_r=1.56; InnerDiameter=1.27; Length=2; Lf=10; Lg=60; OuterConductorThickness=0.2921; OuterDiameter=3.6; Wf=3; Wp=41.2; de=1.5; df=6.8; g=0.8; gx=3.42696; gy=3.85634; h=2.34; hf=1.524; px=10.113; py=11.2203; w=9.7; wx=6.68605; wy=7.364}
! Header version: 2018
! Port assignment regex: !\s*Touchstone port\s*([0-9]+)\s*=\s*(CST MWS port|CST DS port)\s*([0-9]+|Zmin|Zmax)\s*\(\"(.*)\"\)(\s*mode\s*([0-9]+))?.*
! Touchstone port assignment:
! Touchstone port 1 = CST MWS port 1 ("")
# GHz S DB R 50
4.5                    -0.351729         94.6849
4.52                   -0.361108         93.2654
4.54                   -0.370733         91.8346
4.56                   -0.380615         90.3927
4.58                   -0.390767         88.9394
4.6                     -0.40119         87.4747
4.62                   -0.411889         85.9985
4.64                   -0.422865         84.5108
4.66                   -0.434115         83.0115
4.68                   -0.445636         81.5004
4.7                    -0.457425         79.9775
4.72                   -0.469478         78.4425
4.74                   -0.481792         76.8955
4.76                   -0.494361         75.3362
4.78                   -0.507181         73.7644
4.8                    -0.520252         72.1801
4.82                   -0.533567         70.5831
4.84                   -0.547127         68.9733
4.86                   -0.560931         67.3505
4.88                   -0.574978         65.7145
4.9                     -0.58927         64.0653
4.92                   -0.603806         62.4027
4.94                   -0.618589         60.7265
4.96                   -0.633622         59.0368
4.98                   -0.648907         57.3334
5                      -0.664448         55.6161
5.02                   -0.680247         53.8851
5.04                   -0.696307         52.1401
5.06                   -0.712632         50.3812
5.08                   -0.729225         48.6083
5.1                    -0.746087         46.8215
5.12                   -0.763222         45.0208
5.14                    -0.78063         43.2062
5.16                    -0.79831         41.3777
5.18                   -0.816265         39.5355
5.2                    -0.834491         37.6796
5.22                   -0.852987         35.8102
5.24                    -0.87175         33.9273
5.26                   -0.890775         32.0312
5.28                   -0.910059          30.122
5.3                    -0.929593         28.1998
5.32                   -0.949372         26.2649
5.34                   -0.969386         24.3175
5.36                   -0.989627         22.3578
5.38                    -1.01008         20.3862
5.4                     -1.03074         18.4029
5.42                     -1.0516         16.4082
5.44                    -1.07263         14.4024
5.46                    -1.09382         12.3858
5.48                    -1.11517         10.3589
5.5                     -1.13665         8.32196
5.52                    -1.15825          6.2754
5.54                    -1.17995         4.21963
5.56                    -1.20174         2.15508
5.58                    -1.22359       0.0821964
5.6                     -1.24549        -1.99857
5.62                    -1.26742        -4.08673
5.64                    -1.28936         -6.1818
5.66                    -1.31129        -8.28326
5.68                    -1.33319        -10.3906
5.7                     -1.35505        -12.5033
5.72                    -1.37684        -14.6208
5.74                    -1.39855        -16.7425
5.76                    -1.42015        -18.8679
5.78                    -1.44162        -20.9963
5.8                     -1.46295        -23.1274
5.82                    -1.48411        -25.2603
5.84                    -1.50509        -27.3945
5.86                    -1.52586        -29.5295
5.88                     -1.5464        -31.6645
5.9                      -1.5667        -33.7991
5.92                    -1.58674        -35.9326
5.94                    -1.60649        -38.0645
5.96                    -1.62593        -40.1941
5.98                    -1.64504        -42.3208
6                       -1.66381        -44.4442
6.02                    -1.68221        -46.5637
6.04                    -1.70021        -48.6786
6.06                    -1.71781        -50.7886
6.08                    -1.73499        -52.8931
6.1                     -1.75171        -54.9917
6.12                    -1.76797        -57.0839
6.14                    -1.78374        -59.1693
6.16                    -1.79901        -61.2476
6.18                    -1.81376        -63.3184
6.2                     -1.82798        -65.3813
6.22                    -1.84166        -67.4362
6.24                    -1.85479        -69.4828
6.26                    -1.86736        -71.5208
6.28                    -1.87937        -73.5502
6.3                     -1.89081        -75.5707
6.32                    -1.90171        -77.5824
6.34                    -1.91206        -79.5851
6.36                    -1.92189        -81.5789
6.38                     -1.9312        -83.5636
6.4                     -1.94004        -85.5393
6.42                    -1.94844        -87.5061
6.44                    -1.95643         -89.464
6.46                    -1.96406        -91.4129
6.48                    -1.97138        -93.3529
6.5                     -1.97845        -95.2841
