! TOUCHSTONE file generated by CST MICROWAVE STUDIO
! Date and time: Sat Oct 29 02:24:01 2022
! Project name: L.cst
! Parameters = {Di=1.27; Epsilon_r=1.56; InnerDiameter=1.27; Length=2; Lf=10; Lg=60; OuterConductorThickness=0.2921; OuterDiameter=3.6; Wf=3; Wp=41.2; de=1.5; df=6.8; g=0.8; gx=4.23507; gy=2.42221; h=2.34; hf=1.524; px=14.1073; py=12.6689; w=9.7; wx=9.8722; wy=10.2467}
! Header version: 2018
! Port assignment regex: !\s*Touchstone port\s*([0-9]+)\s*=\s*(CST MWS port|CST DS port)\s*([0-9]+|Zmin|Zmax)\s*\(\"(.*)\"\)(\s*mode\s*([0-9]+))?.*
! Touchstone port assignment:
! Touchstone port 1 = CST MWS port 1 ("")
# GHz S DB R 50
4.5                    -0.866848         81.6843
4.52                   -0.922451         79.7699
4.54                   -0.982152         77.8791
4.56                    -1.04095          76.003
4.58                    -1.09564          74.117
4.6                     -1.14566           72.19
4.62                    -1.19302         70.1956
4.64                    -1.24122         68.1193
4.66                    -1.29405         65.9615
4.68                    -1.35427         63.7341
4.7                     -1.42297         61.4551
4.72                     -1.4995         59.1409
4.74                    -1.58191         56.8009
4.76                    -1.66784         54.4344
4.78                    -1.75535         52.0313
4.8                      -1.8436         49.5758
4.82                    -1.93309         47.0509
4.84                    -2.02541         44.4436
4.86                    -2.12273         41.7477
4.88                     -2.2271         38.9645
4.9                     -2.33991         36.1003
4.92                    -2.46155         33.1638
4.94                    -2.59147         30.1617
4.96                    -2.72849         27.0959
4.98                    -2.87126         23.9625
5                       -3.01876         20.7521
5.02                    -3.17065          17.452
5.04                    -3.32739         14.0495
5.06                    -3.49007         10.5346
5.08                    -3.66005         6.90173
5.1                     -3.83854         3.15044
5.12                    -4.02618       -0.716074
5.14                    -4.22286        -4.69305
5.16                    -4.42764        -8.77668
5.18                    -4.63897        -12.9663
5.2                     -4.85498        -17.2654
5.22                    -5.07388        -21.6814
5.24                    -5.29423        -26.2241
5.26                    -5.51507        -30.9032
5.28                     -5.7359        -35.7257
5.3                     -5.95643        -40.6933
5.32                    -6.17618        -45.8017
5.34                    -6.39422        -51.0408
5.36                    -6.60885        -56.3957
5.38                    -6.81755         -61.849
5.4                     -7.01712        -67.3833
5.42                    -7.20404        -72.9826
5.44                    -7.37486        -78.6334
5.46                    -7.52677        -84.3244
5.48                    -7.65793        -90.0448
5.5                     -7.76766        -95.7821
5.52                    -7.85642         -101.52
5.54                    -7.92541        -107.238
5.56                     -7.9762        -112.909
5.58                    -8.01019        -118.505
5.6                     -8.02826        -123.996
5.62                    -8.03062        -129.358
5.64                    -8.01691        -134.573
5.66                    -7.98663        -139.634
5.68                    -7.93963        -144.544
5.7                     -7.87667        -149.315
5.72                    -7.79976        -153.963
5.74                    -7.71208        -158.503
5.76                    -7.61764        -162.944
5.78                    -7.52051        -167.288
5.8                     -7.42403         -171.53
5.82                    -7.33015        -175.657
5.84                    -7.23909        -179.659
5.86                    -7.14949         176.471
5.88                    -7.05911         172.726
5.9                     -6.96579          169.09
5.92                    -6.86857         165.536
5.94                     -6.7685          162.03
5.96                    -6.66878         158.547
5.98                     -6.5742         155.073
6                       -6.48987         151.611
6.02                     -6.4197         148.183
6.04                    -6.36496         144.824
6.06                    -6.32344          141.57
6.08                    -6.28945         138.447
6.1                       -6.255         135.457
6.12                    -6.21202         132.573
6.14                    -6.15508         129.738
6.16                    -6.08373         126.881
6.18                     -6.0033         123.939
6.2                     -5.92348         120.876
6.22                     -5.8552         117.702
6.24                    -5.80641         114.467
6.26                    -5.77825         111.254
6.28                    -5.76227         108.145
6.3                     -5.74022         105.182
6.32                    -5.68763         102.323
6.34                    -5.58198         99.4174
6.36                    -5.41339         96.2104
6.38                    -5.19288         92.4059
6.4                     -4.95311         87.7454
6.42                    -4.74165         82.0677
6.44                     -4.6119         75.3237
6.46                     -4.6168         67.5547
6.48                    -4.80729         58.8578
6.5                     -5.23511         49.3581
