! TOUCHSTONE file generated by CST MICROWAVE STUDIO
! Date and time: Sat Oct 29 15:16:17 2022
! Project name: L.cst
! Parameters = {Di=1.27; Epsilon_r=1.56; InnerDiameter=1.27; Length=2; Lf=10; Lg=60; OuterConductorThickness=0.2921; OuterDiameter=3.6; Wf=3; Wp=41.2; de=1.5; df=6.8; g=0.8; gx=0.466998; gy=2.8937; h=2.34; hf=1.524; px=12.2972; py=12.8; w=9.7; wx=11.8302; wy=9.90629}
! Header version: 2018
! Port assignment regex: !\s*Touchstone port\s*([0-9]+)\s*=\s*(CST MWS port|CST DS port)\s*([0-9]+|Zmin|Zmax)\s*\(\"(.*)\"\)(\s*mode\s*([0-9]+))?.*
! Touchstone port assignment:
! Touchstone port 1 = CST MWS port 1 ("")
# GHz S DB R 50
4.5                     -4.45359         101.213
4.52                    -4.38329         99.8086
4.54                    -4.33682         98.7089
4.56                    -4.23863         97.5913
4.58                    -4.12717         95.9498
4.6                     -4.07944         93.9389
4.62                    -4.08704         92.0268
4.64                    -4.08549         90.2054
4.66                    -4.07015         88.0456
4.68                    -4.10479           85.42
4.7                      -4.2217         82.6465
4.72                    -4.38785         79.8969
4.74                     -4.5857         76.8807
4.76                    -4.87588         73.2986
4.78                    -5.34732         69.2983
4.8                     -6.05632         65.2331
4.82                    -7.07814         61.2577
4.84                    -8.64185         57.7937
4.86                    -11.2161         57.6577
4.88                    -15.0481         72.8506
4.9                     -15.2528         116.382
4.92                    -10.7318         134.703
4.94                    -7.38267         133.216
4.96                     -5.2999         126.635
4.98                    -4.01957         119.199
5                       -3.22459         112.205
5.02                    -2.71824         105.927
5.04                    -2.39063         100.307
5.06                    -2.17973         95.2513
5.08                    -2.04301         90.6588
5.1                     -1.95354         86.3932
5.12                    -1.90232         82.3353
5.14                    -1.88713         78.4436
5.16                    -1.89979         74.7052
5.18                    -1.93091         71.0531
5.2                     -1.98239         67.3921
5.22                    -2.06499         63.6887
5.24                    -2.18378         59.9699
5.26                    -2.33603         56.2265
5.28                    -2.52625         52.3792
5.3                     -2.77501         48.3739
5.32                    -3.10789         44.2587
5.34                    -3.54392          40.131
5.36                    -4.10522         36.0622
5.38                    -4.83676         32.1793
5.4                     -5.80531         28.9014
5.42                      -7.064         27.1672
5.44                    -8.58305         28.5569
5.46                    -10.1136         35.0914
5.48                    -11.0176         47.4049
5.5                     -10.6641         61.1063
5.52                    -9.37347         70.0408
5.54                    -7.91078         73.2304
5.56                    -6.66032         72.7379
5.58                     -5.6796          70.433
5.6                     -4.91043          67.307
5.62                    -4.29578         63.7151
5.64                    -3.81316         59.8185
5.66                    -3.44823         55.8396
5.68                    -3.16625         51.9701
5.7                     -2.92656         48.1844
5.72                    -2.71841         44.3159
5.74                    -2.55853         40.3315
5.76                     -2.4486         36.3847
5.78                    -2.35772         32.5428
5.8                     -2.26213         28.6085
5.82                    -2.18258         24.3637
5.84                    -2.15236         19.8812
5.86                    -2.15976         15.3658
5.88                    -2.16046         10.6994
5.9                     -2.15635         5.41353
5.92                    -2.21746       -0.760428
5.94                    -2.39587        -7.64354
5.96                    -2.66251         -15.234
5.98                    -3.00082        -24.5052
6                       -3.58976        -37.1808
6.02                     -4.8566        -54.9056
6.04                    -7.44225        -80.1991
6.06                     -12.012        -124.107
6.08                    -13.2008         151.846
6.1                     -8.42889         98.5426
6.12                    -5.48402         70.3596
6.14                    -4.07775         51.4054
6.16                    -3.43873         38.4759
6.18                    -2.99804         29.3567
6.2                     -2.58477         21.2478
6.22                    -2.39753         12.9844
6.24                     -2.5877         5.89594
6.26                    -2.95128         1.98112
6.28                     -3.0027        0.876576
6.3                     -2.58531       -0.884557
6.32                    -2.10069        -5.26157
6.34                    -1.88199        -10.8822
6.36                    -1.88712        -15.7739
6.38                    -1.87912        -19.5638
6.4                     -1.76384        -23.4332
6.42                    -1.68169        -28.0523
6.44                    -1.74434        -32.6547
6.46                    -1.86122        -36.3499
6.48                     -1.8754        -39.4967
6.5                     -1.80185        -43.1391
