! TOUCHSTONE file generated by CST MICROWAVE STUDIO
! Date and time: Fri Oct 28 20:50:32 2022
! Project name: L.cst
! Parameters = {Di=1.27; Epsilon_r=1.56; InnerDiameter=1.27; Length=2; Lf=10; Lg=60; OuterConductorThickness=0.2921; OuterDiameter=3.6; Wf=3; Wp=41.2; de=1.5; df=6.8; g=0.8; gx=3.69383; gy=1.78768; h=2.34; hf=1.524; px=8.12608; py=14.6832; w=9.7; wx=4.43225; wy=12.8955}
! Header version: 2018
! Port assignment regex: !\s*Touchstone port\s*([0-9]+)\s*=\s*(CST MWS port|CST DS port)\s*([0-9]+|Zmin|Zmax)\s*\(\"(.*)\"\)(\s*mode\s*([0-9]+))?.*
! Touchstone port assignment:
! Touchstone port 1 = CST MWS port 1 ("")
# GHz S DB R 50
4.5                    -0.465647          75.232
4.52                   -0.492374         73.5859
4.54                   -0.499668         71.9721
4.56                   -0.514019         70.2134
4.58                   -0.537431         68.5382
4.6                    -0.544746         66.8122
4.62                   -0.565606         65.0031
4.64                   -0.584877         63.2646
4.66                    -0.59575         61.4297
4.68                   -0.619954         59.5695
4.7                    -0.636378         57.7371
4.72                   -0.652541         55.8006
4.74                   -0.677583         53.8749
4.76                   -0.693477          51.928
4.78                   -0.714755         49.8939
4.8                    -0.739275         47.8788
4.82                   -0.756766         45.8037
4.84                    -0.78201         43.6669
4.86                   -0.805642         41.5361
4.88                   -0.825883          39.321
4.9                    -0.853309         37.0665
4.92                   -0.875843         34.7904
4.94                    -0.89865         32.4193
4.96                   -0.925743         30.0193
4.98                   -0.946384         27.5612
5                      -0.969489         25.0046
5.02                   -0.992478         22.4088
5.04                    -1.00871         19.7116
5.06                    -1.02729         16.9047
5.08                    -1.04107         14.0174
5.1                     -1.04868         10.9698
5.12                    -1.05723         7.77172
5.14                    -1.05827           4.408
5.16                    -1.05633        0.790992
5.18                    -1.05647        -3.06935
5.2                     -1.05309        -7.23713
5.22                    -1.05695        -11.7996
5.24                    -1.07265        -16.7672
5.26                     -1.1016        -22.2545
5.28                      -1.162        -28.3609
5.3                     -1.26398        -35.1536
5.32                    -1.42536        -42.8214
5.34                    -1.68522         -51.517
5.36                    -2.08427        -61.3932
5.38                    -2.69134        -72.6912
5.4                     -3.61363        -85.5281
5.42                    -4.97712        -99.9213
5.44                    -6.95064         -115.93
5.46                    -9.77147        -133.768
5.48                    -13.7906        -155.002
5.5                     -19.5573         171.764
5.52                    -23.6416         98.9751
5.54                    -19.7482         44.3524
5.56                    -16.7617         20.8491
5.58                    -15.1952         5.80813
5.6                     -14.5936        -5.60543
5.62                    -14.7332        -13.8359
5.64                    -15.5274        -17.3422
5.66                    -16.5094        -10.0987
5.68                    -14.9306          8.3092
5.7                     -10.2713          9.8197
5.72                    -6.18178        -11.2799
5.74                    -4.16497        -42.9292
5.76                    -3.81344        -74.7717
5.78                    -4.11869        -104.268
5.8                     -4.47564        -132.758
5.82                    -4.64015        -161.418
5.84                    -4.57764         169.719
5.86                    -4.37563         141.232
5.88                    -4.24557         113.208
5.9                     -4.65159         84.9531
5.92                    -7.02656         56.7379
5.94                    -13.6425         84.6501
5.96                    -4.54124         89.7683
5.98                     -2.1196         58.2143
6                       -1.56753         31.0501
6.02                    -1.64291         3.22504
6.04                    -2.33166         -32.978
6.06                    -3.99911        -94.9686
6.08                    -4.15544         165.782
6.1                     -2.16687         95.6673
6.12                    -1.28611         58.5664
6.14                   -0.995954         35.3894
6.16                   -0.850719         18.3822
6.18                   -0.765666          3.6057
6.2                    -0.808397        -9.85266
6.22                   -0.758804         -22.647
6.24                   -0.638818        -37.8224
6.26                   -0.827446        -56.0087
6.28                    -4.72312        -80.2059
6.3                     -1.26249          -89.87
6.32                   -0.664776        -123.589
6.34                   -0.377358        -167.384
6.36                   -0.363566         145.319
6.38                   -0.462587         104.492
6.4                    -0.507682         73.4517
6.42                   -0.637215         50.2815
6.44                    -0.82371         33.8579
6.46                   -0.828948         21.3805
6.48                   -0.882202         10.4777
6.5                     -1.01234         2.20206
