! TOUCHSTONE file generated by CST MICROWAVE STUDIO
! Date and time: Wed Oct 26 20:41:57 2022
! Project name: L.cst
! Parameters = {Di=1.27; Epsilon_r=1.56; InnerDiameter=1.27; Length=2; Lf=10; Lg=60; OuterConductorThickness=0.2921; OuterDiameter=3.6; Wf=3; Wp=41.2; de=1.5; df=6.8; g=0.8; gx=2.36646; gy=1.6087; h=2.34; hf=1.524; px=12.1423; py=11.1372; w=9.7; wx=9.77587; wy=9.52845}
! Header version: 2018
! Port assignment regex: !\s*Touchstone port\s*([0-9]+)\s*=\s*(CST MWS port|CST DS port)\s*([0-9]+|Zmin|Zmax)\s*\(\"(.*)\"\)(\s*mode\s*([0-9]+))?.*
! Touchstone port assignment:
! Touchstone port 1 = CST MWS port 1 ("")
# GHz S DB R 50
4.5                     -1.43533         63.8333
4.52                    -1.51825         61.5871
4.54                    -1.60456         59.2986
4.56                    -1.69434         56.9643
4.58                    -1.78772         54.5805
4.6                     -1.88488         52.1437
4.62                    -1.98607         49.6504
4.64                     -2.0916          47.097
4.66                    -2.20178         44.4804
4.68                    -2.31697         41.7976
4.7                     -2.43752         39.0456
4.72                    -2.56378         36.2219
4.74                     -2.6961         33.3239
4.76                    -2.83476         30.3494
4.78                    -2.98006          27.296
4.8                     -3.13222         24.1617
4.82                    -3.29141         20.9443
4.84                    -3.45774         17.6419
4.86                    -3.63123         14.2524
4.88                    -3.81184         10.7739
4.9                     -3.99944         7.20425
4.92                    -4.19376         3.54147
4.94                    -4.39448       -0.216448
4.96                    -4.60111        -4.07144
4.98                    -4.81307        -8.02533
5                       -5.02963        -12.0798
5.02                     -5.2499        -16.2361
5.04                    -5.47287        -20.4951
5.06                    -5.69737        -24.8573
5.08                    -5.92207        -29.3222
5.1                     -6.14552        -33.8885
5.12                    -6.36611        -38.5536
5.14                    -6.58217        -43.3136
5.16                     -6.7919        -48.1631
5.18                    -6.99351        -53.0948
5.2                      -7.1852        -58.0997
5.22                    -7.36526        -63.1668
5.24                    -7.53209        -68.2832
5.26                    -7.68431        -73.4341
5.28                    -7.82077        -78.6038
5.3                     -7.94064         -83.775
5.32                    -8.04342        -88.9297
5.34                    -8.12896        -94.0499
5.36                    -8.19746         -99.118
5.38                    -8.24945        -104.117
5.4                     -8.28575        -109.032
5.42                    -8.30741        -113.848
5.44                    -8.31566        -118.555
5.46                    -8.31183         -123.14
5.48                    -8.29731        -127.598
5.5                     -8.27347        -131.921
5.52                    -8.24166        -136.106
5.54                     -8.2031        -140.151
5.56                    -8.15893        -144.055
5.58                    -8.11014        -147.818
5.6                     -8.05758        -151.442
5.62                    -8.00198        -154.931
5.64                    -7.94391        -158.287
5.66                    -7.88384        -161.516
5.68                    -7.82212        -164.622
5.7                     -7.75901         -167.61
5.72                     -7.6947        -170.488
5.74                     -7.6293         -173.26
5.76                    -7.56292        -175.934
5.78                    -7.49561        -178.516
5.8                     -7.42744         178.987
5.82                    -7.35849          176.57
5.84                    -7.28883         174.224
5.86                    -7.21859         171.943
5.88                    -7.14793         169.722
5.9                     -7.07704         167.555
5.92                    -7.00614         165.435
5.94                    -6.93551         163.358
5.96                    -6.86545          161.32
5.98                    -6.79626         159.317
6                        -6.7283         157.345
6.02                    -6.66188         155.401
6.04                    -6.59733         153.485
6.06                    -6.53493         151.594
6.08                    -6.47494         149.728
6.1                     -6.41754         147.888
6.12                    -6.36285         146.073
6.14                    -6.31087         144.285
6.16                    -6.26152         142.525
6.18                    -6.21459         140.794
6.2                     -6.16974         139.095
6.22                    -6.12648         137.429
6.24                     -6.0842         135.796
6.26                     -6.0421         134.199
6.28                    -5.99929         132.637
6.3                     -5.95473         131.108
6.32                    -5.90727          129.61
6.34                    -5.85574         128.141
6.36                     -5.7989         126.693
6.38                     -5.7356         125.259
6.4                     -5.66475          123.83
6.42                    -5.58547         122.395
6.44                     -5.4971          120.94
6.46                    -5.39932         119.451
6.48                    -5.29215         117.911
6.5                     -5.17604         116.306
