! TOUCHSTONE file generated by CST MICROWAVE STUDIO
! Date and time: Fri Oct 28 00:22:44 2022
! Project name: L.cst
! Parameters = {Di=1.27; Epsilon_r=1.56; InnerDiameter=1.27; Length=2; Lf=10; Lg=60; OuterConductorThickness=0.2921; OuterDiameter=3.6; Wf=3; Wp=41.2; de=1.5; df=6.8; g=0.8; gx=4.5085; gy=1.38575; h=2.34; hf=1.524; px=9.71962; py=13.1319; w=9.7; wx=5.21112; wy=11.7462}
! Header version: 2018
! Port assignment regex: !\s*Touchstone port\s*([0-9]+)\s*=\s*(CST MWS port|CST DS port)\s*([0-9]+|Zmin|Zmax)\s*\(\"(.*)\"\)(\s*mode\s*([0-9]+))?.*
! Touchstone port assignment:
! Touchstone port 1 = CST MWS port 1 ("")
# GHz S DB R 50
4.5                     -0.44774         80.2464
4.52                   -0.454435         78.7171
4.54                   -0.468408          76.903
4.56                   -0.486638         75.3024
4.58                   -0.492238         73.4661
4.6                    -0.517657         71.7617
4.62                   -0.519767         69.9138
4.64                   -0.547708          68.094
4.66                   -0.550641         66.2271
4.68                   -0.577411         64.2925
4.7                    -0.584355         62.3889
4.72                   -0.607331         60.3463
4.74                   -0.620508         58.3801
4.76                   -0.638383         56.2432
4.78                   -0.658077         54.1819
4.8                    -0.671792         51.9631
4.82                   -0.696257         49.7785
4.84                   -0.708247         47.4795
4.86                   -0.734752          45.153
4.88                   -0.747672         42.7609
4.9                    -0.774128         40.2819
4.92                   -0.789771         37.7758
4.94                   -0.814614         35.1344
4.96                   -0.834451         32.4858
4.98                   -0.856816         29.6736
5                      -0.881419         26.8465
5.02                   -0.901718         23.8529
5.04                   -0.930454         20.8065
5.06                   -0.950627         17.6119
5.08                   -0.982141          14.307
5.1                     -1.00491         10.8765
5.12                    -1.03841         7.27474
5.14                    -1.06678         3.55944
5.16                     -1.1028       -0.379649
5.18                    -1.14028        -4.43986
5.2                     -1.18124        -8.75941
5.22                    -1.23186        -13.2337
5.24                    -1.28297        -17.9788
5.26                    -1.35118        -22.9357
5.28                    -1.42055        -28.1534
5.3                     -1.51147         -33.648
5.32                    -1.60858        -39.3827
5.34                    -1.72754        -45.4463
5.36                     -1.8606        -51.7331
5.38                    -2.01156        -58.3738
5.4                     -2.18517        -65.2399
5.42                    -2.36975        -72.4477
5.44                    -2.58281         -79.917
5.46                    -2.80156        -87.6804
5.48                    -3.04875        -95.7656
5.5                     -3.30375        -104.079
5.52                    -3.58129         -112.75
5.54                    -3.87765        -121.585
5.56                    -4.18909        -130.731
5.58                    -4.53578        -139.976
5.6                     -4.89466        -149.359
5.62                    -5.30366        -158.752
5.64                    -5.73107        -167.973
5.66                     -6.2113        -177.044
5.68                    -6.72384         174.466
5.7                     -7.26806         166.426
5.72                    -7.84964         159.387
5.74                    -8.40553         153.248
5.76                     -8.9585         148.399
5.78                     -9.3781         144.827
5.8                     -9.68535          142.33
5.82                    -9.73778         140.828
5.84                    -9.58604         139.318
5.86                    -9.18976         137.832
5.88                    -8.63593         135.231
5.9                     -7.98961          132.07
5.92                    -7.27782         127.609
5.94                    -6.61021         122.555
5.96                    -5.92505         116.595
5.98                    -5.34917         110.053
6                       -4.78195         103.091
6.02                    -4.33352          95.444
6.04                    -3.93467         87.7279
6.06                    -3.63675         79.2094
6.08                    -3.47136          70.736
6.1                     -3.41787         61.6393
6.12                    -3.66017         53.0461
6.14                    -3.96449         46.5724
6.16                    -3.85314         41.8475
6.18                    -3.11643          32.772
6.2                     -2.84245          17.353
6.22                    -3.09894        -0.53468
6.24                    -3.82569        -24.9296
6.26                    -5.65941        -59.6787
6.28                    -7.87731        -115.178
6.3                     -7.02383         169.517
6.32                    -4.60143         115.639
6.34                    -2.96795         84.4063
6.36                    -1.84671         58.8157
6.38                    -1.95721         39.8844
6.4                     -1.17561         23.2518
6.42                     -2.7004        -8.41035
6.44                    -11.3022         14.6057
6.46                    -2.11911         31.5329
6.48                   -0.751977       -0.914812
6.5                     -1.60077        -12.2354
