! TOUCHSTONE file generated by CST MICROWAVE STUDIO
! Date and time: Sat Oct 29 09:05:29 2022
! Project name: L.cst
! Parameters = {Di=1.27; Epsilon_r=1.56; InnerDiameter=1.27; Length=2; Lf=10; Lg=60; OuterConductorThickness=0.2921; OuterDiameter=3.6; Wf=3; Wp=41.2; de=1.5; df=6.8; g=0.8; gx=1.01076; gy=4.20191; h=2.34; hf=1.524; px=13.9853; py=11.9437; w=9.7; wx=12.9746; wy=7.74182}
! Header version: 2018
! Port assignment regex: !\s*Touchstone port\s*([0-9]+)\s*=\s*(CST MWS port|CST DS port)\s*([0-9]+|Zmin|Zmax)\s*\(\"(.*)\"\)(\s*mode\s*([0-9]+))?.*
! Touchstone port assignment:
! Touchstone port 1 = CST MWS port 1 ("")
# GHz S DB R 50
4.5                     -4.47083         89.8368
4.52                    -4.58146          89.982
4.54                    -4.69716         89.8127
4.56                     -4.7986         90.0632
4.58                    -4.82582         90.0812
4.6                     -4.87829         90.0239
4.62                    -4.87027         90.1171
4.64                    -4.84208         89.7934
4.66                    -4.82081         89.5541
4.68                      -4.745          89.106
4.7                     -4.68999         88.3594
4.72                    -4.61758         87.6464
4.74                    -4.52908         86.5496
4.76                    -4.46894         85.3387
4.78                    -4.38647         83.9886
4.8                     -4.32472         82.2835
4.82                    -4.28022         80.5294
4.84                    -4.23124         78.4729
4.86                    -4.22331         76.1624
4.88                    -4.22666         73.7138
4.9                     -4.25813         70.8568
4.92                    -4.34327         67.7679
4.94                    -4.46048         64.3229
4.96                    -4.65779         60.3509
4.98                    -4.95152         55.9605
5                       -5.37057          50.823
5.02                    -6.02143         44.8165
5.04                    -7.01413         37.8177
5.06                    -8.63968         29.3482
5.08                    -11.6236         19.6772
5.1                       -18.48         12.5914
5.12                    -23.5278         141.329
5.14                    -12.1845         139.174
5.16                     -8.2343         123.354
5.18                    -6.67117         108.665
5.2                      -6.3753         97.1661
5.22                    -6.84791         90.1227
5.24                    -7.61093          88.845
5.26                    -8.03803         92.9979
5.28                    -7.64953         98.9906
5.3                     -6.63881         102.195
5.32                    -5.55284         101.817
5.34                    -4.62409         99.2801
5.36                    -3.89877         95.5917
5.38                    -3.36211         91.5873
5.4                     -2.93956         87.6199
5.42                    -2.59683         83.6595
5.44                    -2.31416         79.7402
5.46                    -2.08072         75.7651
5.48                    -1.91008         71.8084
5.5                     -1.77421         67.9798
5.52                    -1.66445         64.1163
5.54                    -1.58928         60.2849
5.56                    -1.52265         56.4303
5.58                    -1.48005         52.3895
5.6                     -1.46045         48.2448
5.62                    -1.44904         43.7669
5.64                    -1.47796         38.8062
5.66                    -1.53815         33.2419
5.68                     -1.6546         26.4451
5.7                     -1.91153         17.7402
5.72                    -2.47166         5.37551
5.74                    -4.39194        -12.5576
5.76                     -6.0086        -27.7264
5.78                    -8.58198        -102.227
5.8                     -5.19502         153.965
5.82                     -2.2004         106.209
5.84                    -1.22731          82.497
5.86                   -0.861943         68.5528
5.88                    -0.68073         58.9439
5.9                    -0.610175         51.6993
5.92                   -0.551049         46.0228
5.94                   -0.504485         40.9395
5.96                   -0.506327         36.6271
5.98                   -0.456658         32.7621
6                      -0.451704         28.8031
6.02                   -0.461709         25.5717
6.04                    -0.38925         22.0111
6.06                   -0.458935         18.2919
6.08                   -0.420029         15.3656
6.1                    -0.362177         9.06614
6.12                    -3.54289        -6.82041
6.14                   -0.648911         14.4185
6.16                   -0.355401         10.2091
6.18                   -0.285037         5.26908
6.2                    -0.392659         2.64811
6.22                   -0.269899      -0.0424437
6.24                   -0.313963        -3.31184
6.26                   -0.320602        -5.38092
6.28                   -0.245682        -8.28639
6.3                    -0.313432        -10.8999
6.32                   -0.258659        -13.0337
6.34                   -0.245095        -15.9909
6.36                   -0.290075        -18.1433
6.38                   -0.212879         -20.577
6.4                    -0.255675        -23.3306
6.42                   -0.247065         -25.276
6.44                   -0.193462         -28.029
6.46                   -0.260986        -30.3739
6.48                   -0.196546        -32.4407
6.5                    -0.203077        -35.3125
