! TOUCHSTONE file generated by CST MICROWAVE STUDIO
! Date and time: Fri Oct 28 21:52:32 2022
! Project name: L.cst
! Parameters = {Di=1.27; Epsilon_r=1.56; InnerDiameter=1.27; Length=2; Lf=10; Lg=60; OuterConductorThickness=0.2921; OuterDiameter=3.6; Wf=3; Wp=41.2; de=1.5; df=6.8; g=0.8; gx=1.53227; gy=4.36865; h=2.34; hf=1.524; px=12.9147; py=8.86621; w=9.7; wx=11.3824; wy=4.49757}
! Header version: 2018
! Port assignment regex: !\s*Touchstone port\s*([0-9]+)\s*=\s*(CST MWS port|CST DS port)\s*([0-9]+|Zmin|Zmax)\s*\(\"(.*)\"\)(\s*mode\s*([0-9]+))?.*
! Touchstone port assignment:
! Touchstone port 1 = CST MWS port 1 ("")
# GHz S DB R 50
4.5                     -1.05619          86.317
4.52                    -1.09445         84.5748
4.54                    -1.14618           82.71
4.56                    -1.21712         80.8682
4.58                    -1.28844         79.1126
4.6                     -1.34771         77.3408
4.62                    -1.40676         75.4563
4.64                    -1.48147           73.51
4.66                    -1.56815          71.607
4.68                    -1.65151         69.7452
4.7                      -1.7289         67.8296
4.72                    -1.81333         65.8232
4.74                    -1.91285         63.7967
4.76                    -2.01947         61.8127
4.78                    -2.12291          59.834
4.8                     -2.22664          57.788
4.82                    -2.34195         55.6799
4.84                    -2.47087         53.5795
4.86                    -2.60426         51.5133
4.88                    -2.73677         49.4287
4.9                     -2.87525         47.2805
4.92                    -3.02817         45.1011
4.94                    -3.19319         42.9499
4.96                    -3.36176         40.8249
4.98                    -3.53293         38.6713
5                       -3.71511         36.4715
5.02                    -3.91341         34.2752
5.04                    -4.12238         32.1271
5.06                    -4.33504         30.0036
5.08                    -4.55415         27.8563
5.1                     -4.78833         25.6947
5.12                    -5.03897         23.5799
5.14                    -5.29821         21.5385
5.16                    -5.56124         19.5302
5.18                    -5.83399         17.5205
5.2                      -6.1239         15.5476
5.22                    -6.42776         13.6776
5.24                    -6.73568         11.9139
5.26                    -7.04567         10.2033
5.28                    -7.36605         8.53437
5.3                      -7.7008          6.9753
5.32                    -8.04034         5.58534
5.34                    -8.37312         4.33233
5.36                    -8.70084         3.15222
5.38                    -9.03237          2.0652
5.4                     -9.36427         1.15876
5.42                    -9.67906        0.450446
5.44                     -9.9664       -0.154527
5.46                     -10.234       -0.728237
5.48                    -10.4887        -1.22043
5.5                      -10.717         -1.5707
5.52                    -10.8993        -1.86424
5.54                    -11.0375        -2.26697
5.56                      -11.15        -2.82669
5.58                    -11.2408        -3.46915
5.6                     -11.2933         -4.2053
5.62                    -11.3013        -5.21008
5.64                    -11.2877         -6.6263
5.66                    -11.2779        -8.40533
5.68                    -11.2708        -10.4447
5.7                     -11.2536        -12.8058
5.72                    -11.2372        -15.6662
5.74                    -11.2584        -19.0703
5.76                    -11.3422         -22.862
5.78                    -11.4835        -26.9019
5.8                     -11.6745        -31.2465
5.82                    -11.9409        -36.0098
5.84                    -12.3313        -41.0705
5.86                    -12.8699        -46.0269
5.88                    -13.5303        -50.4784
5.9                     -14.2678        -54.2848
5.92                    -15.0688        -57.3883
5.94                    -15.9216        -59.3496
5.96                    -16.6987        -59.4693
5.98                    -17.1273         -58.017
6                       -17.0398        -56.9792
6.02                    -16.5654        -58.2054
6.04                    -15.8772        -61.9464
6.06                    -14.9939        -68.0369
6.08                    -13.8978          -76.88
6.1                     -12.6523        -88.8677
6.12                    -11.3465        -103.708
6.14                    -10.0157         -120.66
6.16                    -8.65714        -139.071
6.18                     -7.2943        -158.591
6.2                     -6.01235         -178.94
6.22                    -4.93493         160.202
6.24                    -4.17066         139.667
6.26                     -3.7616         120.392
6.28                    -3.64027         103.325
6.3                     -3.62172         88.7793
6.32                    -3.52526         75.6889
6.34                    -3.40913          62.136
6.36                    -3.60768         47.2876
6.38                    -4.52925         32.5678
6.4                     -6.45898         22.3999
6.42                    -8.81026         25.9873
6.44                    -8.50383         41.5398
6.46                    -5.98597         42.7379
6.48                    -4.19336         31.6027
6.5                     -3.56262         17.3408
