! TOUCHSTONE file generated by CST MICROWAVE STUDIO
! Date and time: Sat Oct 29 13:33:53 2022
! Project name: L.cst
! Parameters = {Di=1.27; Epsilon_r=1.56; InnerDiameter=1.27; Length=2; Lf=10; Lg=60; OuterConductorThickness=0.2921; OuterDiameter=3.6; Wf=3; Wp=41.2; de=1.5; df=6.8; g=0.8; gx=0.937691; gy=3.908; h=2.34; hf=1.524; px=10.8395; py=9.26958; w=9.7; wx=9.90185; wy=5.36158}
! Header version: 2018
! Port assignment regex: !\s*Touchstone port\s*([0-9]+)\s*=\s*(CST MWS port|CST DS port)\s*([0-9]+|Zmin|Zmax)\s*\(\"(.*)\"\)(\s*mode\s*([0-9]+))?.*
! Touchstone port assignment:
! Touchstone port 1 = CST MWS port 1 ("")
# GHz S DB R 50
4.5                    -0.917738         87.0308
4.52                   -0.945246         85.4257
4.54                   -0.974232         83.7703
4.56                    -1.00653         82.0686
4.58                    -1.04352         80.3277
4.6                     -1.08604         78.5567
4.62                    -1.13437         76.7647
4.64                    -1.18833         74.9602
4.66                    -1.24733         73.1501
4.68                    -1.31054         71.3388
4.7                     -1.37701         69.5281
4.72                    -1.44583         67.7174
4.74                    -1.51625         65.9041
4.76                    -1.58774         64.0837
4.78                    -1.66011         62.2511
4.8                     -1.73343          60.401
4.82                    -1.80809         58.5287
4.84                    -1.88468         56.6305
4.86                    -1.96395         54.7043
4.88                     -2.0467         52.7497
4.9                     -2.13373         50.7677
4.92                    -2.22573         48.7608
4.94                    -2.32323         46.7326
4.96                    -2.42659         44.6873
4.98                    -2.53598         42.6293
5                        -2.6514         40.5627
5.02                    -2.77266         38.4912
5.04                    -2.89951         36.4175
5.06                    -3.03163         34.3436
5.08                    -3.16871         32.2703
5.1                      -3.3105         30.1976
5.12                    -3.45685         28.1249
5.14                    -3.60775         26.0512
5.16                    -3.76335         23.9757
5.18                    -3.92393         21.8978
5.2                     -4.08991         19.8178
5.22                    -4.26178          17.737
5.24                    -4.44007          15.658
5.26                     -4.6253         13.5846
5.28                    -4.81788         11.5219
5.3                     -5.01811         9.47637
5.32                     -5.2261          7.4551
5.34                    -5.44173         5.46592
5.36                    -5.66465         3.51683
5.38                    -5.89428         1.61562
5.4                     -6.12981       -0.230471
5.42                    -6.37025        -2.01515
5.44                    -6.61449        -3.73324
5.46                    -6.86132        -5.38082
5.48                    -7.10955        -6.95514
5.5                       -7.358        -8.45446
5.52                    -7.60562        -9.87758
5.54                    -7.85141        -11.2234
5.56                    -8.09448        -12.4905
5.58                    -8.33392        -13.6764
5.6                     -8.56875        -14.7776
5.62                    -8.79776        -15.7893
5.64                    -9.01936        -16.7059
5.66                    -9.23148        -17.5218
5.68                    -9.43144        -18.2326
5.7                     -9.61594        -18.8368
5.72                    -9.78113        -19.3381
5.74                    -9.92284        -19.7465
5.76                    -10.0369        -20.0802
5.78                    -10.1196        -20.3659
5.8                     -10.1682         -20.638
5.82                    -10.1813        -20.9364
5.84                    -10.1591         -21.303
5.86                    -10.1036        -21.7778
5.88                    -10.0182        -22.3952
5.9                     -9.90725        -23.1813
5.92                    -9.77572        -24.1519
5.94                    -9.62848        -25.3135
5.96                    -9.46981        -26.6637
5.98                    -9.30309        -28.1944
6                       -9.13056         -29.894
6.02                    -8.95327        -31.7509
6.04                    -8.77118        -33.7561
6.06                    -8.58338         -35.906
6.08                    -8.38846        -38.2042
6.1                      -8.1849        -40.6627
6.12                    -7.97152         -43.302
6.14                    -7.74798        -46.1497
6.16                    -7.51505        -49.2396
6.18                    -7.27487        -52.6079
6.2                     -7.03099        -56.2913
6.22                    -6.78822        -60.3243
6.24                    -6.55239        -64.7372
6.26                    -6.33007        -69.5554
6.28                    -6.12816        -74.7996
6.3                     -5.95371        -80.4863
6.32                     -5.8136        -86.6297
6.34                     -5.7144        -93.2433
6.36                    -5.66223        -100.342
6.38                    -5.66266        -107.944
6.4                     -5.72052        -116.075
6.42                    -5.83973        -124.768
6.44                    -6.02285        -134.066
6.46                    -6.27048        -144.028
6.48                    -6.58021        -154.726
6.5                     -6.94515        -166.243
