! TOUCHSTONE file generated by CST MICROWAVE STUDIO
! Date and time: Fri Oct 28 19:24:17 2022
! Project name: L.cst
! Parameters = {Di=1.27; Epsilon_r=1.56; InnerDiameter=1.27; Length=2; Lf=10; Lg=60; OuterConductorThickness=0.2921; OuterDiameter=3.6; Wf=3; Wp=41.2; de=1.5; df=6.8; g=0.8; gx=4.85807; gy=3.03635; h=2.34; hf=1.524; px=14.0694; py=9.43016; w=9.7; wx=9.21135; wy=6.39381}
! Header version: 2018
! Port assignment regex: !\s*Touchstone port\s*([0-9]+)\s*=\s*(CST MWS port|CST DS port)\s*([0-9]+|Zmin|Zmax)\s*\(\"(.*)\"\)(\s*mode\s*([0-9]+))?.*
! Touchstone port assignment:
! Touchstone port 1 = CST MWS port 1 ("")
# GHz S DB R 50
4.5                    -0.547335         89.5534
4.52                    -0.57148         87.8669
4.54                   -0.597357         86.1632
4.56                   -0.624796         84.4423
4.58                   -0.653636         82.7038
4.6                    -0.683726         80.9473
4.62                   -0.714934         79.1719
4.64                   -0.747149         77.3767
4.66                   -0.780283         75.5606
4.68                   -0.814272         73.7222
4.7                    -0.849078         71.8605
4.72                   -0.884685          69.974
4.74                   -0.921103         68.0614
4.76                   -0.958358         66.1216
4.78                   -0.996499          64.153
4.8                     -1.03559         62.1546
4.82                    -1.07571         60.1253
4.84                    -1.11694         58.0639
4.86                    -1.15939         55.9695
4.88                    -1.20314         53.8414
4.9                     -1.24831         51.6786
4.92                    -1.29499         49.4807
4.94                    -1.34328         47.2469
4.96                    -1.39328         44.9769
4.98                    -1.44507         42.6704
5                       -1.49872          40.327
5.02                    -1.55432         37.9465
5.04                     -1.6119         35.5289
5.06                    -1.67152         33.0741
5.08                     -1.7332         30.5822
5.1                     -1.79696         28.0533
5.12                    -1.86279         25.4876
5.14                     -1.9307         22.8854
5.16                    -2.00064         20.2469
5.18                    -2.07257         17.5725
5.2                     -2.14644         14.8626
5.22                    -2.22218         12.1178
5.24                    -2.29968         9.33865
5.26                    -2.37886         6.52577
5.28                    -2.45961         3.67979
5.3                     -2.54178        0.801522
5.32                    -2.62526        -2.10816
5.34                    -2.70988        -5.04831
5.36                     -2.7955        -8.01791
5.38                    -2.88194        -11.0158
5.4                     -2.96903        -14.0408
5.42                     -3.0566        -17.0916
5.44                    -3.14445        -20.1667
5.46                    -3.23241        -23.2646
5.48                     -3.3203        -26.3836
5.5                     -3.40791         -29.522
5.52                    -3.49507        -32.6778
5.54                     -3.5816        -35.8491
5.56                    -3.66733        -39.0337
5.58                     -3.7521        -42.2295
5.6                     -3.83573         -45.434
5.62                     -3.9181        -48.6449
5.64                    -3.99907        -51.8597
5.66                    -4.07851        -55.0759
5.68                    -4.15632        -58.2907
5.7                     -4.23241        -61.5015
5.72                     -4.3067        -64.7057
5.74                    -4.37914        -67.9004
5.76                    -4.44968        -71.0829
5.78                    -4.51828        -74.2507
5.8                     -4.58494         -77.401
5.82                    -4.64965        -80.5312
5.84                    -4.71243        -83.6388
5.86                    -4.77328        -86.7213
5.88                    -4.83225        -89.7764
5.9                     -4.88937        -92.8019
5.92                     -4.9447        -95.7957
5.94                    -4.99827        -98.7559
5.96                    -5.05015        -101.681
5.98                     -5.1004        -104.568
6                       -5.14907        -107.418
6.02                    -5.19623        -110.228
6.04                    -5.24193        -112.997
6.06                    -5.28624        -115.724
6.08                    -5.32923         -118.41
6.1                     -5.37094        -121.053
6.12                    -5.41145        -123.653
6.14                    -5.45083         -126.21
6.16                    -5.48915        -128.724
6.18                    -5.52648        -131.196
6.2                     -5.56291        -133.627
6.22                    -5.59854        -136.015
6.24                    -5.63347        -138.363
6.26                    -5.66783        -140.672
6.28                    -5.70175        -142.941
6.3                     -5.73538        -145.172
6.32                    -5.76889        -147.366
6.34                    -5.80245        -149.524
6.36                    -5.83627        -151.645
6.38                    -5.87055        -153.732
6.4                     -5.90551        -155.784
6.42                    -5.94135        -157.802
6.44                    -5.97829        -159.786
6.46                    -6.01653        -161.734
6.48                    -6.05625        -163.648
6.5                     -6.09758        -165.525
