! TOUCHSTONE file generated by CST MICROWAVE STUDIO
! Date and time: Fri Oct 28 16:45:42 2022
! Project name: L.cst
! Parameters = {Di=1.27; Epsilon_r=1.56; InnerDiameter=1.27; Length=2; Lf=10; Lg=60; OuterConductorThickness=0.2921; OuterDiameter=3.6; Wf=3; Wp=41.2; de=1.5; df=6.8; g=0.8; gx=3.19636; gy=4.9029; h=2.34; hf=1.524; px=11.7776; py=14.1792; w=9.7; wx=8.58124; wy=9.27635}
! Header version: 2018
! Port assignment regex: !\s*Touchstone port\s*([0-9]+)\s*=\s*(CST MWS port|CST DS port)\s*([0-9]+|Zmin|Zmax)\s*\(\"(.*)\"\)(\s*mode\s*([0-9]+))?.*
! Touchstone port assignment:
! Touchstone port 1 = CST MWS port 1 ("")
# GHz S DB R 50
4.5                     -0.42149         96.1859
4.52                   -0.432937         94.7668
4.54                   -0.444423         93.3353
4.56                   -0.456041          91.891
4.58                   -0.467875         90.4339
4.6                    -0.480001         88.9639
4.62                   -0.492484         87.4812
4.64                   -0.505379         85.9857
4.66                   -0.518734         84.4776
4.68                   -0.532583          82.957
4.7                    -0.546954         81.4241
4.72                   -0.561868         79.8789
4.74                   -0.577335         78.3217
4.76                   -0.593359         76.7526
4.78                   -0.609944         75.1715
4.8                    -0.627082         73.5786
4.82                   -0.644767          71.974
4.84                   -0.662989         70.3577
4.86                   -0.681735         68.7296
4.88                   -0.700993         67.0899
4.9                     -0.72075         65.4384
4.92                   -0.740993          63.775
4.94                   -0.761712         62.0997
4.96                   -0.782895         60.4125
4.98                   -0.804535         58.7132
5                      -0.826627         57.0017
5.02                   -0.849165         55.2779
5.04                   -0.872148         53.5417
5.06                   -0.895577          51.793
5.08                   -0.919455         50.0318
5.1                    -0.943789         48.2579
5.12                   -0.968585         46.4713
5.14                   -0.993855         44.6719
5.16                    -1.01961         42.8597
5.18                    -1.04586         41.0346
5.2                     -1.07263         39.1968
5.22                    -1.09992         37.3462
5.24                    -1.12777         35.4828
5.26                    -1.15617         33.6069
5.28                    -1.18516         31.7184
5.3                     -1.21475         29.8175
5.32                    -1.24496         27.9044
5.34                     -1.2758         25.9793
5.36                     -1.3073         24.0424
5.38                    -1.33947          22.094
5.4                     -1.37232         20.1343
5.42                    -1.40587         18.1637
5.44                    -1.44013         16.1825
5.46                    -1.47511         14.1911
5.48                    -1.51081         12.1898
5.5                     -1.54726          10.179
5.52                    -1.58443         8.15927
5.54                    -1.62235         6.13097
5.56                      -1.661         4.09458
5.58                    -1.70039          2.0506
5.6                      -1.7405    -0.000488165
5.62                    -1.78132        -2.05817
5.64                    -1.82285        -4.12192
5.66                    -1.86506        -6.19122
5.68                    -1.90794        -8.26556
5.7                     -1.95146        -10.3444
5.72                    -1.99561        -12.4273
5.74                    -2.04035        -14.5136
5.76                    -2.08565        -16.6029
5.78                    -2.13149        -18.6948
5.8                     -2.17784        -20.7888
5.82                    -2.22465        -22.8845
5.84                     -2.2719        -24.9815
5.86                    -2.31954        -27.0795
5.88                    -2.36756        -29.1781
5.9                     -2.41592        -31.2772
5.92                    -2.46458        -33.3766
5.94                    -2.51354         -35.476
5.96                    -2.56277        -37.5755
5.98                    -2.61227        -39.6751
6                       -2.66203        -41.7748
6.02                    -2.71207        -43.8746
6.04                    -2.76241         -45.975
6.06                    -2.81309         -48.076
6.08                    -2.86419        -50.1779
6.1                     -2.91577        -52.2813
6.12                    -2.96794        -54.3864
6.14                    -3.02083        -56.4937
6.16                    -3.07461        -58.6037
6.18                    -3.12947        -60.7167
6.2                     -3.18564        -62.8333
6.22                    -3.24338        -64.9536
6.24                    -3.30299         -67.078
6.26                    -3.36484        -69.2066
6.28                     -3.4293        -71.3393
6.3                     -3.49682        -73.4758
6.32                    -3.56789        -75.6156
6.34                    -3.64303        -77.7578
6.36                    -3.72283         -79.901
6.38                    -3.80791        -82.0434
6.4                     -3.89895        -84.1825
6.42                    -3.99663        -86.3152
6.44                     -4.1017        -88.4375
6.46                    -4.21491        -90.5444
6.48                    -4.33702        -92.6299
6.5                     -4.46879        -94.6866
