! TOUCHSTONE file generated by CST MICROWAVE STUDIO
! Date and time: Wed Oct 26 22:43:50 2022
! Project name: L.cst
! Parameters = {Di=1.27; Epsilon_r=1.56; InnerDiameter=1.27; Length=2; Lf=10; Lg=60; OuterConductorThickness=0.2921; OuterDiameter=3.6; Wf=3; Wp=41.2; de=1.5; df=6.8; g=0.8; gx=4.79462; gy=2.19595; h=2.34; hf=1.524; px=12.9577; py=9.72649; w=9.7; wx=8.16312; wy=7.53053}
! Header version: 2018
! Port assignment regex: !\s*Touchstone port\s*([0-9]+)\s*=\s*(CST MWS port|CST DS port)\s*([0-9]+|Zmin|Zmax)\s*\(\"(.*)\"\)(\s*mode\s*([0-9]+))?.*
! Touchstone port assignment:
! Touchstone port 1 = CST MWS port 1 ("")
# GHz S DB R 50
4.5                    -0.521157          86.747
4.52                   -0.543815         85.0147
4.54                   -0.568376         83.2636
4.56                    -0.59461         81.4938
4.58                   -0.622293          79.705
4.6                    -0.651215         77.8965
4.62                   -0.681186         76.0673
4.64                   -0.712045         74.2163
4.66                   -0.743654         72.3422
4.68                   -0.775908         70.4434
4.7                    -0.808732         68.5182
4.72                   -0.842082         66.5651
4.74                   -0.875939         64.5824
4.76                   -0.910313         62.5685
4.78                   -0.945238         60.5216
4.8                    -0.980767         58.4402
4.82                    -1.01697         56.3229
4.84                    -1.05392         54.1684
4.86                    -1.09172         51.9754
4.88                    -1.13046         49.7429
4.9                     -1.17023         47.4697
4.92                    -1.21114         45.1552
4.94                    -1.25327         42.7986
4.96                     -1.2967         40.3993
4.98                    -1.34151         37.9569
5                       -1.38776         35.4711
5.02                    -1.43548         32.9415
5.04                    -1.48472         30.3683
5.06                    -1.53547         27.7513
5.08                    -1.58774         25.0907
5.1                      -1.6415         22.3867
5.12                    -1.69671         19.6397
5.14                     -1.7533           16.85
5.16                     -1.8112         14.0183
5.18                     -1.8703         11.1451
5.2                     -1.93048         8.23116
5.22                    -1.99161         5.27743
5.24                    -2.05355         2.28477
5.26                    -2.11611       -0.745606
5.28                    -2.17913        -3.81264
5.3                     -2.24241        -6.91493
5.32                    -2.30576         -10.051
5.34                    -2.36897        -13.2192
5.36                    -2.43183        -16.4179
5.38                    -2.49411        -19.6451
5.4                      -2.5556        -22.8988
5.42                     -2.6161        -26.1767
5.44                    -2.67538        -29.4766
5.46                    -2.73325         -32.796
5.48                    -2.78952        -36.1322
5.5                     -2.84401        -39.4825
5.52                    -2.89654        -42.8441
5.54                    -2.94698        -46.2139
5.56                    -2.99519        -49.5889
5.58                    -3.04106         -52.966
5.6                      -3.0845         -56.342
5.62                    -3.12544        -59.7137
5.64                    -3.16384        -63.0778
5.66                    -3.19967         -66.431
5.68                    -3.23292        -69.7703
5.7                     -3.26361        -73.0924
5.72                    -3.29178        -76.3942
5.74                    -3.31746        -79.6728
5.76                    -3.34072        -82.9252
5.78                    -3.36164        -86.1488
5.8                      -3.3803        -89.3409
5.82                    -3.39678        -92.4992
5.84                    -3.41119        -95.6214
5.86                     -3.4236        -98.7053
5.88                    -3.43412        -101.749
5.9                     -3.44283        -104.751
5.92                    -3.44982        -107.711
5.94                    -3.45515        -110.625
5.96                    -3.45891        -113.495
5.98                    -3.46114        -116.318
6                        -3.4619        -119.095
6.02                    -3.46123        -121.825
6.04                    -3.45917        -124.509
6.06                    -3.45573        -127.145
6.08                    -3.45096        -129.736
6.1                     -3.44486        -132.282
6.12                    -3.43747        -134.783
6.14                    -3.42881        -137.241
6.16                    -3.41893        -139.657
6.18                    -3.40787        -142.033
6.2                     -3.39571         -144.37
6.22                    -3.38254         -146.67
6.24                    -3.36845        -148.936
6.26                    -3.35361        -151.168
6.28                    -3.33816         -153.37
6.3                     -3.32232        -155.542
6.32                     -3.3063        -157.687
6.34                    -3.29038        -159.807
6.36                    -3.27485        -161.902
6.38                    -3.26001        -163.974
6.4                     -3.24622        -166.025
6.42                    -3.23381        -168.054
6.44                    -3.22315        -170.061
6.46                     -3.2146        -172.047
6.48                    -3.20849         -174.01
6.5                     -3.20514        -175.949
