! TOUCHSTONE file generated by CST MICROWAVE STUDIO
! Date and time: Fri Oct 28 06:04:09 2022
! Project name: L.cst
! Parameters = {Di=1.27; Epsilon_r=1.56; InnerDiameter=1.27; Length=2; Lf=10; Lg=60; OuterConductorThickness=0.2921; OuterDiameter=3.6; Wf=3; Wp=41.2; de=1.5; df=6.8; g=0.8; gx=1.46977; gy=0.611293; h=2.34; hf=1.524; px=9.8363; py=12.7934; w=9.7; wx=8.36653; wy=12.1821}
! Header version: 2018
! Port assignment regex: !\s*Touchstone port\s*([0-9]+)\s*=\s*(CST MWS port|CST DS port)\s*([0-9]+|Zmin|Zmax)\s*\(\"(.*)\"\)(\s*mode\s*([0-9]+))?.*
! Touchstone port assignment:
! Touchstone port 1 = CST MWS port 1 ("")
# GHz S DB R 50
4.5                     -1.53287         53.4868
4.52                    -1.53797         51.2938
4.54                     -1.6222         48.5757
4.56                     -1.7248         46.4312
4.58                    -1.74403         43.9827
4.6                     -1.83524         41.1372
4.62                    -1.93064         38.7426
4.64                    -1.96092         36.0032
4.66                    -2.05575         32.9436
4.68                    -2.14584         30.2187
4.7                     -2.18501         27.1123
4.72                    -2.28228         23.7182
4.74                    -2.37046         20.5442
4.76                    -2.41961         16.9469
4.78                    -2.52297         13.0545
4.8                     -2.61779          9.2698
4.82                    -2.68458         5.01366
4.84                    -2.80492        0.423091
4.86                    -2.92163        -4.17005
4.88                    -3.02074        -9.29507
4.9                     -3.17652        -14.8315
4.92                    -3.33868        -20.4912
4.94                    -3.49559        -26.7734
4.96                     -3.7206        -33.6006
4.98                     -3.9752        -40.6979
5                       -4.25089        -48.5366
5.02                    -4.63182        -57.0816
5.04                    -5.10252        -65.9716
5.06                     -5.6594        -75.5451
5.08                    -6.40662        -85.6767
5.1                     -7.34978        -95.6065
5.12                    -8.44902        -105.241
5.14                    -9.77975         -114.18
5.16                    -11.2835        -120.997
5.18                    -12.7327         -125.41
5.2                     -14.0709        -127.586
5.22                    -15.0623        -126.727
5.24                    -15.3886        -125.143
5.26                    -15.3133        -124.799
5.28                    -14.8924        -125.207
5.3                     -14.1884        -127.802
5.32                    -13.5223        -132.049
5.34                    -12.8261        -136.553
5.36                    -12.0673        -142.101
5.38                    -11.4215         -148.24
5.4                     -10.7919        -154.017
5.42                    -10.1269        -160.239
5.44                     -9.5663        -166.713
5.46                    -9.02946        -172.689
5.48                    -8.46202         -178.94
5.5                     -7.99242         174.598
5.52                    -7.55378         168.605
5.54                    -7.09066         162.332
5.56                    -6.73381         155.764
5.58                    -6.43052         149.585
5.6                     -6.13223         143.025
5.62                    -6.00654         136.045
5.64                     -6.0497         129.575
5.66                    -6.28453         123.267
5.68                    -6.99886             119
5.7                     -7.68983         122.138
5.72                    -6.91372         128.511
5.74                    -5.28202         127.467
5.76                    -3.97606          120.75
5.78                    -3.13381         112.242
5.8                     -2.62402         103.703
5.82                    -2.25611         95.7047
5.84                    -1.93686         87.5697
5.86                    -1.74925         79.2434
5.88                    -1.61836         71.3627
5.9                     -1.45397         63.0461
5.92                     -1.4214         54.0222
5.94                    -1.46685         45.4189
5.96                    -1.42468         36.0398
5.98                    -1.57047          24.961
6                       -1.91768         14.0611
6.02                     -2.1523         1.09168
6.04                    -3.10194        -18.2275
6.06                    -6.54517        -38.6402
6.08                    -13.5133        -23.5453
6.1                     -9.31106         12.6281
6.12                    -6.11134         -4.8879
6.14                    -5.73802        -26.2684
6.16                    -6.15716         -44.847
6.18                    -6.49145        -66.3549
6.2                     -6.83791        -96.8375
6.22                    -6.88443        -141.407
6.24                    -5.72007         160.433
6.26                    -3.61244         102.233
6.28                    -2.26634         52.4967
6.3                     -2.42859         13.2068
6.32                    -3.46484        -12.7961
6.34                     -3.8251        -30.1338
6.36                    -3.89494        -49.5174
6.38                     -4.6548        -66.8059
6.4                     -4.96757        -78.1001
6.42                    -4.59879        -93.1311
6.44                    -4.93471        -109.996
6.46                    -5.20161        -120.833
6.48                    -4.49122        -134.129
6.5                     -4.35163        -152.252
