! TOUCHSTONE file generated by CST MICROWAVE STUDIO
! Date and time: Wed Oct 26 20:12:30 2022
! Project name: L.cst
! Parameters = {Di=1.27; Epsilon_r=1.56; InnerDiameter=1.27; Length=2; Lf=10; Lg=60; OuterConductorThickness=0.2921; OuterDiameter=3.6; Wf=3; Wp=41.2; de=1.5; df=6.8; g=0.8; gx=3.56714; gy=4.37661; h=2.34; hf=1.524; px=12.8804; py=11.7025; w=9.7; wx=9.31325; wy=7.32585}
! Header version: 2018
! Port assignment regex: !\s*Touchstone port\s*([0-9]+)\s*=\s*(CST MWS port|CST DS port)\s*([0-9]+|Zmin|Zmax)\s*\(\"(.*)\"\)(\s*mode\s*([0-9]+))?.*
! Touchstone port assignment:
! Touchstone port 1 = CST MWS port 1 ("")
# GHz S DB R 50
4.5                    -0.470002         95.0362
4.52                   -0.484797         93.5524
4.54                   -0.500273         92.0552
4.56                   -0.516448         90.5445
4.58                   -0.533335         89.0205
4.6                    -0.550936         87.4833
4.62                   -0.569251         85.9329
4.64                   -0.588273         84.3692
4.66                   -0.607993         82.7921
4.68                   -0.628403         81.2017
4.7                    -0.649492         79.5976
4.72                   -0.671253         77.9798
4.74                    -0.69368          76.348
4.76                   -0.716766         74.7021
4.78                   -0.740514         73.0416
4.8                    -0.764924         71.3664
4.82                   -0.790005         69.6762
4.84                   -0.815763         67.9707
4.86                   -0.842215         66.2496
4.88                   -0.869375         64.5128
4.9                    -0.897266         62.7598
4.92                   -0.925908         60.9905
4.94                   -0.955328         59.2047
4.96                   -0.985553         57.4021
4.98                    -1.01661         55.5825
5                       -1.04854         53.7459
5.02                    -1.08136          51.892
5.04                    -1.11512         50.0208
5.06                    -1.14983         48.1322
5.08                    -1.18555         46.2261
5.1                     -1.22228         44.3025
5.12                    -1.26008         42.3616
5.14                    -1.29897         40.4031
5.16                    -1.33898         38.4274
5.18                    -1.38013         36.4344
5.2                     -1.42246         34.4243
5.22                    -1.46598         32.3972
5.24                    -1.51071         30.3534
5.26                    -1.55669          28.293
5.28                    -1.60392         26.2163
5.3                     -1.65242         24.1236
5.32                    -1.70221         22.0151
5.34                     -1.7533         19.8912
5.36                    -1.80569         17.7522
5.38                    -1.85939         15.5985
5.4                     -1.91441         13.4305
5.42                    -1.97076         11.2486
5.44                    -2.02842          9.0533
5.46                    -2.08741         6.84507
5.48                    -2.14773         4.62442
5.5                     -2.20936         2.39189
5.52                     -2.2723        0.148041
5.54                    -2.33656        -2.10653
5.56                    -2.40211         -4.3712
5.58                    -2.46896        -6.64532
5.6                     -2.53709        -8.92819
5.62                    -2.60649        -11.2191
5.64                    -2.67715        -13.5173
5.66                    -2.74907         -15.822
5.68                    -2.82222        -18.1325
5.7                      -2.8966        -20.4478
5.72                    -2.97218        -22.7671
5.74                    -3.04896        -25.0895
5.76                    -3.12692         -27.414
5.78                    -3.20605        -29.7398
5.8                     -3.28632        -32.0658
5.82                    -3.36771        -34.3909
5.84                    -3.45021        -36.7141
5.86                     -3.5338        -39.0343
5.88                    -3.61845        -41.3504
5.9                     -3.70414        -43.6613
5.92                    -3.79083        -45.9658
5.94                     -3.8785        -48.2627
5.96                    -3.96712        -50.5508
5.98                    -4.05665        -52.8288
6                       -4.14704        -55.0955
6.02                    -4.23825        -57.3498
6.04                    -4.33024        -59.5902
6.06                    -4.42294        -61.8156
6.08                    -4.51629        -64.0247
6.1                     -4.61023        -66.2163
6.12                    -4.70467         -68.389
6.14                    -4.79953        -70.5418
6.16                    -4.89473        -72.6733
6.18                    -4.99015        -74.7826
6.2                     -5.08569        -76.8683
6.22                    -5.18123        -78.9296
6.24                    -5.27662        -80.9654
6.26                    -5.37174        -82.9747
6.28                    -5.46643        -84.9568
6.3                     -5.56051        -86.9109
6.32                    -5.65383        -88.8364
6.34                    -5.74618        -90.7328
6.36                    -5.83737        -92.5997
6.38                    -5.92718        -94.4369
6.4                     -6.01541        -96.2443
6.42                    -6.10182        -98.0222
6.44                    -6.18617        -99.7708
6.46                    -6.26821        -101.491
6.48                     -6.3477        -103.183
6.5                     -6.42438        -104.848
