! TOUCHSTONE file generated by CST MICROWAVE STUDIO
! Date and time: Thu Oct 27 02:00:28 2022
! Project name: L.cst
! Parameters = {Di=1.27; Epsilon_r=1.56; InnerDiameter=1.27; Length=2; Lf=10; Lg=60; OuterConductorThickness=0.2921; OuterDiameter=3.6; Wf=3; Wp=41.2; de=1.5; df=6.8; g=0.8; gx=4.29903; gy=3.35934; h=2.34; hf=1.524; px=10.1988; py=12.1568; w=9.7; wx=5.89976; wy=8.79751}
! Header version: 2018
! Port assignment regex: !\s*Touchstone port\s*([0-9]+)\s*=\s*(CST MWS port|CST DS port)\s*([0-9]+|Zmin|Zmax)\s*\(\"(.*)\"\)(\s*mode\s*([0-9]+))?.*
! Touchstone port assignment:
! Touchstone port 1 = CST MWS port 1 ("")
# GHz S DB R 50
4.5                    -0.334145         94.4271
4.52                   -0.342426         93.0081
4.54                   -0.350919         91.5764
4.56                    -0.35965          90.132
4.58                   -0.368642         88.6746
4.6                    -0.377908         87.2043
4.62                    -0.38746         85.7209
4.64                   -0.397303         84.2244
4.66                   -0.407439         82.7148
4.68                   -0.417865         81.1918
4.7                     -0.42858         79.6554
4.72                   -0.439576         78.1054
4.74                   -0.450846         76.5416
4.76                   -0.462383          74.964
4.78                   -0.474176         73.3722
4.8                    -0.486221         71.7661
4.82                   -0.498506         70.1456
4.84                   -0.511027         68.5102
4.86                   -0.523776           66.86
4.88                   -0.536747         65.1945
4.9                    -0.549936         63.5136
4.92                   -0.563342          61.817
4.94                    -0.57696         60.1046
4.96                   -0.590791          58.376
4.98                   -0.604835         56.6311
5                      -0.619092         54.8697
5.02                   -0.633562         53.0916
5.04                    -0.64825         51.2965
5.06                   -0.663157         49.4844
5.08                   -0.678286         47.6551
5.1                    -0.693639         45.8084
5.12                   -0.709219         43.9442
5.14                   -0.725029         42.0624
5.16                    -0.74107          40.163
5.18                   -0.757345         38.2458
5.2                    -0.773853         36.3109
5.22                   -0.790594         34.3582
5.24                   -0.807568         32.3877
5.26                   -0.824772         30.3995
5.28                   -0.842202         28.3936
5.3                    -0.859856           26.37
5.32                   -0.877727         24.3288
5.34                   -0.895808         22.2702
5.36                   -0.914092         20.1943
5.38                   -0.932569         18.1012
5.4                     -0.95123         15.9912
5.42                   -0.970062         13.8643
5.44                   -0.989053         11.7209
5.46                    -1.00819         9.56122
5.48                    -1.02746         7.38545
5.5                     -1.04684         5.19391
5.52                    -1.06633         2.98691
5.54                     -1.0859        0.764791
5.56                    -1.10553         -1.4721
5.58                    -1.12521        -3.72339
5.6                     -1.14492        -5.98868
5.62                    -1.16464        -8.26756
5.64                    -1.18436        -10.5596
5.66                    -1.20405        -12.8643
5.68                    -1.22369        -15.1813
5.7                     -1.24327          -17.51
5.72                    -1.26278        -19.8499
5.74                    -1.28218        -22.2005
5.76                    -1.30147        -24.5612
5.78                    -1.32062        -26.9316
5.8                     -1.33963        -29.3111
5.82                    -1.35848         -31.699
5.84                    -1.37714        -34.0949
5.86                    -1.39562         -36.498
5.88                    -1.41389        -38.9079
5.9                     -1.43193        -41.3239
5.92                    -1.44975        -43.7455
5.94                    -1.46733         -46.172
5.96                    -1.48465        -48.6029
5.98                    -1.50171        -51.0377
6                       -1.51849        -53.4757
6.02                      -1.535        -55.9164
6.04                    -1.55121        -58.3594
6.06                    -1.56713         -60.804
6.08                    -1.58274          -63.25
6.1                     -1.59804        -65.6967
6.12                    -1.61303         -68.144
6.14                     -1.6277        -70.5913
6.16                    -1.64204        -73.0384
6.18                    -1.65606        -75.4851
6.2                     -1.66975        -77.9312
6.22                    -1.68312        -80.3765
6.24                    -1.69617         -82.821
6.26                    -1.70891        -85.2646
6.28                    -1.72136        -87.7075
6.3                     -1.73351        -90.1499
6.32                     -1.7454        -92.5919
6.34                    -1.75706        -95.0339
6.36                    -1.76851        -97.4763
6.38                    -1.77979        -99.9196
6.4                     -1.79097        -102.364
6.42                     -1.8021        -104.811
6.44                    -1.81325        -107.261
6.46                     -1.8245        -109.714
6.48                    -1.83596        -112.173
6.5                     -1.84774        -114.636
