! TOUCHSTONE file generated by CST MICROWAVE STUDIO
! Date and time: Sat Oct 29 07:40:27 2022
! Project name: L.cst
! Parameters = {Di=1.27; Epsilon_r=1.56; InnerDiameter=1.27; Length=2; Lf=10; Lg=60; OuterConductorThickness=0.2921; OuterDiameter=3.6; Wf=3; Wp=41.2; de=1.5; df=6.8; g=0.8; gx=2.86673; gy=1.58873; h=2.34; hf=1.524; px=9.12801; py=10.342; w=9.7; wx=6.26128; wy=8.75324}
! Header version: 2018
! Port assignment regex: !\s*Touchstone port\s*([0-9]+)\s*=\s*(CST MWS port|CST DS port)\s*([0-9]+|Zmin|Zmax)\s*\(\"(.*)\"\)(\s*mode\s*([0-9]+))?.*
! Touchstone port assignment:
! Touchstone port 1 = CST MWS port 1 ("")
# GHz S DB R 50
4.5                    -0.464344         79.2975
4.52                   -0.474853         77.6768
4.54                   -0.486583         76.0326
4.56                   -0.499555         74.3657
4.58                   -0.513755         72.6769
4.6                    -0.529144         70.9665
4.62                   -0.545661         69.2349
4.64                   -0.563227         67.4823
4.66                   -0.581757         65.7086
4.68                    -0.60116         63.9138
4.7                     -0.62134         62.0974
4.72                   -0.642209         60.2589
4.74                    -0.66368         58.3979
4.76                   -0.685675         56.5136
4.78                   -0.708124         54.6052
4.8                     -0.73097         52.6718
4.82                   -0.754163         50.7126
4.84                   -0.777666         48.7267
4.86                   -0.801452         46.7129
4.88                   -0.825506         44.6705
4.9                     -0.84982         42.5984
4.92                   -0.874396         40.4957
4.94                   -0.899243         38.3615
4.96                   -0.924374          36.195
4.98                   -0.949812         33.9955
5                      -0.975574         31.7621
5.02                    -1.00169         29.4942
5.04                    -1.02817         27.1913
5.06                    -1.05506         24.8528
5.08                    -1.08236         22.4783
5.1                     -1.11009         20.0674
5.12                    -1.13827         17.6199
5.14                     -1.1669         15.1356
5.16                    -1.19598         12.6144
5.18                    -1.22551         10.0562
5.2                     -1.25548          7.4612
5.22                    -1.28585         4.82943
5.24                    -1.31661         2.16119
5.26                    -1.34771       -0.543177
5.28                    -1.37912        -3.28338
5.3                     -1.41079        -6.05888
5.32                    -1.44264        -8.86908
5.34                    -1.47463        -11.7133
5.36                    -1.50669        -14.5909
5.38                    -1.53873        -17.5009
5.4                     -1.57068        -20.4424
5.42                    -1.60246        -23.4144
5.44                    -1.63399        -26.4157
5.46                    -1.66518        -29.4453
5.48                    -1.69595        -32.5017
5.5                     -1.72622        -35.5837
5.52                     -1.7559        -38.6896
5.54                    -1.78493         -41.818
5.56                    -1.81323        -44.9672
5.58                    -1.84073        -48.1356
5.6                     -1.86738        -51.3212
5.62                    -1.89313        -54.5223
5.64                    -1.91794         -57.737
5.66                    -1.94178        -60.9632
5.68                    -1.96461        -64.1989
5.7                     -1.98644        -67.4421
5.72                    -2.00726        -70.6908
5.74                    -2.02708        -73.9426
5.76                    -2.04592        -77.1956
5.78                     -2.0638        -80.4476
5.8                     -2.08077        -83.6965
5.82                    -2.09688        -86.9402
5.84                    -2.11216        -90.1767
5.86                     -2.1267        -93.4038
5.88                    -2.14054        -96.6196
5.9                     -2.15376        -99.8222
5.92                    -2.16642         -103.01
5.94                    -2.17861         -106.18
5.96                    -2.19038        -109.332
5.98                    -2.20181        -112.464
6                       -2.21296        -115.574
6.02                    -2.22389        -118.661
6.04                    -2.23464        -121.724
6.06                    -2.24527        -124.761
6.08                     -2.2558        -127.771
6.1                     -2.26627        -130.754
6.12                    -2.27669         -133.71
6.14                    -2.28708        -136.636
6.16                    -2.29743        -139.534
6.18                    -2.30774        -142.403
6.2                     -2.31801        -145.243
6.22                    -2.32821        -148.055
6.24                    -2.33834        -150.839
6.26                    -2.34839        -153.595
6.28                    -2.35837        -156.326
6.3                     -2.36828        -159.031
6.32                    -2.37817        -161.713
6.34                    -2.38808        -164.373
6.36                    -2.39811        -167.012
6.38                    -2.40838        -169.634
6.4                     -2.41906         -172.24
6.42                    -2.43037        -174.832
6.44                    -2.44257        -177.412
6.46                      -2.456        -179.984
6.48                    -2.47107         177.452
6.5                     -2.48824         174.894
