! TOUCHSTONE file generated by CST MICROWAVE STUDIO
! Date and time: Sat Oct 29 23:50:40 2022
! Project name: L.cst
! Parameters = {Di=1.27; Epsilon_r=1.56; InnerDiameter=1.27; Length=2; Lf=10; Lg=60; OuterConductorThickness=0.2921; OuterDiameter=3.6; Wf=3; Wp=41.2; de=1.5; df=6.8; g=0.8; gx=0.488056; gy=0.632428; h=2.34; hf=1.524; px=10.1473; py=10.1457; w=9.7; wx=9.65922; wy=9.51326}
! Header version: 2018
! Port assignment regex: !\s*Touchstone port\s*([0-9]+)\s*=\s*(CST MWS port|CST DS port)\s*([0-9]+|Zmin|Zmax)\s*\(\"(.*)\"\)(\s*mode\s*([0-9]+))?.*
! Touchstone port assignment:
! Touchstone port 1 = CST MWS port 1 ("")
# GHz S DB R 50
4.5                     -7.06406         46.3537
4.52                    -7.56767         45.3096
4.54                    -8.08985         44.4275
4.56                    -8.63397         43.7278
4.58                    -9.20337         43.2474
4.6                     -9.80044         43.0423
4.62                    -10.4255         43.1887
4.64                    -11.0752         43.7817
4.66                    -11.7408         44.9305
4.68                     -12.406         46.7471
4.7                      -13.045         49.3245
4.72                    -13.6222         52.7013
4.74                    -14.0956         56.8178
4.76                    -14.4246         61.4825
4.78                    -14.5826         66.3806
4.8                     -14.5669         71.1396
4.82                    -14.3992         75.4276
4.84                    -14.1171         79.0274
4.86                    -13.7619         81.8535
4.88                    -13.3694         83.9229
4.9                     -12.9662         85.3114
4.92                    -12.5696         86.1175
4.94                    -12.1898          86.439
4.96                    -11.8316         86.3616
4.98                    -11.4963         85.9545
5                       -11.1837           85.27
5.02                    -10.8922         84.3458
5.04                    -10.6204         83.2073
5.06                     -10.367         81.8708
5.08                    -10.1309         80.3463
5.1                     -9.91182         78.6398
5.12                    -9.70979         76.7555
5.14                    -9.52524         74.6973
5.16                    -9.35882         72.4697
5.18                    -9.21121         70.0781
5.2                     -9.08298         67.5287
5.22                    -8.97446         64.8286
5.24                    -8.88564         61.9846
5.26                    -8.81613         59.0026
5.28                    -8.76507          55.887
5.3                     -8.73122         52.6392
5.32                    -8.71293         49.2573
5.34                    -8.70826         45.7351
5.36                    -8.71506         42.0615
5.38                    -8.73108         38.2203
5.4                     -8.75406         34.1897
5.42                    -8.78188         29.9431
5.44                    -8.81255         25.4496
5.46                    -8.84431         20.6747
5.48                    -8.87548         15.5818
5.5                     -8.90445         10.1338
5.52                     -8.9294         4.29461
5.54                    -8.94814        -1.96869
5.56                    -8.95784        -8.68371
5.58                    -8.95486        -15.8702
5.6                     -8.93467        -23.5375
5.62                    -8.89189        -31.6812
5.64                    -8.82067        -40.2809
5.66                    -8.71518        -49.2984
5.68                    -8.57044        -58.6771
5.7                     -8.38316        -68.3451
5.72                    -8.15251         -78.219
5.74                    -7.88056        -88.2114
5.76                    -7.57227        -98.2375
5.78                    -7.23509        -108.223
5.8                      -6.8782        -118.107
5.82                    -6.51166        -127.845
5.84                    -6.14558        -137.407
5.86                    -5.78956        -146.776
5.88                    -5.45232        -155.948
5.9                     -5.14149        -164.922
5.92                    -4.86364        -173.704
5.94                    -4.62433         177.699
5.96                    -4.42825          169.28
5.98                    -4.27941         161.032
6                       -4.18125         152.951
6.02                    -4.13679         145.034
6.04                    -4.14877         137.282
6.06                    -4.21974         129.701
6.08                     -4.3521         122.299
6.1                      -4.5482         115.092
6.12                    -4.81028           108.1
6.14                    -5.14046         101.352
6.16                    -5.54058         94.8854
6.18                     -6.0119         88.7499
6.2                     -6.55467         83.0091
6.22                    -7.16723          77.743
6.24                     -7.8448         73.0505
6.26                    -8.57744         69.0479
6.28                     -9.3474         65.8611
6.3                     -10.1259         63.6055
6.32                    -10.8709         62.3443
6.34                    -11.5291         62.0255
6.36                    -12.0454         62.4193
6.38                     -12.381         63.1063
6.4                     -12.5301         63.5629
6.42                    -12.5237         63.3123
6.44                    -12.4162         62.0431
6.46                    -12.2659         59.6311
6.48                    -12.1222         56.0873
6.5                     -12.0207         51.4899
