! TOUCHSTONE file generated by CST MICROWAVE STUDIO
! Date and time: Sun Oct 30 00:55:41 2022
! Project name: L.cst
! Parameters = {Di=1.27; Epsilon_r=1.56; InnerDiameter=1.27; Length=2; Lf=10; Lg=60; OuterConductorThickness=0.2921; OuterDiameter=3.6; Wf=3; Wp=41.2; de=1.5; df=6.8; g=0.8; gx=0.836091; gy=3.23096; h=2.34; hf=1.524; px=8.86308; py=12.0552; w=9.7; wx=8.02699; wy=8.82421}
! Header version: 2018
! Port assignment regex: !\s*Touchstone port\s*([0-9]+)\s*=\s*(CST MWS port|CST DS port)\s*([0-9]+|Zmin|Zmax)\s*\(\"(.*)\"\)(\s*mode\s*([0-9]+))?.*
! Touchstone port assignment:
! Touchstone port 1 = CST MWS port 1 ("")
# GHz S DB R 50
4.5                    -0.652066          86.132
4.52                   -0.676533         84.6316
4.54                   -0.702212         83.1197
4.56                   -0.729062         81.5964
4.58                   -0.757041         80.0615
4.6                    -0.786111         78.5151
4.62                   -0.816238         76.9569
4.64                   -0.847393         75.3865
4.66                   -0.879557         73.8038
4.68                   -0.912719         72.2083
4.7                    -0.946877         70.5995
4.72                   -0.982039         68.9771
4.74                    -1.01822         67.3406
4.76                    -1.05545         65.6895
4.78                    -1.09377         64.0234
4.8                     -1.13321         62.3419
4.82                    -1.17383         60.6446
4.84                    -1.21569         58.9311
4.86                    -1.25884          57.201
4.88                    -1.30336         55.4542
4.9                     -1.34931         53.6904
4.92                    -1.39678         51.9093
4.94                    -1.44583         50.1108
4.96                    -1.49655         48.2949
4.98                    -1.54901         46.4614
5                       -1.60329         44.6104
5.02                    -1.65946         42.7419
5.04                    -1.71759          40.856
5.06                    -1.77777         38.9528
5.08                    -1.84006         37.0325
5.1                     -1.90452         35.0953
5.12                    -1.97122         33.1414
5.14                    -2.04022         31.1713
5.16                    -2.11157          29.185
5.18                    -2.18532         27.1831
5.2                     -2.26152         25.1659
5.22                    -2.34022         23.1339
5.24                    -2.42145         21.0875
5.26                    -2.50524         19.0272
5.28                    -2.59162         16.9534
5.3                     -2.68062         14.8669
5.32                    -2.77226          12.768
5.34                    -2.86655         10.6576
5.36                     -2.9635         8.53616
5.38                    -3.06312         6.40442
5.4                      -3.1654         4.26311
5.42                    -3.27034         2.11298
5.44                    -3.37793      -0.0451898
5.46                    -3.48814        -2.21055
5.48                    -3.60097        -4.38223
5.5                     -3.71636        -6.55932
5.52                     -3.8343        -8.74084
5.54                    -3.95473        -10.9258
5.56                    -4.07761        -13.1131
5.58                    -4.20287        -15.3017
5.6                     -4.33043        -17.4905
5.62                    -4.46023        -19.6781
5.64                    -4.59217        -21.8634
5.66                    -4.72615         -24.045
5.68                    -4.86205        -26.2216
5.7                     -4.99974        -28.3918
5.72                    -5.13907        -30.5541
5.74                    -5.27988        -32.7071
5.76                    -5.42199        -34.8492
5.78                    -5.56519        -36.9789
5.8                     -5.70927        -39.0947
5.82                    -5.85397         -41.195
5.84                    -5.99902        -43.2782
5.86                    -6.14411         -45.343
5.88                    -6.28892        -47.3877
5.9                     -6.43309        -49.4112
5.92                    -6.57622        -51.4121
5.94                    -6.71789        -53.3894
5.96                    -6.85766        -55.3421
5.98                    -6.99502        -57.2696
6                       -7.12947        -59.1716
6.02                    -7.26047        -61.0479
6.04                    -7.38746        -62.8988
6.06                    -7.50985        -64.7252
6.08                    -7.62704        -66.5283
6.1                     -7.73846        -68.3098
6.12                    -7.84351         -70.072
6.14                    -7.94164        -71.8179
6.16                     -8.0323        -73.5511
6.18                    -8.11502        -75.2757
6.2                     -8.18938        -76.9965
6.22                    -8.25504         -78.719
6.24                    -8.31175        -80.4492
6.26                    -8.35936        -82.1934
6.28                    -8.39785        -83.9588
6.3                     -8.42733        -85.7525
6.32                    -8.44804         -87.582
6.34                    -8.46037         -89.455
6.36                    -8.46484        -91.3792
6.38                    -8.46211        -93.3622
6.4                       -8.453        -95.4115
6.42                    -8.43842        -97.5345
6.44                    -8.41946        -99.7381
6.46                    -8.39726        -102.029
6.48                    -8.37311        -104.414
6.5                     -8.34839        -106.899
