! TOUCHSTONE file generated by CST MICROWAVE STUDIO
! Date and time: Thu Oct 27 00:28:14 2022
! Project name: L.cst
! Parameters = {Di=1.27; Epsilon_r=1.56; InnerDiameter=1.27; Length=2; Lf=10; Lg=60; OuterConductorThickness=0.2921; OuterDiameter=3.6; Wf=3; Wp=41.2; de=1.5; df=6.8; g=0.8; gx=4.09019; gy=0.767153; h=2.34; hf=1.524; px=11.9262; py=14.4367; w=9.7; wx=7.836; wy=13.6696}
! Header version: 2018
! Port assignment regex: !\s*Touchstone port\s*([0-9]+)\s*=\s*(CST MWS port|CST DS port)\s*([0-9]+|Zmin|Zmax)\s*\(\"(.*)\"\)(\s*mode\s*([0-9]+))?.*
! Touchstone port assignment:
! Touchstone port 1 = CST MWS port 1 ("")
# GHz S DB R 50
4.5                     -1.21356         60.0964
4.52                    -1.22572         56.6847
4.54                    -1.25167         53.7378
4.56                    -1.30211         49.7804
4.58                    -1.31097         45.9899
4.6                      -1.4043         41.2867
4.62                    -1.44499         36.2345
4.64                    -1.61516         30.3651
4.66                    -1.78067         23.5468
4.68                    -2.14158         15.8993
4.7                     -2.63187         6.82317
4.72                    -3.46552        -2.90972
4.74                    -4.67033        -13.7845
4.76                    -6.42464        -23.8548
4.78                    -8.74912        -33.0699
4.8                     -11.5861        -38.1193
4.82                    -14.8391        -39.2513
4.84                    -17.7952        -33.5222
4.86                     -20.438        -25.0886
4.88                     -22.134        -19.9434
4.9                     -24.5983        -19.6289
4.92                    -28.3341        -36.7039
4.94                    -33.3649        -96.6682
4.96                    -26.0071        -159.657
4.98                    -20.5417         179.947
5                       -16.4913         167.745
5.02                    -13.7614         157.046
5.04                    -11.5434         146.448
5.06                      -10.02         135.856
5.08                    -8.93053         124.297
5.1                     -8.57567         112.486
5.12                    -9.22111         100.125
5.14                    -12.0665          95.245
5.16                    -14.3134         133.426
5.18                    -7.90119          148.35
5.2                     -4.39097         134.017
5.22                    -2.72287         118.932
5.24                    -1.91709         106.061
5.26                    -1.41136         94.9375
5.28                    -1.14908         85.1941
5.3                    -0.946928         76.0195
5.32                    -0.86376         67.6743
5.34                    -0.80316         59.2018
5.36                   -0.808315         51.3258
5.38                   -0.856724         42.8107
5.4                    -0.926442         34.6591
5.42                    -1.11186         25.3241
5.44                    -1.28984         15.7688
5.46                     -1.8246         4.00068
5.48                    -2.67798         -10.137
5.5                     -6.65875        -21.1572
5.52                    -6.02041         10.3949
5.54                    -2.74467        -9.22689
5.56                     -2.6632        -32.0055
5.58                    -2.82918         -56.486
5.6                     -3.43346        -86.5745
5.62                    -3.76298        -126.168
5.64                    -3.70471        -175.775
5.66                    -2.92072         133.582
5.68                    -2.24179         89.3018
5.7                     -1.98359         54.1653
5.72                    -2.02626         24.1643
5.74                    -2.31872         -2.7224
5.76                    -2.66628        -30.3006
5.78                    -3.11448        -60.2611
5.8                       -3.344        -95.8354
5.82                     -3.2993        -137.953
5.84                    -2.62735          174.47
5.86                     -1.8945         123.288
5.88                    -1.53398         69.0929
5.9                     -1.92785         2.04738
5.92                    -2.46389        -84.7924
5.94                    -1.44518          -166.3
5.96                   -0.789638          141.14
5.98                   -0.488426         108.563
6                      -0.523381         85.3797
6.02                   -0.572143          68.323
6.04                   -0.743713         54.2274
6.06                   -0.852423         42.7073
6.08                    -1.05098         32.5119
6.1                     -1.16579         23.5792
6.12                    -1.36441          15.502
6.14                    -1.47653         7.98056
6.16                    -1.66194         1.23591
6.18                    -1.77547         -5.4301
6.2                     -1.93666        -11.2641
6.22                    -2.05923         -17.346
6.24                    -2.18719        -22.5497
6.26                      -2.325        -28.1575
6.28                    -2.41517        -32.9568
6.3                     -2.56921        -38.1047
6.32                    -2.62459        -42.6931
6.34                    -2.78713        -47.3526
6.36                    -2.82067        -51.8814
6.38                    -2.97445         -56.033
6.4                     -3.00801        -60.5834
6.42                    -3.12945        -64.2643
6.44                    -3.18847        -68.8163
6.46                    -3.25507        -72.1565
6.48                    -3.35955        -76.5733
6.5                     -3.35952        -79.7986
