! TOUCHSTONE file generated by CST MICROWAVE STUDIO
! Date and time: Fri Oct 28 15:49:23 2022
! Project name: L.cst
! Parameters = {Di=1.27; Epsilon_r=1.56; InnerDiameter=1.27; Length=2; Lf=10; Lg=60; OuterConductorThickness=0.2921; OuterDiameter=3.6; Wf=3; Wp=41.2; de=1.5; df=6.8; g=0.8; gx=2.23182; gy=4.39983; h=2.34; hf=1.524; px=13.1719; py=8.85772; w=9.7; wx=10.9401; wy=4.45789}
! Header version: 2018
! Port assignment regex: !\s*Touchstone port\s*([0-9]+)\s*=\s*(CST MWS port|CST DS port)\s*([0-9]+|Zmin|Zmax)\s*\(\"(.*)\"\)(\s*mode\s*([0-9]+))?.*
! Touchstone port assignment:
! Touchstone port 1 = CST MWS port 1 ("")
# GHz S DB R 50
4.5                    -0.739038         89.6335
4.52                   -0.768636         87.9452
4.54                   -0.802636          86.236
4.56                   -0.840714         84.5154
4.58                   -0.881929         82.7899
4.6                    -0.925061         81.0615
4.62                   -0.968983         79.3275
4.64                    -1.01295         77.5823
4.66                    -1.05676         75.8186
4.68                    -1.10077         74.0295
4.7                     -1.14575         72.2104
4.72                    -1.19265         70.3594
4.74                    -1.24237         68.4777
4.76                    -1.29557         66.5687
4.78                    -1.35253         64.6368
4.8                     -1.41318         62.6863
4.82                    -1.47715         60.7199
4.84                    -1.54396         58.7385
4.86                    -1.61314         56.7409
4.88                    -1.68441         54.7241
4.9                     -1.75775         52.6846
4.92                    -1.83346         50.6187
4.94                    -1.91202          48.524
4.96                    -1.99407         46.3997
4.98                    -2.08022         44.2465
5                       -2.17095         42.0667
5.02                    -2.26656         39.8633
5.04                     -2.3671         37.6394
5.06                    -2.47243         35.3973
5.08                    -2.58232         33.1382
5.1                     -2.69653         30.8621
5.12                    -2.81491         28.5675
5.14                    -2.93751         26.2525
5.16                    -3.06455         23.9153
5.18                    -3.19646         21.5546
5.2                     -3.33379         19.1703
5.22                    -3.47708         16.7638
5.24                    -3.62681         14.3378
5.26                    -3.78327          11.896
5.28                    -3.94656         9.44239
5.3                     -4.11659          6.9805
5.32                     -4.2931         4.51307
5.34                    -4.47579         2.04157
5.36                     -4.6644       -0.433754
5.38                    -4.85883        -2.91355
5.4                     -5.05916        -5.39869
5.42                    -5.26569        -7.88952
5.44                    -5.47888        -10.3851
5.46                    -5.69922        -12.8829
5.48                    -5.92712        -15.3785
5.5                     -6.16276        -17.8658
5.52                    -6.40602        -20.3384
5.54                    -6.65643        -22.7897
5.56                    -6.91318        -25.2146
5.58                    -7.17531        -27.6102
5.6                     -7.44177         -29.976
5.62                    -7.71171        -32.3141
5.64                    -7.98456        -34.6279
5.66                    -8.26014        -36.9212
5.68                    -8.53859        -39.1969
5.7                     -8.82022        -41.4557
5.72                     -9.1053        -43.6958
5.74                    -9.39372        -45.9138
5.76                    -9.68489        -48.1063
5.78                    -9.97766        -50.2728
5.8                     -10.2705        -52.4182
5.82                    -10.5622        -54.5554
5.84                    -10.8521         -56.706
5.86                    -11.1417        -58.8978
5.88                    -11.4345        -61.1608
5.9                     -11.7371        -63.5194
5.92                    -12.0586        -65.9844
5.94                    -12.4106        -68.5448
5.96                    -12.8056        -71.1602
5.98                    -13.2562        -73.7548
6                       -13.7734        -76.2129
6.02                    -14.3645        -78.3737
6.04                      -15.03         -80.029
6.06                    -15.7589        -80.9247
6.08                    -16.5229        -80.7803
6.1                      -17.268        -79.3441
6.12                    -17.9119        -76.5071
6.14                    -18.3559        -72.4586
6.16                    -18.5195        -67.7666
6.18                    -18.3808        -63.2259
6.2                     -17.9833        -59.5291
6.22                    -17.4019        -57.0462
6.24                    -16.7043        -55.8574
6.26                    -15.9351        -55.9091
6.28                    -15.1187        -57.1413
6.3                     -14.2706        -59.5391
6.32                    -13.4048        -63.1291
6.34                    -12.5381        -67.9511
6.36                    -11.6895         -74.034
6.38                    -10.8777        -81.3827
6.4                     -10.1188        -89.9795
6.42                    -9.42425        -99.7912
6.44                    -8.80054        -110.777
6.46                    -8.24872        -122.891
6.48                    -7.76479        -136.087
6.5                     -7.34033        -150.306
