! TOUCHSTONE file generated by CST MICROWAVE STUDIO
! Date and time: Sat Oct 29 17:03:48 2022
! Project name: L.cst
! Parameters = {Di=1.27; Epsilon_r=1.56; InnerDiameter=1.27; Length=2; Lf=10; Lg=60; OuterConductorThickness=0.2921; OuterDiameter=3.6; Wf=3; Wp=41.2; de=1.5; df=6.8; g=0.8; gx=0.829162; gy=1.8052; h=2.34; hf=1.524; px=12.1976; py=13.0557; w=9.7; wx=11.3685; wy=11.2505}
! Header version: 2018
! Port assignment regex: !\s*Touchstone port\s*([0-9]+)\s*=\s*(CST MWS port|CST DS port)\s*([0-9]+|Zmin|Zmax)\s*\(\"(.*)\"\)(\s*mode\s*([0-9]+))?.*
! Touchstone port assignment:
! Touchstone port 1 = CST MWS port 1 ("")
# GHz S DB R 50
4.5                     -7.17909         61.4538
4.52                    -7.54561         61.6206
4.54                    -7.91755         61.6421
4.56                    -8.32635         62.1028
4.58                    -8.67126         63.1043
4.6                     -8.94931         64.0094
4.62                    -9.23975         64.9457
4.64                     -9.4937         66.3551
4.66                    -9.64776         67.7897
4.68                    -9.76998         68.9064
4.7                     -9.88484          70.125
4.72                    -9.92309         71.4145
4.74                    -9.90346         72.2751
4.76                    -9.89212         72.8506
4.78                    -9.85823         73.4342
4.8                     -9.77291          73.712
4.82                    -9.69204         73.5241
4.84                    -9.63301         73.1984
4.86                    -9.55344         72.7417
4.88                     -9.4673         71.8689
4.9                     -9.41794         70.6991
4.92                     -9.3862         69.4571
4.94                    -9.34909         67.9657
4.96                    -9.34087         66.0964
4.98                    -9.37846         64.0631
5                       -9.43272         61.9081
5.02                    -9.50713          59.407
5.04                    -9.63862         56.5764
5.06                    -9.82426          53.593
5.08                    -10.0448         50.3372
5.1                     -10.3288         46.6062
5.12                    -10.7125         42.4892
5.14                    -11.1903         38.0391
5.16                    -11.7723         32.9702
5.18                    -12.5251         27.0363
5.2                     -13.5132         20.1985
5.22                    -14.7798         12.0678
5.24                    -16.4342         1.48679
5.26                    -18.6769        -13.6843
5.28                     -21.531        -38.4663
5.3                      -23.409        -81.3645
5.32                    -21.3135        -126.853
5.34                    -17.8327        -154.844
5.36                    -14.9608        -172.859
5.38                    -12.7748         173.473
5.4                     -11.1027         161.901
5.42                    -9.84018         151.401
5.44                    -8.94159          141.69
5.46                    -8.35667         132.871
5.48                    -8.02621         125.033
5.5                     -7.91632         118.254
5.52                    -7.99607         112.894
5.54                    -8.16653         109.427
5.56                    -8.26668         107.803
5.58                    -8.17833         107.292
5.6                     -7.86971         107.015
5.62                    -7.36736         106.154
5.64                     -6.7683         104.113
5.66                    -6.19295         100.947
5.68                    -5.68783         97.1114
5.7                     -5.24174         92.8226
5.72                    -4.86525         88.0924
5.74                    -4.57771         83.1353
5.76                     -4.3536         78.1888
5.78                    -4.16106         73.1546
5.8                     -4.01763         67.9003
5.82                    -3.93845         62.6112
5.84                     -3.8871          57.398
5.86                    -3.84532         51.9965
5.88                    -3.85426         46.3037
5.9                     -3.92169         40.6118
5.92                    -3.99308         34.9118
5.94                    -4.07329         28.7513
5.96                    -4.23857         22.1597
5.98                    -4.47688         15.6544
6                       -4.70048         9.01841
6.02                    -4.97438         1.52924
6.04                    -5.45989        -6.05776
6.06                    -5.99295        -11.7364
6.08                     -6.0179        -16.3503
6.1                     -5.47498        -24.8002
6.12                    -5.00963        -39.0657
6.14                    -5.03889        -56.8567
6.16                     -5.4821        -75.3294
6.18                    -5.92771        -93.2522
6.2                     -5.96369        -111.975
6.22                    -5.57115        -133.857
6.24                    -5.07275        -159.481
6.26                    -4.83742         172.507
6.28                    -5.17928         144.349
6.3                     -6.32312         119.128
6.32                    -8.13906         101.495
6.34                    -9.41752         93.9326
6.36                     -9.1529         84.3687
6.38                    -9.10158         62.0173
6.4                     -10.9917         26.2979
6.42                    -15.0856        -38.3366
6.44                    -12.4235        -130.735
6.46                    -7.32354         -179.16
6.48                    -4.41038         149.726
6.5                     -2.86377         125.894
