! TOUCHSTONE file generated by CST MICROWAVE STUDIO
! Date and time: Fri Oct 28 21:20:06 2022
! Project name: L.cst
! Parameters = {Di=1.27; Epsilon_r=1.56; InnerDiameter=1.27; Length=2; Lf=10; Lg=60; OuterConductorThickness=0.2921; OuterDiameter=3.6; Wf=3; Wp=41.2; de=1.5; df=6.8; g=0.8; gx=0.517628; gy=4.29326; h=2.34; hf=1.524; px=13.2394; py=12.2329; w=9.7; wx=12.7218; wy=7.93967}
! Header version: 2018
! Port assignment regex: !\s*Touchstone port\s*([0-9]+)\s*=\s*(CST MWS port|CST DS port)\s*([0-9]+|Zmin|Zmax)\s*\(\"(.*)\"\)(\s*mode\s*([0-9]+))?.*
! Touchstone port assignment:
! Touchstone port 1 = CST MWS port 1 ("")
# GHz S DB R 50
4.5                     -3.80088         103.635
4.52                    -3.71596          102.71
4.54                    -3.63447         101.695
4.56                    -3.54541         100.529
4.58                    -3.45875         99.1114
4.6                     -3.39271         97.4702
4.62                    -3.34836         95.6977
4.64                    -3.31585          93.783
4.66                    -3.29831         91.6339
4.68                     -3.3114         89.2056
4.7                     -3.36915         86.5145
4.72                    -3.47843          83.559
4.74                    -3.65198         80.2362
4.76                    -3.92926         76.4018
4.78                    -4.38019         71.9671
4.8                     -5.12243         66.8977
4.82                    -6.39281         61.3775
4.84                    -8.73366         56.9025
4.86                    -13.3343         63.7313
4.88                    -15.0867         121.098
4.9                     -8.64654         139.125
4.92                    -5.08495         131.342
4.94                    -3.32597         121.135
4.96                    -2.43248         112.165
4.98                    -1.96005         104.714
5                        -1.7017         98.4395
5.02                    -1.56322         92.9721
5.04                    -1.50165         88.0589
5.06                     -1.4931         83.5295
5.08                    -1.52486         79.2431
5.1                     -1.59309         75.0802
5.12                     -1.7029         70.9437
5.14                    -1.86519         66.7874
5.16                    -2.09099         62.5855
5.18                    -2.39851          58.305
5.2                     -2.81936         53.9533
5.22                     -3.4004         49.6404
5.24                    -4.20321         45.6823
5.26                    -5.29492         42.7597
5.28                    -6.71902         42.2093
5.3                     -8.36735         46.4522
5.32                    -9.62005         57.9054
5.34                    -9.46987         72.8647
5.36                    -8.12004         82.7037
5.38                    -6.57997         85.8568
5.4                     -5.30074          85.036
5.42                    -4.32472         82.3534
5.44                    -3.59162         78.8679
5.46                    -3.04076         75.0694
5.48                    -2.62486         71.1961
5.5                     -2.30791          67.361
5.52                    -2.06114         63.6019
5.54                    -1.86471         59.8919
5.56                    -1.70975         56.1966
5.58                    -1.58999         52.5067
5.6                     -1.49752         48.8039
5.62                    -1.42528          45.038
5.64                     -1.3712         41.1293
5.66                    -1.33896         37.0014
5.68                    -1.33151         32.5838
5.7                     -1.34916         27.7477
5.72                     -1.3981         22.2517
5.74                    -1.49846         15.7128
5.76                    -1.69085         7.50002
5.78                    -2.05692         -3.6059
5.8                     -2.79583         -20.359
5.82                    -4.44023        -50.0202
5.84                    -7.35449        -114.488
5.86                     -5.4793          152.18
5.88                    -2.57453         101.736
5.9                     -1.46419         75.4823
5.92                    -1.10769         59.0862
5.94                    -1.22999         46.8598
5.96                     -2.3703         40.0351
5.98                    -1.81897         46.4689
6                      -0.854881         39.9191
6.02                   -0.591824         33.7098
6.04                   -0.493819         28.7234
6.06                   -0.436509         24.4893
6.08                   -0.388597         20.6425
6.1                    -0.357745         17.0004
6.12                   -0.350729         13.5992
6.14                   -0.347403         10.4965
6.16                   -0.321924         7.54454
6.18                   -0.286375         4.49566
6.2                    -0.281657         1.36617
6.22                   -0.310617        -1.54021
6.24                   -0.313059        -4.14255
6.26                   -0.249461        -6.96177
6.28                   -0.197127        -10.6152
6.3                    -0.298041        -15.0345
6.32                   -0.643262        -20.1979
6.34                    -7.04696        -22.5519
6.36                   -0.624288          -11.59
6.38                   -0.341226        -15.8042
6.4                    -0.126123        -19.8394
6.42                   -0.119317         -23.868
6.44                   -0.237701        -26.8058
6.46                   -0.277592        -28.7384
6.48                   -0.186327        -30.8959
6.5                    -0.114373        -33.8414
