! TOUCHSTONE file generated by CST MICROWAVE STUDIO
! Date and time: Thu Oct 27 07:43:35 2022
! Project name: L.cst
! Parameters = {Di=1.27; Epsilon_r=1.56; InnerDiameter=1.27; Length=2; Lf=10; Lg=60; OuterConductorThickness=0.2921; OuterDiameter=3.6; Wf=3; Wp=41.2; de=1.5; df=6.8; g=0.8; gx=4.76714; gy=2.64946; h=2.34; hf=1.524; px=11.6019; py=8.3504; w=9.7; wx=6.83479; wy=5.70094}
! Header version: 2018
! Port assignment regex: !\s*Touchstone port\s*([0-9]+)\s*=\s*(CST MWS port|CST DS port)\s*([0-9]+|Zmin|Zmax)\s*\(\"(.*)\"\)(\s*mode\s*([0-9]+))?.*
! Touchstone port assignment:
! Touchstone port 1 = CST MWS port 1 ("")
# GHz S DB R 50
4.5                    -0.385726         92.6778
4.52                   -0.396503         91.1677
4.54                   -0.407918         89.6409
4.56                   -0.419978         88.0976
4.58                   -0.432676         86.5377
4.6                    -0.445995         84.9615
4.62                   -0.459913         83.3688
4.64                     -0.4744         81.7597
4.66                   -0.489426         80.1338
4.68                   -0.504957         78.4911
4.7                     -0.52096         76.8313
4.72                   -0.537407          75.154
4.74                   -0.554268         73.4589
4.76                   -0.571519         71.7458
4.78                   -0.589139          70.014
4.8                    -0.607113         68.2632
4.82                   -0.625429          66.493
4.84                   -0.644079          64.703
4.86                    -0.66306         62.8928
4.88                   -0.682373         61.0619
4.9                    -0.702021         59.2099
4.92                    -0.72201         57.3366
4.94                   -0.742349         55.4415
4.96                    -0.76305         53.5245
4.98                    -0.78412         51.5852
5                      -0.805574         49.6234
5.02                   -0.827422          47.639
5.04                   -0.849675         45.6318
5.06                   -0.872342         43.6017
5.08                   -0.895428         41.5488
5.1                     -0.91894         39.4729
5.12                   -0.942879         37.3742
5.14                   -0.967245         35.2528
5.16                   -0.992034         33.1088
5.18                    -1.01724         30.9425
5.2                     -1.04284         28.7539
5.22                    -1.06883         26.5436
5.24                    -1.09519         24.3117
5.26                     -1.1219         22.0588
5.28                    -1.14892         19.7851
5.3                     -1.17624         17.4911
5.32                    -1.20381         15.1775
5.34                     -1.2316         12.8447
5.36                    -1.25957         10.4934
5.38                    -1.28768         8.12428
5.4                     -1.31588         5.73796
5.42                    -1.34413          3.3352
5.44                    -1.37237        0.916819
5.46                    -1.40057        -1.51637
5.48                    -1.42866        -3.96349
5.5                      -1.4566        -6.42362
5.52                    -1.48435        -8.89581
5.54                    -1.51183        -11.3791
5.56                    -1.53902        -13.8724
5.58                    -1.56586        -16.3746
5.6                      -1.5923        -18.8847
5.62                    -1.61829        -21.4015
5.64                     -1.6438        -23.9239
5.66                    -1.66878        -26.4506
5.68                    -1.69319        -28.9805
5.7                       -1.717        -31.5123
5.72                    -1.74017        -34.0448
5.74                    -1.76267        -36.5767
5.76                    -1.78447        -39.1065
5.78                    -1.80556        -41.6334
5.8                     -1.82589        -44.1558
5.82                    -1.84547        -46.6725
5.84                    -1.86426        -49.1822
5.86                    -1.88225        -51.6837
5.88                    -1.89943        -54.1757
5.9                     -1.91578        -56.6572
5.92                     -1.9313        -59.1268
5.94                    -1.94598        -61.5834
5.96                     -1.9598         -64.026
5.98                    -1.97276        -66.4535
6                       -1.98486         -68.865
6.02                    -1.99608        -71.2594
6.04                    -2.00642         -73.636
6.06                    -2.01587        -75.9938
6.08                    -2.02443        -78.3323
6.1                     -2.03209        -80.6507
6.12                    -2.03885        -82.9484
6.14                     -2.0447         -85.225
6.16                    -2.04965        -87.4801
6.18                    -2.05368        -89.7133
6.2                      -2.0568        -91.9245
6.22                    -2.05902        -94.1134
6.24                    -2.06036          -96.28
6.26                    -2.06081        -98.4243
6.28                    -2.06042        -100.546
6.3                      -2.0592        -102.647
6.32                     -2.0572        -104.725
6.34                    -2.05446        -106.782
6.36                    -2.05104        -108.818
6.38                      -2.047        -110.833
6.4                     -2.04243        -112.827
6.42                    -2.03741        -114.801
6.44                    -2.03204        -116.756
6.46                    -2.02644        -118.691
6.48                    -2.02072        -120.606
6.5                       -2.015        -122.503
