! TOUCHSTONE file generated by CST MICROWAVE STUDIO
! Date and time: Thu Oct 27 06:08:34 2022
! Project name: L.cst
! Parameters = {Di=1.27; Epsilon_r=1.56; InnerDiameter=1.27; Length=2; Lf=10; Lg=60; OuterConductorThickness=0.2921; OuterDiameter=3.6; Wf=3; Wp=41.2; de=1.5; df=6.8; g=0.8; gx=0.76018; gy=0.826626; h=2.34; hf=1.524; px=12.902; py=8.30423; w=9.7; wx=12.1418; wy=7.47761}
! Header version: 2018
! Port assignment regex: !\s*Touchstone port\s*([0-9]+)\s*=\s*(CST MWS port|CST DS port)\s*([0-9]+|Zmin|Zmax)\s*\(\"(.*)\"\)(\s*mode\s*([0-9]+))?.*
! Touchstone port assignment:
! Touchstone port 1 = CST MWS port 1 ("")
# GHz S DB R 50
4.5                     -9.61211         129.744
4.52                    -9.11455         128.623
4.54                    -8.67607         127.258
4.56                    -8.28914         125.709
4.58                    -7.94742         124.014
4.6                     -7.64634         122.203
4.62                    -7.38158         120.299
4.64                    -7.14877         118.318
4.66                    -6.94471         116.268
4.68                    -6.76722         114.155
4.7                     -6.61373         111.986
4.72                    -6.48179          109.76
4.74                    -6.37015         107.473
4.76                    -6.27781         105.125
4.78                    -6.20313         102.713
4.8                     -6.14515         100.225
4.82                    -6.10402         97.6523
4.84                    -6.07946         94.9874
4.86                    -6.07095         92.2158
4.88                    -6.07935         89.3177
4.9                     -6.10622         86.2786
4.92                     -6.1523         83.0822
4.94                    -6.21886         79.7013
4.96                    -6.30886         76.1074
4.98                    -6.42511         72.2758
5                       -6.56978         68.1701
5.02                    -6.74661         63.7404
5.04                     -6.9607          58.934
5.06                    -7.21636         53.6893
5.08                      -7.518         47.9157
5.1                     -7.87206         41.4982
5.12                    -8.28447         34.3019
5.14                    -8.75718         26.1478
5.16                    -9.28792         16.7901
5.18                    -9.86598         5.93229
5.2                     -10.4591        -6.74639
5.22                    -10.9997        -21.5368
5.24                    -11.3821        -38.5182
5.26                    -11.4866        -57.2562
5.28                    -11.2391        -76.7048
5.3                     -10.6718        -95.6151
5.32                    -9.91112        -113.125
5.34                    -9.10582        -128.925
5.36                     -8.3689        -143.049
5.38                    -7.76796        -155.672
5.4                      -7.3454        -166.968
5.42                     -7.1353        -176.983
5.44                    -7.16297         174.462
5.46                    -7.44112         167.822
5.48                    -7.94774         164.073
5.5                     -8.48256         164.892
5.52                    -8.42589         170.677
5.54                    -7.24011         176.372
5.56                    -5.45737         176.342
5.58                    -3.86109         171.043
5.6                     -2.72591         163.286
5.62                    -2.00333         155.109
5.64                    -1.55823         147.402
5.66                    -1.28493         140.339
5.68                    -1.12531         133.898
5.7                     -1.03771         128.045
5.72                   -0.989546         122.663
5.74                   -0.969984         117.616
5.76                   -0.976107         112.866
5.78                   -0.995191         108.383
5.8                     -1.02021         104.061
5.82                    -1.05874         99.8455
5.84                    -1.10924         95.7688
5.86                    -1.16008         91.7773
5.88                    -1.21834         87.7623
5.9                     -1.29753         83.7643
5.92                    -1.38554          79.826
5.94                     -1.4824         75.7724
5.96                    -1.64032         71.6117
5.98                    -1.87564         67.9366
6                       -2.06474         65.1975
6.02                    -2.06267         62.5969
6.04                    -1.93316          58.812
6.06                    -1.86792         53.7143
6.08                    -1.93988         48.1544
6.1                     -2.08255         42.6279
6.12                     -2.2388         36.9038
6.14                    -2.42378         30.6974
6.16                    -2.65364         23.9845
6.18                    -2.91768         16.6305
6.2                     -3.22585         8.29862
6.22                    -3.60934        -1.28648
6.24                     -4.0792        -12.4187
6.26                    -4.63339        -25.7027
6.28                    -5.27684          -42.01
6.3                     -5.97084        -62.2482
6.32                    -6.54483        -87.1103
6.34                    -6.69765         -116.17
6.36                    -6.23351        -146.792
6.38                    -5.32659        -175.452
6.4                     -4.33312         159.736
6.42                    -3.47449         138.858
6.44                    -2.81259         121.226
6.46                    -2.34695         106.112
6.48                    -2.04841         93.0579
6.5                     -1.85727         81.6822
