! TOUCHSTONE file generated by CST MICROWAVE STUDIO
! Date and time: Wed Oct 26 21:34:33 2022
! Project name: L.cst
! Parameters = {Di=1.27; Epsilon_r=1.56; InnerDiameter=1.27; Length=2; Lf=10; Lg=60; OuterConductorThickness=0.2921; OuterDiameter=3.6; Wf=3; Wp=41.2; de=1.5; df=6.8; g=0.8; gx=3.47264; gy=4.94019; h=2.34; hf=1.524; px=13.2481; py=11.0892; w=9.7; wx=9.7755; wy=6.149}
! Header version: 2018
! Port assignment regex: !\s*Touchstone port\s*([0-9]+)\s*=\s*(CST MWS port|CST DS port)\s*([0-9]+|Zmin|Zmax)\s*\(\"(.*)\"\)(\s*mode\s*([0-9]+))?.*
! Touchstone port assignment:
! Touchstone port 1 = CST MWS port 1 ("")
# GHz S DB R 50
4.5                    -0.459916         95.9012
4.52                   -0.475223         94.4082
4.54                   -0.491288         92.9034
4.56                   -0.508096         91.3867
4.58                    -0.52563         89.8583
4.6                    -0.543869         88.3183
4.62                    -0.56279         86.7664
4.64                   -0.582372         85.2026
4.66                   -0.602596         83.6268
4.68                   -0.623443         82.0387
4.7                    -0.644903         80.4381
4.72                   -0.666967         78.8248
4.74                   -0.689631         77.1985
4.76                   -0.712896         75.5589
4.78                   -0.736769         73.9056
4.8                    -0.761262         72.2384
4.82                   -0.786392         70.5569
4.84                   -0.812178          68.861
4.86                   -0.838646         67.1504
4.88                   -0.865825         65.4247
4.9                    -0.893745         63.6838
4.92                   -0.922443         61.9275
4.94                   -0.951953         60.1556
4.96                   -0.982313          58.368
4.98                    -1.01357         56.5645
5                       -1.04575          54.745
5.02                     -1.0789         52.9096
5.04                    -1.11306         51.0582
5.06                    -1.14827         49.1907
5.08                    -1.18458         47.3073
5.1                     -1.22201          45.408
5.12                     -1.2606         43.4929
5.14                    -1.30039         41.5621
5.16                    -1.34142         39.6157
5.18                    -1.38371         37.6539
5.2                     -1.42729          35.677
5.22                     -1.4722         33.6851
5.24                    -1.51846         31.6785
5.26                     -1.5661         29.6575
5.28                    -1.61514         27.6223
5.3                     -1.66559         25.5731
5.32                     -1.7175         23.5105
5.34                    -1.77086         21.4346
5.36                     -1.8257         19.3459
5.38                    -1.88205         17.2448
5.4                     -1.93991         15.1316
5.42                     -1.9993         13.0068
5.44                    -2.06024         10.8708
5.46                    -2.12275         8.72421
5.48                    -2.18684          6.5674
5.5                     -2.25252         4.40094
5.52                    -2.31982         2.22537
5.54                    -2.38874       0.0412727
5.56                    -2.45931        -2.15074
5.58                    -2.53155        -4.35005
5.6                     -2.60548        -6.55596
5.62                    -2.68111        -8.76779
5.64                    -2.75848        -10.9848
5.66                    -2.83759        -13.2062
5.68                    -2.91849        -15.4311
5.7                     -3.00118        -17.6588
5.72                    -3.08571        -19.8883
5.74                     -3.1721        -22.1186
5.76                    -3.26037        -24.3487
5.78                    -3.35056        -26.5777
5.8                      -3.4427        -28.8043
5.82                    -3.53681        -31.0273
5.84                    -3.63293        -33.2456
5.86                    -3.73109        -35.4577
5.88                     -3.8313        -37.6624
5.9                     -3.93358        -39.8581
5.92                    -4.03796        -42.0433
5.94                    -4.14444        -44.2165
5.96                    -4.25303        -46.3757
5.98                    -4.36372        -48.5194
6                       -4.47649        -50.6456
6.02                     -4.5913        -52.7524
6.04                    -4.70811        -54.8377
6.06                    -4.82684        -56.8995
6.08                     -4.9474        -58.9354
6.1                     -5.06967        -60.9435
6.12                    -5.19349        -62.9212
6.14                    -5.31868        -64.8664
6.16                    -5.44501        -66.7768
6.18                     -5.5722        -68.6501
6.2                     -5.69993        -70.4842
6.22                    -5.82782        -72.2769
6.24                    -5.95545        -74.0266
6.26                    -6.08231        -75.7315
6.28                    -6.20787        -77.3906
6.3                      -6.3315         -79.003
6.32                    -6.45254        -80.5684
6.34                    -6.57027        -82.0875
6.36                    -6.68393        -83.5612
6.38                    -6.79274        -84.9918
6.4                      -6.8959        -86.3824
6.42                    -6.99264        -87.7372
6.44                    -7.08223        -89.0617
6.46                    -7.16402        -90.3626
6.48                    -7.23748        -91.6478
6.5                     -7.30223        -92.9264
