! TOUCHSTONE file generated by CST MICROWAVE STUDIO
! Date and time: Thu Oct 27 19:47:11 2022
! Project name: L.cst
! Parameters = {Di=1.27; Epsilon_r=1.56; InnerDiameter=1.27; Length=2; Lf=10; Lg=60; OuterConductorThickness=0.2921; OuterDiameter=3.6; Wf=3; Wp=41.2; de=1.5; df=6.8; g=0.8; gx=1.51494; gy=2.69219; h=2.34; hf=1.524; px=13.3775; py=9.80388; w=9.7; wx=11.8625; wy=7.11169}
! Header version: 2018
! Port assignment regex: !\s*Touchstone port\s*([0-9]+)\s*=\s*(CST MWS port|CST DS port)\s*([0-9]+|Zmin|Zmax)\s*\(\"(.*)\"\)(\s*mode\s*([0-9]+))?.*
! Touchstone port assignment:
! Touchstone port 1 = CST MWS port 1 ("")
# GHz S DB R 50
4.5                     -3.85828         62.4949
4.52                    -4.13356         60.2185
4.54                    -4.46237         58.2231
4.56                       -4.78         56.0238
4.58                    -5.15444         54.0923
4.6                     -5.51818         52.0166
4.62                     -5.9425         50.2043
4.64                     -6.3564         48.3168
4.66                    -6.83356         46.6991
4.68                    -7.30081         45.0809
4.7                     -7.83231          43.762
4.72                    -8.35272          42.518
4.74                    -8.93774         41.6287
4.76                    -9.50599         40.9036
4.78                    -10.1363         40.6051
4.8                     -10.7384         40.5784
4.82                     -11.392         41.0619
4.84                     -11.998         41.9169
4.86                    -12.6324         43.3659
4.88                    -13.1865         45.2188
4.9                     -13.7338         47.6799
4.92                    -14.1579         50.4314
4.94                    -14.5378          53.628
4.96                    -14.7637         56.8131
4.98                     -14.928         60.1052
5                       -14.9457         62.9941
5.02                    -14.9185         65.6645
5.04                    -14.7851         67.6511
5.06                    -14.6444          69.262
5.08                    -14.4425         70.1064
5.1                     -14.2698          70.554
5.12                    -14.0699         70.2867
5.14                    -13.9242         69.6461
5.16                     -13.775         68.3752
5.18                    -13.6963         66.7514
5.2                     -13.6318         64.5465
5.22                    -13.6541         61.9823
5.24                    -13.7061         58.8395
5.26                     -13.868         55.2611
5.28                    -14.0811         51.0521
5.3                     -14.4396         46.2193
5.32                     -14.889         40.5858
5.34                    -15.5449         33.9286
5.36                    -16.3655         25.9878
5.38                    -17.5031          15.998
5.4                     -18.9227          3.1751
5.42                    -20.7335        -15.1984
5.44                    -22.5109        -41.8854
5.46                    -23.0209        -78.9759
5.48                    -21.4987        -114.194
5.5                     -19.1018         -140.14
5.52                    -17.0487        -159.134
5.54                    -15.4391        -173.972
5.56                    -14.3668         173.362
5.58                    -13.7214         162.881
5.6                     -13.5138         153.897
5.62                    -13.6983         147.447
5.64                    -14.2539         143.704
5.66                    -15.0545          145.22
5.68                    -15.6056         153.191
5.7                     -14.9269         166.732
5.72                    -12.8071         176.265
5.74                    -10.1668         178.205
5.76                    -7.79245         173.605
5.78                    -5.87285         165.707
5.8                     -4.45046         155.841
5.82                    -3.45358         145.738
5.84                    -2.78905         135.643
5.86                     -2.3848         126.384
5.88                    -2.13464         117.587
5.9                     -2.03137         109.692
5.92                    -1.97161         102.112
5.94                    -2.02186         95.1973
5.96                    -2.05436         88.2941
5.98                    -2.23822         81.7343
6                       -2.41353         74.6026
6.02                    -3.27487           68.84
6.04                    -3.44193         70.5625
6.06                     -2.7181         65.0551
6.08                    -2.79261         57.0936
6.1                     -2.90681         50.3279
6.12                    -3.17025         42.8448
6.14                    -3.45571         35.3892
6.16                     -3.8654         26.6657
6.18                    -4.39677         17.0219
6.2                     -5.13757         4.96505
6.22                    -6.22435        -10.2638
6.24                    -7.79226        -31.9236
6.26                     -9.8836        -66.1573
6.28                    -10.7629        -120.106
6.3                     -8.28847        -174.291
6.32                    -5.41336         148.194
6.34                    -3.55151         121.882
6.36                    -2.48021         101.877
6.38                    -1.95603         86.5675
6.4                     -1.61004         74.1774
6.42                    -1.52196         63.8346
6.44                    -1.37117         55.1961
6.46                    -1.43703         46.9951
6.48                    -1.32369         40.4603
6.5                     -1.47125         32.7902
