! TOUCHSTONE file generated by CST MICROWAVE STUDIO
! Date and time: Fri Oct 28 05:33:22 2022
! Project name: L.cst
! Parameters = {Di=1.27; Epsilon_r=1.56; InnerDiameter=1.27; Length=2; Lf=10; Lg=60; OuterConductorThickness=0.2921; OuterDiameter=3.6; Wf=3; Wp=41.2; de=1.5; df=6.8; g=0.8; gx=1.56412; gy=3.55949; h=2.34; hf=1.524; px=9.70985; py=12.0901; w=9.7; wx=8.14573; wy=8.53064}
! Header version: 2018
! Port assignment regex: !\s*Touchstone port\s*([0-9]+)\s*=\s*(CST MWS port|CST DS port)\s*([0-9]+|Zmin|Zmax)\s*\(\"(.*)\"\)(\s*mode\s*([0-9]+))?.*
! Touchstone port assignment:
! Touchstone port 1 = CST MWS port 1 ("")
# GHz S DB R 50
4.5                    -0.527145         89.3211
4.52                   -0.543492         87.8478
4.54                    -0.56052         86.3613
4.56                   -0.578252         84.8617
4.58                   -0.596701         83.3492
4.6                    -0.615873         81.8238
4.62                   -0.635768         80.2854
4.64                   -0.656384         78.7341
4.66                   -0.677715         77.1698
4.68                   -0.699751         75.5925
4.7                    -0.722486         74.0019
4.72                   -0.745914          72.398
4.74                   -0.770027         70.7806
4.76                   -0.794822         69.1494
4.78                     -0.8203         67.5042
4.8                    -0.846461         65.8448
4.82                   -0.873311          64.171
4.84                   -0.900859         62.4824
4.86                   -0.929114         60.7789
4.88                   -0.958092         59.0602
4.9                    -0.987809         57.3261
4.92                    -1.01829         55.5764
4.94                    -1.04954         53.8109
4.96                     -1.0816         52.0293
4.98                    -1.11449         50.2316
5                       -1.14823         48.4176
5.02                    -1.18286         46.5872
5.04                    -1.21839         44.7404
5.06                    -1.25485          42.877
5.08                    -1.29228          40.997
5.1                     -1.33069         39.1005
5.12                     -1.3701         37.1875
5.14                    -1.41056          35.258
5.16                    -1.45206         33.3121
5.18                    -1.49463         31.3499
5.2                      -1.5383         29.3716
5.22                    -1.58307         27.3774
5.24                    -1.62895         25.3673
5.26                    -1.67596         23.3417
5.28                     -1.7241         21.3008
5.3                     -1.77338         19.2448
5.32                    -1.82381         17.1741
5.34                    -1.87537          15.089
5.36                    -1.92806         12.9897
5.38                    -1.98189         10.8767
5.4                     -2.03683         8.75044
5.42                    -2.09289         6.61122
5.44                    -2.15004         4.45952
5.46                    -2.20826         2.29581
5.48                    -2.26755        0.120572
5.5                     -2.32786        -2.06569
5.52                    -2.38919        -4.26243
5.54                    -2.45151         -6.4691
5.56                    -2.51478        -8.68512
5.58                    -2.57897        -10.9099
5.6                     -2.64406        -13.1428
5.62                       -2.71        -15.3831
5.64                    -2.77675        -17.6303
5.66                    -2.84429        -19.8835
5.68                    -2.91256        -22.1422
5.7                     -2.98152        -24.4055
5.72                    -3.05112        -26.6727
5.74                    -3.12132        -28.9431
5.76                    -3.19207        -31.2158
5.78                    -3.26331          -33.49
5.8                       -3.335         -35.765
5.82                    -3.40707          -38.04
5.84                    -3.47946         -40.314
5.86                    -3.55213        -42.5863
5.88                    -3.62499        -44.8559
5.9                     -3.69799        -47.1222
5.92                    -3.77107        -49.3842
5.94                    -3.84414        -51.6411
5.96                    -3.91714        -53.8922
5.98                       -3.99        -56.1366
6                       -4.06264        -58.3736
6.02                    -4.13498        -60.6024
6.04                    -4.20693        -62.8223
6.06                    -4.27843        -65.0328
6.08                    -4.34937        -67.2331
6.1                     -4.41969        -69.4227
6.12                    -4.48928        -71.6011
6.14                    -4.55807        -73.7678
6.16                    -4.62596        -75.9226
6.18                    -4.69287        -78.0651
6.2                     -4.75871         -80.195
6.22                     -4.8234        -82.3124
6.24                    -4.88685         -84.417
6.26                    -4.94898        -86.5091
6.28                    -5.00973        -88.5887
6.3                     -5.06901        -90.6562
6.32                    -5.12676        -92.7119
6.34                    -5.18292        -94.7562
6.36                    -5.23745        -96.7899
6.38                     -5.2903        -98.8135
6.4                     -5.34143        -100.828
6.42                    -5.39082        -102.834
6.44                    -5.43846        -104.833
6.46                    -5.48435        -106.826
6.48                    -5.52849        -108.815
6.5                     -5.57091          -110.8
