! TOUCHSTONE file generated by CST MICROWAVE STUDIO
! Date and time: Sat Oct 29 03:42:41 2022
! Project name: L.cst
! Parameters = {Di=1.27; Epsilon_r=1.56; InnerDiameter=1.27; Length=2; Lf=10; Lg=60; OuterConductorThickness=0.2921; OuterDiameter=3.6; Wf=3; Wp=41.2; de=1.5; df=6.8; g=0.8; gx=0.419635; gy=2.30481; h=2.34; hf=1.524; px=14.9346; py=8.09886; w=9.7; wx=14.515; wy=5.79405}
! Header version: 2018
! Port assignment regex: !\s*Touchstone port\s*([0-9]+)\s*=\s*(CST MWS port|CST DS port)\s*([0-9]+|Zmin|Zmax)\s*\(\"(.*)\"\)(\s*mode\s*([0-9]+))?.*
! Touchstone port assignment:
! Touchstone port 1 = CST MWS port 1 ("")
# GHz S DB R 50
4.5                     -6.30809         43.9917
4.52                     -8.8896          13.465
4.54                    -11.0421         -47.363
4.56                    -7.85928        -115.484
4.58                    -4.13435        -156.139
4.6                     -2.11368         178.035
4.62                    -1.20216          159.93
4.64                   -0.804917         146.371
4.66                   -0.621493         135.924
4.68                    -0.57104         127.622
4.7                    -0.626663         120.442
4.72                   -0.737717         113.709
4.74                    -0.88022         107.303
4.76                    -1.10218         101.175
4.78                    -1.46414         94.9447
4.8                     -1.98979         88.1994
4.82                    -2.73374         80.9718
4.84                    -3.88998         73.6472
4.86                    -5.83038         66.9577
4.88                    -9.10861         64.1935
4.9                     -13.8819         81.0844
4.92                    -13.4184         127.975
4.94                    -8.99826         142.036
4.96                    -6.20017         140.168
4.98                    -4.56328         134.302
5                       -3.52859         127.039
5.02                    -2.88249         119.143
5.04                    -2.97452         109.569
5.06                    -6.75905          113.75
5.08                    -2.56969         129.798
5.1                      -1.5868         119.341
5.12                    -1.27247         112.649
5.14                    -1.07473         107.845
5.16                   -0.953567         104.025
5.18                    -0.88578         100.541
5.2                    -0.830158         97.1515
5.22                   -0.770629         93.9263
5.24                   -0.724191         90.9036
5.26                   -0.700539         87.9592
5.28                    -0.68587         84.9639
5.3                    -0.667689         81.9196
5.32                   -0.652845         78.8538
5.34                   -0.655175         75.6926
5.36                   -0.678052         72.3274
5.38                   -0.731425         68.7454
5.4                     -0.82346         65.5045
5.42                   -0.766321         61.9396
5.44                   -0.760068         57.0529
5.46                   -0.810538         51.2512
5.48                   -0.904294         44.1381
5.5                     -1.06737         34.7427
5.52                    -1.35893         20.9743
5.54                    -1.91468        -1.89952
5.56                    -2.93027        -45.4609
5.58                    -3.17674        -122.772
5.6                     -1.54396         167.476
5.62                   -0.661275         129.872
5.64                   -0.368826         109.286
5.66                   -0.262434         96.4646
5.68                   -0.214229         87.5767
5.7                    -0.193641         80.8574
5.72                   -0.189138         75.3929
5.74                   -0.188581         70.7382
5.76                    -0.18673         66.6785
5.78                   -0.187322         63.0572
5.8                    -0.190977         59.7204
5.82                   -0.193746         56.5648
5.84                   -0.193631         53.5728
5.86                   -0.193357         50.7351
5.88                   -0.195959         48.0081
5.9                    -0.198771         45.3462
5.92                   -0.200067         42.7224
5.94                   -0.208227         40.0222
5.96                    -0.20875         37.8089
5.98                   -0.209378          35.229
6                      -0.205239         32.7326
6.02                   -0.199433         30.3025
6.04                   -0.199701         27.9016
6.06                   -0.204661         25.4773
6.08                    -0.20572         23.0319
6.1                    -0.201133          20.618
6.12                   -0.198215          18.245
6.14                   -0.201212         15.8532
6.16                   -0.203846         13.4125
6.18                   -0.200195         10.9718
6.2                    -0.195817         8.57824
6.22                   -0.197667         6.19299
6.24                   -0.201467         3.74962
6.26                   -0.198655         1.26973
6.28                   -0.192066        -1.17242
6.3                    -0.192331        -3.57857
6.32                   -0.198654        -6.02734
6.34                   -0.198498        -8.53891
6.36                   -0.189413        -11.0351
6.38                   -0.185305         -13.477
6.4                    -0.193171        -15.9392
6.42                   -0.199067        -18.4793
6.44                   -0.190712        -21.0251
6.46                   -0.180257         -23.497
6.48                   -0.185244        -25.9631
6.5                    -0.197445        -28.5296
