! TOUCHSTONE file generated by CST MICROWAVE STUDIO
! Date and time: Wed Oct 26 18:21:45 2022
! Project name: L.cst
! Parameters = {Di=1.27; Epsilon_r=1.56; InnerDiameter=1.27; Length=2; Lf=10; Lg=60; OuterConductorThickness=0.2921; OuterDiameter=3.6; Wf=3; Wp=41.2; de=1.5; df=6.8; g=0.8; gx=2.37604; gy=4.90665; h=2.34; hf=1.524; px=9.05461; py=11.5345; w=9.7; wx=6.67857; wy=6.62786}
! Header version: 2018
! Port assignment regex: !\s*Touchstone port\s*([0-9]+)\s*=\s*(CST MWS port|CST DS port)\s*([0-9]+|Zmin|Zmax)\s*\(\"(.*)\"\)(\s*mode\s*([0-9]+))?.*
! Touchstone port assignment:
! Touchstone port 1 = CST MWS port 1 ("")
# GHz S DB R 50
4.5                    -0.328622         97.1907
4.52                   -0.337319          95.788
4.54                    -0.34621         94.3761
4.56                   -0.355303         92.9549
4.58                   -0.364603         91.5244
4.6                    -0.374112         90.0846
4.62                   -0.383829         88.6353
4.64                   -0.393756         87.1766
4.66                   -0.403891         85.7084
4.68                   -0.414233         84.2306
4.7                     -0.42478         82.7432
4.72                   -0.435529          81.246
4.74                   -0.446479         79.7391
4.76                   -0.457627         78.2223
4.78                   -0.468973         76.6956
4.8                    -0.480515         75.1589
4.82                   -0.492253         73.6121
4.84                   -0.504186         72.0552
4.86                   -0.516315         70.4882
4.88                   -0.528639         68.9109
4.9                    -0.541162         67.3233
4.92                   -0.553883         65.7255
4.94                   -0.566806         64.1173
4.96                   -0.579931         62.4989
4.98                   -0.593261           60.87
5                      -0.606799         59.2309
5.02                   -0.620546         57.5815
5.04                   -0.634505         55.9217
5.06                   -0.648677         54.2518
5.08                   -0.663065         52.5717
5.1                    -0.677671         50.8816
5.12                   -0.692493         49.1814
5.14                   -0.707535         47.4714
5.16                   -0.722795         45.7515
5.18                   -0.738273          44.022
5.2                     -0.75397          42.283
5.22                   -0.769881         40.5347
5.24                   -0.786007         38.7771
5.26                   -0.802343         37.0106
5.28                   -0.818887         35.2353
5.3                    -0.835635         33.4514
5.32                   -0.852582         31.6591
5.34                   -0.869722         29.8586
5.36                   -0.887051         28.0503
5.38                   -0.904561         26.2343
5.4                    -0.922245         24.4109
5.42                   -0.940096         22.5805
5.44                   -0.958106         20.7433
5.46                   -0.976267         18.8997
5.48                   -0.994568         17.0499
5.5                       -1.013         15.1943
5.52                    -1.03156         13.3332
5.54                    -1.05023          11.467
5.56                    -1.06899         9.59606
5.58                    -1.08785         7.72073
5.6                     -1.10679          5.8414
5.62                     -1.1258         3.95846
5.64                    -1.14486         2.07232
5.66                    -1.16396        0.183376
5.68                    -1.18309        -1.70795
5.7                     -1.20225        -3.60123
5.72                     -1.2214        -5.49605
5.74                    -1.24055        -7.39197
5.76                    -1.25968         -9.2885
5.78                    -1.27877        -11.1853
5.8                      -1.2978        -13.0819
5.82                    -1.31678        -14.9778
5.84                    -1.33567        -16.8726
5.86                    -1.35447        -18.7658
5.88                    -1.37316        -20.6571
5.9                     -1.39171        -22.5459
5.92                    -1.41013        -24.4319
5.94                    -1.42839        -26.3145
5.96                    -1.44647        -28.1935
5.98                    -1.46436        -30.0683
6                       -1.48203        -31.9386
6.02                    -1.49948        -33.8041
6.04                    -1.51669        -35.6642
6.06                    -1.53363        -37.5187
6.08                    -1.55029        -39.3673
6.1                     -1.56666        -41.2096
6.12                    -1.58272        -43.0452
6.14                    -1.59846         -44.874
6.16                    -1.61386        -46.6957
6.18                    -1.62891          -48.51
6.2                     -1.64359        -50.3168
6.22                    -1.65791        -52.1157
6.24                    -1.67185        -53.9067
6.26                     -1.6854        -55.6895
6.28                    -1.69858        -57.4642
6.3                     -1.71138        -59.2305
6.32                     -1.7238        -60.9884
6.34                    -1.73585        -62.7378
6.36                    -1.74755        -64.4786
6.38                    -1.75892        -66.2107
6.4                     -1.76996        -67.9341
6.42                    -1.78072        -69.6488
6.44                    -1.79121        -71.3546
6.46                    -1.80147        -73.0515
6.48                    -1.81154        -74.7394
6.5                     -1.82145        -76.4182
