! TOUCHSTONE file generated by CST MICROWAVE STUDIO
! Date and time: Thu Oct 27 08:01:26 2022
! Project name: L.cst
! Parameters = {Di=1.27; Epsilon_r=1.56; InnerDiameter=1.27; Length=2; Lf=10; Lg=60; OuterConductorThickness=0.2921; OuterDiameter=3.6; Wf=3; Wp=41.2; de=1.5; df=6.8; g=0.8; gx=4.54853; gy=4.9591; h=2.34; hf=1.524; px=14.4428; py=13.5235; w=9.7; wx=9.89426; wy=8.56445}
! Header version: 2018
! Port assignment regex: !\s*Touchstone port\s*([0-9]+)\s*=\s*(CST MWS port|CST DS port)\s*([0-9]+|Zmin|Zmax)\s*\(\"(.*)\"\)(\s*mode\s*([0-9]+))?.*
! Touchstone port assignment:
! Touchstone port 1 = CST MWS port 1 ("")
# GHz S DB R 50
4.5                     -0.46037         96.7497
4.52                   -0.473499         95.2756
4.54                   -0.487647         93.7843
4.56                   -0.503017         92.2775
4.58                   -0.519693          90.757
4.6                    -0.537653         89.2246
4.62                   -0.556787         87.6814
4.64                   -0.576927         86.1285
4.66                   -0.597875         84.5661
4.68                   -0.619439         82.9941
4.7                    -0.641447         81.4118
4.72                   -0.663779         79.8181
4.74                   -0.686368          78.212
4.76                   -0.709209          76.592
4.78                   -0.732355         74.9571
4.8                    -0.755907          73.306
4.82                   -0.779998         71.6382
4.84                   -0.804777          69.953
4.86                     -0.8304         68.2504
4.88                   -0.857004         66.5304
4.9                    -0.884707         64.7933
4.92                   -0.913594         63.0396
4.94                   -0.943715         61.2698
4.96                   -0.975085         59.4844
4.98                     -1.0077         57.6838
5                       -1.04151         55.8683
5.02                    -1.07649         54.0379
5.04                    -1.11259         52.1927
5.06                    -1.14977         50.3323
5.08                      -1.188         48.4564
5.1                      -1.2273         46.5645
5.12                    -1.26768         44.6561
5.14                     -1.3092         42.7307
5.16                    -1.35194         40.7879
5.18                      -1.396         38.8275
5.2                     -1.44148         36.8493
5.22                    -1.48849         34.8534
5.24                    -1.53716         32.8401
5.26                    -1.58758         30.8096
5.28                    -1.63984         28.7625
5.3                     -1.69402         26.6994
5.32                    -1.75016         24.6209
5.34                    -1.80831         22.5278
5.36                    -1.86846         20.4205
5.38                    -1.93062         18.2996
5.4                      -1.9948         16.1656
5.42                    -2.06099         14.0187
5.44                    -2.12919         11.8593
5.46                    -2.19942         9.68755
5.48                    -2.27174         7.50353
5.5                      -2.3462         5.30742
5.52                    -2.42288         3.09947
5.54                    -2.50191        0.880047
5.56                    -2.58341        -1.35033
5.58                    -2.66753         -3.5909
5.6                      -2.7544        -5.84068
5.62                    -2.84418        -8.09843
5.64                    -2.93698        -10.3626
5.66                    -3.03292        -12.6316
5.68                    -3.13206        -14.9035
5.7                     -3.23445        -17.1761
5.72                    -3.34009        -19.4476
5.74                    -3.44892        -21.7157
5.76                    -3.56089        -23.9784
5.78                     -3.6759        -26.2339
5.8                     -3.79382        -28.4805
5.82                    -3.91452        -30.7165
5.84                    -4.03789        -32.9406
5.86                    -4.16382        -35.1513
5.88                    -4.29221        -37.3475
5.9                       -4.423        -39.5276
5.92                    -4.55614        -41.6901
5.94                    -4.69158        -43.8331
5.96                    -4.82926        -45.9543
5.98                    -4.96908         -48.051
6                       -5.11084        -50.1199
6.02                    -5.25425        -52.1575
6.04                    -5.39883          -54.16
6.06                    -5.54391        -56.1239
6.08                    -5.68859        -58.0461
6.1                     -5.83175        -59.9249
6.12                    -5.97201        -61.7603
6.14                    -6.10787        -63.5546
6.16                    -6.23773        -65.3136
6.18                    -6.36004        -67.0465
6.2                     -6.47353        -68.7666
6.22                    -6.57732         -70.491
6.24                    -6.67121        -72.2401
6.26                    -6.75579        -74.0364
6.28                    -6.83264        -75.9037
6.3                     -6.90439        -77.8643
6.32                    -6.97468        -79.9385
6.34                     -7.0481        -82.1417
6.36                    -7.13006        -84.4839
6.38                    -7.22661        -86.9679
6.4                     -7.34424        -89.5887
6.42                    -7.48972        -92.3331
6.44                    -7.66994        -95.1787
6.46                    -7.89173        -98.0936
6.48                    -8.16177        -101.035
6.5                     -8.48633        -103.949
