! TOUCHSTONE file generated by CST MICROWAVE STUDIO
! Date and time: Sat Oct 29 02:39:22 2022
! Project name: L.cst
! Parameters = {Di=1.27; Epsilon_r=1.56; InnerDiameter=1.27; Length=2; Lf=10; Lg=60; OuterConductorThickness=0.2921; OuterDiameter=3.6; Wf=3; Wp=41.2; de=1.5; df=6.8; g=0.8; gx=0.671653; gy=1.69968; h=2.34; hf=1.524; px=10.1393; py=14.733; w=9.7; wx=9.46763; wy=13.0333}
! Header version: 2018
! Port assignment regex: !\s*Touchstone port\s*([0-9]+)\s*=\s*(CST MWS port|CST DS port)\s*([0-9]+|Zmin|Zmax)\s*\(\"(.*)\"\)(\s*mode\s*([0-9]+))?.*
! Touchstone port assignment:
! Touchstone port 1 = CST MWS port 1 ("")
# GHz S DB R 50
4.5                     -2.54551         57.8916
4.52                    -2.66368         55.6758
4.54                    -2.82654         53.8098
4.56                    -2.99994          51.508
4.58                    -3.14403         49.4858
4.6                     -3.35158          47.324
4.62                    -3.51992         45.0146
4.64                    -3.72839         42.9578
4.66                      -3.949         40.5583
4.68                    -4.15269         38.3857
4.7                     -4.41019         36.0896
4.72                    -4.63976         33.6718
4.74                    -4.90895         31.4454
4.76                    -5.19264         28.9191
4.78                    -5.47012         26.5864
4.8                     -5.79995         24.1325
4.82                    -6.11026         21.5707
4.84                    -6.46486         19.1566
4.86                    -6.83882         16.4433
4.88                    -7.21882         13.8921
4.9                     -7.66031         11.1858
4.92                    -8.09447         8.35722
4.94                    -8.59098         5.61855
4.96                    -9.12471         2.50931
4.98                    -9.69484       -0.500351
5                       -10.3707        -3.79828
5.02                    -11.0913        -7.30071
5.04                    -11.9664        -10.8056
5.06                    -12.9944        -14.8114
5.08                    -14.2421        -18.5657
5.1                     -15.8921        -22.3608
5.12                    -17.9925        -25.1247
5.14                    -20.9581        -24.3822
5.16                    -24.9348        -14.8752
5.18                    -28.0784         19.8195
5.2                     -26.0275         56.9807
5.22                    -22.7911         68.9358
5.24                    -20.3966         71.9471
5.26                    -18.7943         71.7174
5.28                    -17.5087         70.1348
5.3                     -16.4868         68.6065
5.32                    -15.5875         66.3575
5.34                    -14.6655         64.1186
5.36                    -13.7585         61.3217
5.38                    -12.6941         57.5241
5.4                     -11.4986         52.6041
5.42                    -10.1018         45.1896
5.44                    -8.45922         34.6012
5.46                    -6.67896          18.523
5.48                    -5.03417        -5.30084
5.5                      -4.3946        -36.7113
5.52                    -5.13089        -69.0814
5.54                    -6.51957        -96.6167
5.56                    -7.68667        -120.037
5.58                    -8.37814         -140.68
5.6                     -8.55098        -160.037
5.62                    -8.30688        -178.158
5.64                    -7.78164         163.808
5.66                    -7.05259         145.446
5.68                    -6.27737         125.093
5.7                     -5.55706         100.771
5.72                    -5.45052         68.7157
5.74                    -7.10454         28.5205
5.76                    -10.9704        -14.0424
5.78                    -14.9197        -61.8834
5.8                     -15.9943        -115.574
5.82                    -14.0989        -152.822
5.84                    -12.2208        -176.408
5.86                    -10.5345         167.447
5.88                    -9.35915         155.096
5.9                     -8.26566         144.411
5.92                    -7.36735         136.192
5.94                      -6.486          127.87
5.96                    -5.44585           120.8
5.98                    -4.42565           112.6
6                       -3.09145         102.405
6.02                      -1.963         89.1994
6.04                     -1.2382          70.794
6.06                    -1.37093         53.4066
6.08                    -1.96007         35.4449
6.1                     -1.85597         17.1444
6.12                    -4.24085        -27.6874
6.14                    -21.3945        -20.9111
6.16                    -12.4665         20.1789
6.18                    -12.1588         15.1961
6.2                     -12.8835        -6.17648
6.22                    -14.0909        -25.5998
6.24                    -15.7397        -74.1525
6.26                    -12.5356        -127.611
6.28                    -7.19608        -173.602
6.3                     -2.87658         150.622
6.32                   -0.767896         114.779
6.34                   -0.437689         87.8985
6.36                   -0.918315         67.9852
6.38                        -1.4         54.9015
6.4                     -2.04894         44.5445
6.42                    -2.37572         36.2977
6.44                    -2.85241         30.2809
6.46                     -3.1286         23.5499
6.48                    -3.33238         19.3477
6.5                     -3.67985          13.902
