! TOUCHSTONE file generated by CST MICROWAVE STUDIO
! Date and time: Sat Oct 29 19:54:57 2022
! Project name: L.cst
! Parameters = {Di=1.27; Epsilon_r=1.56; InnerDiameter=1.27; Length=2; Lf=10; Lg=60; OuterConductorThickness=0.2921; OuterDiameter=3.6; Wf=3; Wp=41.2; de=1.5; df=6.8; g=0.8; gx=3.66461; gy=1.36737; h=2.34; hf=1.524; px=9.98991; py=10.6225; w=9.7; wx=6.32531; wy=9.25515}
! Header version: 2018
! Port assignment regex: !\s*Touchstone port\s*([0-9]+)\s*=\s*(CST MWS port|CST DS port)\s*([0-9]+|Zmin|Zmax)\s*\(\"(.*)\"\)(\s*mode\s*([0-9]+))?.*
! Touchstone port assignment:
! Touchstone port 1 = CST MWS port 1 ("")
# GHz S DB R 50
4.5                    -0.466897         79.3665
4.52                   -0.468249         77.6218
4.54                     -0.4734         75.8427
4.56                   -0.482298         74.0334
4.58                   -0.494779         72.1972
4.6                    -0.510593         70.3371
4.62                   -0.529428         68.4551
4.64                   -0.550928         66.5528
4.66                   -0.574714         64.6311
4.68                   -0.600396         62.6903
4.7                    -0.627594         60.7301
4.72                   -0.655941         58.7497
4.74                   -0.685098         56.7479
4.76                   -0.714759         54.7231
4.78                   -0.744661         52.6733
4.8                    -0.774579         50.5964
4.82                   -0.804339         48.4901
4.84                    -0.83381         46.3518
4.86                   -0.862902          44.179
4.88                   -0.891575         41.9692
4.9                    -0.919823         39.7199
4.92                   -0.947675         37.4285
4.94                   -0.975192         35.0928
4.96                    -1.00246         32.7107
4.98                    -1.02957         30.2801
5                       -1.05666         27.7993
5.02                    -1.08384         25.2665
5.04                    -1.11124         22.6806
5.06                    -1.13898         20.0402
5.08                    -1.16719         17.3443
5.1                     -1.19598         14.5923
5.12                    -1.22543         11.7836
5.14                    -1.25562         8.91773
5.16                    -1.28663         5.99463
5.18                    -1.31847         3.01428
5.2                     -1.35118       -0.023112
5.22                    -1.38475        -3.11717
5.24                    -1.41914        -6.26734
5.26                    -1.45432        -9.47282
5.28                     -1.4902        -12.7329
5.3                     -1.52672        -16.0463
5.32                    -1.56374         -19.412
5.34                    -1.60115        -22.8284
5.36                    -1.63882        -26.2941
5.38                    -1.67659        -29.8071
5.4                      -1.7143        -33.3656
5.42                    -1.75179        -36.9675
5.44                     -1.7889        -40.6105
5.46                    -1.82545         -44.292
5.48                    -1.86129        -48.0094
5.5                     -1.89626          -51.76
5.52                    -1.93023        -55.5407
5.54                    -1.96306        -59.3484
5.56                    -1.99465        -63.1798
5.58                    -2.02491        -67.0315
5.6                     -2.05377        -70.9001
5.62                    -2.08118        -74.7819
5.64                    -2.10713        -78.6732
5.66                    -2.13164        -82.5705
5.68                    -2.15472        -86.4699
5.7                     -2.17645        -90.3677
5.72                    -2.19691        -94.2603
5.74                    -2.21622         -98.144
5.76                    -2.23449        -102.015
5.78                    -2.25188        -105.871
5.8                     -2.26856        -109.707
5.82                     -2.2847         -113.52
5.84                    -2.30049        -117.308
5.86                    -2.31611        -121.067
5.88                    -2.33176        -124.794
5.9                     -2.34763        -128.488
5.92                    -2.36389        -132.145
5.94                    -2.38073        -135.764
5.96                    -2.39829        -139.341
5.98                    -2.41671        -142.877
6                       -2.43614        -146.367
6.02                    -2.45665        -149.813
6.04                    -2.47835        -153.211
6.06                    -2.50128        -156.562
6.08                    -2.52548        -159.865
6.1                     -2.55098        -163.119
6.12                    -2.57777        -166.325
6.14                    -2.60583        -169.481
6.16                    -2.63514         -172.59
6.18                    -2.66567        -175.651
6.2                     -2.69739        -178.666
6.22                    -2.73028         178.363
6.24                    -2.76433         175.436
6.26                    -2.79957          172.55
6.28                    -2.83607         169.702
6.3                     -2.87394         166.892
6.32                    -2.91336         164.115
6.34                    -2.95456         161.369
6.36                    -2.99787         158.652
6.38                    -3.04372         155.961
6.4                     -3.09261         153.295
6.42                    -3.14516         150.651
6.44                     -3.2021         148.028
6.46                    -3.26425         145.426
6.48                    -3.33254         142.846
6.5                       -3.408         140.291
