! TOUCHSTONE file generated by CST MICROWAVE STUDIO
! Date and time: Sat Oct 29 09:19:30 2022
! Project name: L.cst
! Parameters = {Di=1.27; Epsilon_r=1.56; InnerDiameter=1.27; Length=2; Lf=10; Lg=60; OuterConductorThickness=0.2921; OuterDiameter=3.6; Wf=3; Wp=41.2; de=1.5; df=6.8; g=0.8; gx=3.82657; gy=2.75401; h=2.34; hf=1.524; px=12.6644; py=9.96047; w=9.7; wx=8.83784; wy=7.20646}
! Header version: 2018
! Port assignment regex: !\s*Touchstone port\s*([0-9]+)\s*=\s*(CST MWS port|CST DS port)\s*([0-9]+|Zmin|Zmax)\s*\(\"(.*)\"\)(\s*mode\s*([0-9]+))?.*
! Touchstone port assignment:
! Touchstone port 1 = CST MWS port 1 ("")
# GHz S DB R 50
4.5                    -0.570125         86.5484
4.52                   -0.592592         84.8725
4.54                   -0.616365         83.1792
4.56                   -0.641352         81.4686
4.58                   -0.667463         79.7402
4.6                    -0.694617         77.9937
4.62                   -0.722739         76.2287
4.64                   -0.751764         74.4445
4.66                   -0.781641         72.6404
4.68                   -0.812333         70.8155
4.7                    -0.843816         68.9691
4.72                   -0.876078         67.1003
4.74                   -0.909123         65.2083
4.76                   -0.942965         63.2921
4.78                   -0.977629          61.351
4.8                     -1.01315         59.3842
4.82                    -1.04958         57.3908
4.84                    -1.08696         55.3703
4.86                    -1.12534         53.3219
4.88                    -1.16479         51.2452
4.9                     -1.20536         49.1395
4.92                     -1.2471         47.0045
4.94                    -1.29009         44.8397
4.96                    -1.33437         42.6449
4.98                    -1.37999         40.4199
5                       -1.42699         38.1644
5.02                    -1.47541         35.8784
5.04                    -1.52529         33.5619
5.06                    -1.57665         31.2149
5.08                    -1.62949         28.8374
5.1                     -1.68383         26.4297
5.12                    -1.73966         23.9918
5.14                    -1.79696         21.5242
5.16                    -1.85573          19.027
5.18                    -1.91591         16.5007
5.2                     -1.97748         13.9457
5.22                    -2.04039         11.3625
5.24                    -2.10456         8.75153
5.26                    -2.16994         6.11353
5.28                    -2.23644           3.449
5.3                       -2.304        0.758716
5.32                     -2.3725        -1.95656
5.34                    -2.44187          -4.696
5.36                    -2.51198         -7.4587
5.38                    -2.58275        -10.2437
5.4                     -2.65404        -13.0499
5.42                    -2.72576        -15.8764
5.44                    -2.79777        -18.7218
5.46                    -2.86996        -21.5849
5.48                    -2.94221        -24.4644
5.5                      -3.0144        -27.3589
5.52                    -3.08641         -30.267
5.54                    -3.15812        -33.1871
5.56                    -3.22941        -36.1175
5.58                    -3.30018        -39.0567
5.6                     -3.37032        -42.0028
5.62                    -3.43973        -44.9541
5.64                    -3.50831        -47.9086
5.66                    -3.57598        -50.8646
5.68                    -3.64265        -53.8201
5.7                     -3.70825         -56.773
5.72                    -3.77272        -59.7215
5.74                    -3.83599        -62.6635
5.76                    -3.89801        -65.5969
5.78                    -3.95874        -68.5199
5.8                     -4.01815        -71.4305
5.82                     -4.0762        -74.3266
5.84                    -4.13287        -77.2064
5.86                    -4.18814        -80.0681
5.88                      -4.242        -82.9098
5.9                     -4.29445        -85.7298
5.92                    -4.34547        -88.5266
5.94                    -4.39508        -91.2985
5.96                    -4.44326        -94.0443
5.98                    -4.49004        -96.7626
6                       -4.53541        -99.4522
6.02                    -4.57939        -102.112
6.04                      -4.622        -104.741
6.06                    -4.66324        -107.339
6.08                    -4.70315        -109.906
6.1                     -4.74175        -112.439
6.12                    -4.77906         -114.94
6.14                    -4.81514        -117.409
6.16                    -4.85003        -119.845
6.18                    -4.88378        -122.248
6.2                     -4.91647        -124.619
6.22                    -4.94819        -126.957
6.24                    -4.97904        -129.265
6.26                    -5.00915        -131.542
6.28                    -5.03864        -133.788
6.3                     -5.06769        -136.005
6.32                    -5.09649        -138.192
6.34                    -5.12523        -140.351
6.36                    -5.15414        -142.482
6.38                    -5.18349        -144.585
6.4                     -5.21352         -146.66
6.42                    -5.24452        -148.708
6.44                    -5.27678        -150.726
6.46                    -5.31058        -152.715
6.48                    -5.34621        -154.674
6.5                     -5.38392        -156.601
