! TOUCHSTONE file generated by CST MICROWAVE STUDIO
! Date and time: Fri Oct 28 09:54:25 2022
! Project name: L.cst
! Parameters = {Di=1.27; Epsilon_r=1.56; InnerDiameter=1.27; Length=2; Lf=10; Lg=60; OuterConductorThickness=0.2921; OuterDiameter=3.6; Wf=3; Wp=41.2; de=1.5; df=6.8; g=0.8; gx=1.97444; gy=3.12159; h=2.34; hf=1.524; px=14.9149; py=9.95888; w=9.7; wx=12.9405; wy=6.83729}
! Header version: 2018
! Port assignment regex: !\s*Touchstone port\s*([0-9]+)\s*=\s*(CST MWS port|CST DS port)\s*([0-9]+|Zmin|Zmax)\s*\(\"(.*)\"\)(\s*mode\s*([0-9]+))?.*
! Touchstone port assignment:
! Touchstone port 1 = CST MWS port 1 ("")
# GHz S DB R 50
4.5                     -5.08245         66.2529
4.52                    -5.47829         64.8525
4.54                    -5.92953         63.4171
4.56                    -6.40652         62.4891
4.58                    -6.87711         61.6217
4.6                     -7.40769          61.088
4.62                    -7.91784         61.0698
4.64                    -8.44153         61.1881
4.66                    -8.97788         61.9792
4.68                    -9.45645           63.13
4.7                     -9.93683         64.6569
4.72                    -10.3412         66.8291
4.74                    -10.6701           69.09
4.76                    -10.9408         71.7683
4.78                    -11.0805         74.5009
4.8                     -11.1585         77.0404
4.82                    -11.1377         79.5771
4.84                     -11.035         81.5673
4.86                    -10.9025         83.2599
4.88                    -10.7028         84.5105
4.9                     -10.5014         85.1688
4.92                    -10.2899         85.5416
4.94                    -10.0692         85.3521
4.96                    -9.88428         84.7998
4.98                    -9.70205         83.9376
5                       -9.55602         82.6071
5.02                    -9.45141         81.0729
5.04                    -9.37193         79.1769
5.06                    -9.35829         76.9571
5.08                    -9.39363         74.5481
5.1                     -9.49572          71.752
5.12                    -9.69815         68.7491
5.14                    -9.99383         65.5158
5.16                    -10.4426         61.9915
5.18                    -11.0857         58.5003
5.2                     -11.9764         55.1182
5.22                    -13.2547         52.5209
5.24                    -15.0142         52.3535
5.26                    -17.2995         57.8682
5.28                    -19.3238         75.7084
5.3                     -18.7447         100.062
5.32                    -16.3551         112.098
5.34                    -14.2251         112.722
5.36                     -12.907         107.952
5.38                    -12.3624         101.291
5.4                     -12.5533         94.0425
5.42                    -13.6581           87.47
5.44                    -16.1056         84.5096
5.46                     -20.897         98.5808
5.48                    -20.4671         163.822
5.5                     -13.2123         179.471
5.52                    -8.58703         172.329
5.54                    -5.64086         160.107
5.56                    -3.80072         146.945
5.58                    -2.69681         134.635
5.6                     -2.07292          123.81
5.62                    -1.67619         114.717
5.64                    -1.42777         106.414
5.66                    -1.29842         98.9726
5.68                    -1.24918         92.2691
5.7                      -1.2346          86.167
5.72                    -1.24646           80.37
5.74                    -1.28151         74.8822
5.76                    -1.30536         69.3907
5.78                    -1.36929         63.6034
5.8                     -1.47617         57.6363
5.82                    -1.61328         51.0279
5.84                    -1.84932         43.2984
5.86                    -2.22663         33.7204
5.88                    -2.92801         19.9444
5.9                      -4.5857        -3.41758
5.92                    -8.92105        -59.1983
5.94                    -7.11907         177.021
5.96                    -2.55935         119.842
5.98                    -1.28898         93.0175
6                      -0.940949         77.8301
6.02                   -0.763048         67.6028
6.04                   -0.743828         59.1438
6.06                   -0.825788         52.8095
6.08                   -0.763248          43.691
6.1                    -0.746394         54.7689
6.12                   -0.645519         42.3116
6.14                   -0.728966          38.224
6.16                   -0.628964          33.856
6.18                   -0.705809         29.7366
6.2                     -0.69084         26.5768
6.22                   -0.660692         22.7429
6.24                    -0.71698         19.4773
6.26                   -0.669108          16.363
6.28                   -0.682861          12.816
6.3                    -0.703546           9.936
6.32                   -0.654868          6.7007
6.34                    -0.69501         3.46733
6.36                   -0.674167        0.691759
6.38                   -0.651095          -2.648
6.4                    -0.691379        -5.55238
6.42                   -0.640229        -8.44844
6.44                   -0.656582        -11.7501
6.46                   -0.668164        -14.4105
6.48                   -0.614777        -17.5501
6.5                    -0.663026        -20.6225
