! TOUCHSTONE file generated by CST MICROWAVE STUDIO
! Date and time: Thu Oct 27 05:58:53 2022
! Project name: L.cst
! Parameters = {Di=1.27; Epsilon_r=1.56; InnerDiameter=1.27; Length=2; Lf=10; Lg=60; OuterConductorThickness=0.2921; OuterDiameter=3.6; Wf=3; Wp=41.2; de=1.5; df=6.8; g=0.8; gx=4.31349; gy=2.28462; h=2.34; hf=1.524; px=8.98898; py=12.8376; w=9.7; wx=4.6755; wy=10.553}
! Header version: 2018
! Port assignment regex: !\s*Touchstone port\s*([0-9]+)\s*=\s*(CST MWS port|CST DS port)\s*([0-9]+|Zmin|Zmax)\s*\(\"(.*)\"\)(\s*mode\s*([0-9]+))?.*
! Touchstone port assignment:
! Touchstone port 1 = CST MWS port 1 ("")
# GHz S DB R 50
4.5                    -0.298297         86.0098
4.52                   -0.324101         84.4014
4.54                   -0.354721         82.8456
4.56                   -0.385099          81.343
4.58                   -0.410971         79.8802
4.6                    -0.429626         78.4342
4.62                    -0.44027         76.9783
4.64                   -0.443922         75.4882
4.66                   -0.442955         73.9467
4.68                   -0.440398         72.3458
4.7                    -0.439226         70.6873
4.72                   -0.441768         68.9807
4.74                    -0.44934         67.2403
4.76                   -0.462125         65.4813
4.78                   -0.479282         63.7171
4.8                    -0.499229         61.9565
4.82                   -0.520035         60.2027
4.84                   -0.539837         58.4525
4.86                   -0.557207         56.6984
4.88                   -0.571396         54.9296
4.9                    -0.582423         53.1348
4.92                   -0.590996         51.3045
4.94                   -0.598305         49.4322
4.96                   -0.605737         47.5157
4.98                   -0.614576         45.5571
5                      -0.625767         43.5614
5.02                   -0.639754         41.5356
5.04                    -0.65643         39.4868
5.06                   -0.675203          37.421
5.08                    -0.69514         35.3413
5.1                    -0.715165         33.2479
5.12                   -0.734284          31.138
5.14                   -0.751771         29.0058
5.16                   -0.767297         26.8445
5.18                   -0.780979         24.6469
5.2                    -0.793336         22.4069
5.22                   -0.805159         20.1205
5.24                   -0.817352         17.7863
5.26                   -0.830742         15.4057
5.28                   -0.845925         12.9818
5.3                    -0.863155         10.5191
5.32                   -0.882307         8.02225
5.34                   -0.902902         5.49474
5.36                   -0.924212         2.93832
5.38                   -0.945403        0.352275
5.4                    -0.965695        -2.26661
5.42                   -0.984529        -4.92366
5.44                    -1.00167        -7.62552
5.46                    -1.01728        -10.3791
5.48                    -1.03188        -13.1906
5.5                     -1.04628        -16.0641
5.52                     -1.0614        -19.0018
5.54                    -1.07818        -22.0031
5.56                    -1.09735         -25.065
5.58                    -1.11932        -28.1833
5.6                     -1.14412        -31.3532
5.62                    -1.17139        -34.5704
5.64                    -1.20047        -37.8325
5.66                    -1.23045        -41.1394
5.68                    -1.26046        -44.4941
5.7                     -1.28976        -47.9023
5.72                    -1.31796        -51.3721
5.74                    -1.34515        -54.9125
5.76                    -1.37189        -58.5324
5.78                    -1.39923        -62.2392
5.8                     -1.42851        -66.0376
5.82                    -1.46122        -69.9287
5.84                    -1.49872        -73.9103
5.86                    -1.54204        -77.9772
5.88                    -1.59169        -82.1224
5.9                     -1.64756        -86.3388
5.92                    -1.70888        -90.6209
5.94                    -1.77436        -94.9671
5.96                    -1.84244        -99.3809
5.98                    -1.91157        -103.872
6                       -1.98068        -108.458
6.02                    -2.04958        -113.159
6.04                    -2.11928        -118.001
6.06                    -2.19223        -123.009
6.08                    -2.27233        -128.206
6.1                     -2.36475        -133.606
6.12                    -2.47559        -139.215
6.14                     -2.6114        -145.028
6.16                    -2.77866        -151.024
6.18                     -2.9832        -157.174
6.2                     -3.22959        -163.431
6.22                    -3.52046        -169.741
6.24                    -3.85578        -176.036
6.26                    -4.23191         177.753
6.28                    -4.64077         171.697
6.3                     -5.06887         165.853
6.32                    -5.49716         160.249
6.34                    -5.90205         154.861
6.36                     -6.2586         149.595
6.38                     -6.5459         144.271
6.4                     -6.75333         138.644
6.42                    -6.88498         132.437
6.44                     -6.9596         125.388
6.46                    -7.00637         117.291
6.48                    -7.05865         108.005
6.5                     -7.14861         97.4346
