! TOUCHSTONE file generated by CST MICROWAVE STUDIO
! Date and time: Fri Oct 28 23:49:55 2022
! Project name: L.cst
! Parameters = {Di=1.27; Epsilon_r=1.56; InnerDiameter=1.27; Length=2; Lf=10; Lg=60; OuterConductorThickness=0.2921; OuterDiameter=3.6; Wf=3; Wp=41.2; de=1.5; df=6.8; g=0.8; gx=2.17099; gy=1.58551; h=2.34; hf=1.524; px=10.1736; py=11.6636; w=9.7; wx=8.00261; wy=10.0781}
! Header version: 2018
! Port assignment regex: !\s*Touchstone port\s*([0-9]+)\s*=\s*(CST MWS port|CST DS port)\s*([0-9]+|Zmin|Zmax)\s*\(\"(.*)\"\)(\s*mode\s*([0-9]+))?.*
! Touchstone port assignment:
! Touchstone port 1 = CST MWS port 1 ("")
# GHz S DB R 50
4.5                    -0.737472         71.5108
4.52                   -0.776849         69.6645
4.54                   -0.817274         67.8081
4.56                   -0.858013         65.9381
4.58                   -0.898507         64.0501
4.6                    -0.938399         62.1391
4.62                   -0.977529         60.1996
4.64                    -1.01593         58.2264
4.66                    -1.05378         56.2145
4.68                    -1.09141         54.1596
4.7                     -1.12923         52.0582
4.72                     -1.1677         49.9074
4.74                    -1.20729         47.7053
4.76                    -1.24845         45.4508
4.78                     -1.2916         43.1432
4.8                     -1.33708         40.7824
4.82                    -1.38513         38.3686
4.84                    -1.43592         35.9024
4.86                    -1.48955         33.3841
4.88                      -1.546          30.814
4.9                      -1.6052         28.1922
4.92                    -1.66703         25.5186
4.94                    -1.73128         22.7924
4.96                    -1.79777         20.0129
4.98                    -1.86625         17.1784
5                       -1.93649         14.2874
5.02                     -2.0083         11.3378
5.04                    -2.08147          8.3272
5.06                    -2.15584         5.25323
5.08                    -2.23128         2.11337
5.1                      -2.3077        -1.09478
5.12                    -2.38504        -4.37351
5.14                    -2.46327        -7.72479
5.16                    -2.54239        -11.1502
5.18                    -2.62238         -14.651
5.2                     -2.70328        -18.2277
5.22                    -2.78506        -21.8805
5.24                     -2.8677        -25.6087
5.26                    -2.95117        -29.4109
5.28                    -3.03537        -33.2853
5.3                     -3.12018        -37.2294
5.32                     -3.2054        -41.2397
5.34                     -3.2908        -45.3123
5.36                     -3.3761        -49.4426
5.38                    -3.46093        -53.6256
5.4                     -3.54491        -57.8554
5.42                    -3.62758        -62.1261
5.44                    -3.70845        -66.4313
5.46                    -3.78701        -70.7641
5.48                    -3.86269        -75.1179
5.5                     -3.93493        -79.4857
5.52                    -4.00318        -83.8609
5.54                    -4.06689        -88.2369
5.56                    -4.12553        -92.6077
5.58                    -4.17861        -96.9677
5.6                     -4.22572        -101.312
5.62                     -4.2665        -105.636
5.64                    -4.30069        -109.937
5.66                    -4.32815        -114.212
5.68                    -4.34886         -118.46
5.7                     -4.36291        -122.679
5.72                    -4.37057        -126.871
5.74                    -4.37227        -131.035
5.76                     -4.3686        -135.172
5.78                    -4.36031        -139.286
5.8                     -4.34834        -143.377
5.82                    -4.33378        -147.448
5.84                    -4.31784          -151.5
5.86                    -4.30191        -155.535
5.88                    -4.28745        -159.553
5.9                     -4.27602        -163.553
5.92                    -4.26923        -167.535
5.94                    -4.26871        -171.495
5.96                    -4.27608         -175.43
5.98                    -4.29291        -179.334
6                       -4.32067         176.801
6.02                    -4.36069         172.984
6.04                     -4.4141         169.225
6.06                    -4.48178         165.539
6.08                    -4.56424         161.941
6.1                     -4.66157         158.447
6.12                    -4.77331         155.076
6.14                    -4.89831          151.85
6.16                    -5.03459         148.789
6.18                    -5.17918         145.914
6.2                     -5.32798         143.245
6.22                    -5.47562         140.796
6.24                    -5.61549         138.577
6.26                    -5.73988         136.583
6.28                    -5.84033           134.8
6.3                     -5.90831         133.194
6.32                     -5.9361         131.714
6.34                    -5.91787         130.289
6.36                    -5.85061         128.839
6.38                    -5.73482         127.275
6.4                     -5.57461         125.512
6.42                    -5.37729         123.474
6.44                    -5.15253         121.101
6.46                    -4.91133         118.352
6.48                    -4.66511         115.202
6.5                     -4.42496         111.641
