! TOUCHSTONE file generated by CST MICROWAVE STUDIO
! Date and time: Sat Oct 29 22:50:20 2022
! Project name: L.cst
! Parameters = {Di=1.27; Epsilon_r=1.56; InnerDiameter=1.27; Length=2; Lf=10; Lg=60; OuterConductorThickness=0.2921; OuterDiameter=3.6; Wf=3; Wp=41.2; de=1.5; df=6.8; g=0.8; gx=2.1801; gy=4.82964; h=2.34; hf=1.524; px=10.0425; py=11.6692; w=9.7; wx=7.86239; wy=6.83959}
! Header version: 2018
! Port assignment regex: !\s*Touchstone port\s*([0-9]+)\s*=\s*(CST MWS port|CST DS port)\s*([0-9]+|Zmin|Zmax)\s*\(\"(.*)\"\)(\s*mode\s*([0-9]+))?.*
! Touchstone port assignment:
! Touchstone port 1 = CST MWS port 1 ("")
# GHz S DB R 50
4.5                    -0.385035         96.0196
4.52                   -0.396016         94.5939
4.54                   -0.407296         93.1583
4.56                   -0.418888         91.7126
4.58                   -0.430794         90.2568
4.6                    -0.443021         88.7909
4.62                   -0.455569         87.3148
4.64                   -0.468438         85.8286
4.66                    -0.48163          84.332
4.68                   -0.495141         82.8251
4.7                     -0.50897         81.3078
4.72                   -0.523115         79.7799
4.74                   -0.537577         78.2415
4.76                   -0.552352         76.6923
4.78                   -0.567442         75.1324
4.8                    -0.582848         73.5615
4.82                    -0.59857         71.9797
4.84                   -0.614611         70.3869
4.86                   -0.630974         68.7828
4.88                   -0.647663         67.1676
4.9                    -0.664682         65.5411
4.92                   -0.682036         63.9033
4.94                   -0.699733         62.2541
4.96                   -0.717778         60.5935
4.98                   -0.736177         58.9214
5                      -0.754937         57.2379
5.02                   -0.774065          55.543
5.04                   -0.793568         53.8368
5.06                   -0.813452         52.1191
5.08                   -0.833724         50.3902
5.1                    -0.854389           48.65
5.12                   -0.875452         46.8988
5.14                   -0.896919         45.1365
5.16                   -0.918793         43.3633
5.18                   -0.941079         41.5793
5.2                    -0.963777         39.7847
5.22                    -0.98689         37.9798
5.24                    -1.01042         36.1645
5.26                    -1.03436         34.3393
5.28                    -1.05872         32.5042
5.3                      -1.0835         30.6595
5.32                    -1.10868         28.8055
5.34                    -1.13427         26.9425
5.36                    -1.16026         25.0706
5.38                    -1.18665         23.1903
5.4                     -1.21342         21.3018
5.42                    -1.24058         19.4055
5.44                    -1.26811         17.5016
5.46                    -1.29601         15.5907
5.48                    -1.32427         13.6729
5.5                     -1.35287         11.7488
5.52                     -1.3818         9.81871
5.54                    -1.41105         7.88303
5.56                    -1.44062         5.94219
5.58                    -1.47048         3.99663
5.6                     -1.50063          2.0468
5.62                    -1.53104       0.0931558
5.64                    -1.56171        -1.86383
5.66                    -1.59262        -3.82367
5.68                    -1.62375        -5.78589
5.7                     -1.65508        -7.74998
5.72                    -1.68661        -9.71544
5.74                     -1.7183        -11.6818
5.76                    -1.75015        -13.6483
5.78                    -1.78214        -15.6148
5.8                     -1.81423        -17.5806
5.82                    -1.84642        -19.5451
5.84                    -1.87869        -21.5078
5.86                    -1.91101        -23.4683
5.88                    -1.94336        -25.4259
5.9                     -1.97571        -27.3801
5.92                    -2.00805        -29.3305
5.94                    -2.04035        -31.2765
5.96                    -2.07259        -33.2177
5.98                    -2.10474        -35.1535
6                       -2.13678        -37.0834
6.02                    -2.16868        -39.0071
6.04                    -2.20041         -40.924
6.06                    -2.23196        -42.8337
6.08                    -2.26329        -44.7359
6.1                     -2.29439        -46.6302
6.12                    -2.32522        -48.5162
6.14                    -2.35577        -50.3936
6.16                    -2.38602        -52.2621
6.18                    -2.41594        -54.1214
6.2                     -2.44552        -55.9713
6.22                    -2.47474        -57.8116
6.24                     -2.5036        -59.6421
6.26                    -2.53208        -61.4625
6.28                    -2.56019        -63.2729
6.3                     -2.58792        -65.0731
6.32                    -2.61528         -66.863
6.34                    -2.64229        -68.6425
6.36                    -2.66895        -70.4116
6.38                    -2.69529        -72.1701
6.4                     -2.72133        -73.9181
6.42                    -2.74712        -75.6555
6.44                    -2.77269        -77.3821
6.46                    -2.79809        -79.0979
6.48                    -2.82336        -80.8027
6.5                     -2.84855        -82.4964
