! TOUCHSTONE file generated by CST MICROWAVE STUDIO
! Date and time: Thu Oct 27 08:29:23 2022
! Project name: L.cst
! Parameters = {Di=1.27; Epsilon_r=1.56; InnerDiameter=1.27; Length=2; Lf=10; Lg=60; OuterConductorThickness=0.2921; OuterDiameter=3.6; Wf=3; Wp=41.2; de=1.5; df=6.8; g=0.8; gx=1.16645; gy=2.81485; h=2.34; hf=1.524; px=9.48729; py=12.2528; w=9.7; wx=8.32084; wy=9.43794}
! Header version: 2018
! Port assignment regex: !\s*Touchstone port\s*([0-9]+)\s*=\s*(CST MWS port|CST DS port)\s*([0-9]+|Zmin|Zmax)\s*\(\"(.*)\"\)(\s*mode\s*([0-9]+))?.*
! Touchstone port assignment:
! Touchstone port 1 = CST MWS port 1 ("")
# GHz S DB R 50
4.5                    -0.708939         81.6888
4.52                   -0.734457         80.1285
4.54                   -0.760664         78.5517
4.56                    -0.78764         76.9582
4.58                    -0.81546         75.3477
4.6                    -0.844193         73.7199
4.62                   -0.873905         72.0747
4.64                   -0.904658         70.4118
4.66                   -0.936507          68.731
4.68                   -0.969505         67.0323
4.7                      -1.0037         65.3155
4.72                    -1.03914         63.5803
4.74                    -1.07588         61.8267
4.76                    -1.11394         60.0545
4.78                    -1.15338         58.2634
4.8                     -1.19423         56.4534
4.82                    -1.23653         54.6242
4.84                    -1.28033         52.7757
4.86                    -1.32565         50.9077
4.88                    -1.37255         49.0201
4.9                     -1.42106         47.1127
4.92                    -1.47122         45.1853
4.94                    -1.52307         43.2378
4.96                    -1.57665         41.2701
4.98                    -1.63201          39.282
5                       -1.68917         37.2734
5.02                    -1.74819         35.2444
5.04                     -1.8091         33.1947
5.06                    -1.87194         31.1244
5.08                    -1.93674         29.0334
5.1                     -2.00356         26.9218
5.12                    -2.07241         24.7895
5.14                    -2.14335         22.6367
5.16                    -2.21639         20.4634
5.18                    -2.29157         18.2697
5.2                     -2.36892         16.0559
5.22                    -2.44846          13.822
5.24                    -2.53021         11.5684
5.26                     -2.6142         9.29527
5.28                    -2.70044         7.00289
5.3                     -2.78894         4.69165
5.32                    -2.87972          2.3619
5.34                    -2.97277       0.0141013
5.36                    -3.06809        -2.35129
5.38                    -3.16568        -4.73375
5.4                     -3.26554         -7.1327
5.42                    -3.36763        -9.54753
5.44                    -3.47194        -11.9776
5.46                    -3.57844        -14.4221
5.48                    -3.68709        -16.8802
5.5                     -3.79786        -19.3513
5.52                    -3.91067        -21.8342
5.54                    -4.02549        -24.3282
5.56                    -4.14223        -26.8321
5.58                    -4.26081        -29.3449
5.6                     -4.38115        -31.8656
5.62                    -4.50313        -34.3928
5.64                    -4.62665        -36.9254
5.66                    -4.75156        -39.4621
5.68                    -4.87773        -42.0016
5.7                     -5.00499        -44.5425
5.72                    -5.13317        -47.0836
5.74                    -5.26206        -49.6234
5.76                    -5.39145        -52.1606
5.78                     -5.5211        -54.6939
5.8                     -5.65076         -57.222
5.82                    -5.78014        -59.7437
5.84                    -5.90895        -62.2579
5.86                    -6.03687        -64.7635
5.88                    -6.16354        -67.2599
5.9                     -6.28862        -69.7464
5.92                    -6.41172        -72.2226
5.94                    -6.53245        -74.6885
5.96                    -6.65041        -77.1442
5.98                    -6.76518        -79.5904
6                       -6.87637        -82.0281
6.02                    -6.98358        -84.4588
6.04                    -7.08643        -86.8843
6.06                    -7.18458        -89.3073
6.08                    -7.27772        -91.7308
6.1                      -7.3656        -94.1581
6.12                    -7.44803        -96.5935
6.14                    -7.52491        -99.0416
6.16                    -7.59622        -101.507
6.18                    -7.66208        -103.997
6.2                     -7.72269        -106.515
6.22                     -7.7784        -109.069
6.24                    -7.82971        -111.666
6.26                    -7.87726        -114.311
6.28                    -7.92183        -117.012
6.3                     -7.96438        -119.775
6.32                    -8.00602        -122.608
6.34                    -8.04805        -125.517
6.36                    -8.09189        -128.508
6.38                    -8.13918        -131.588
6.4                      -8.1917        -134.763
6.42                    -8.25144        -138.039
6.44                    -8.32055         -141.42
6.46                    -8.40144        -144.914
6.48                    -8.49673        -148.525
6.5                     -8.60931        -152.259
