! TOUCHSTONE file generated by CST MICROWAVE STUDIO
! Date and time: Thu Oct 27 09:26:51 2022
! Project name: L.cst
! Parameters = {Di=1.27; Epsilon_r=1.56; InnerDiameter=1.27; Length=2; Lf=10; Lg=60; OuterConductorThickness=0.2921; OuterDiameter=3.6; Wf=3; Wp=41.2; de=1.5; df=6.8; g=0.8; gx=4.73764; gy=0.540389; h=2.34; hf=1.524; px=12.8311; py=8.57719; w=9.7; wx=8.09344; wy=8.0368}
! Header version: 2018
! Port assignment regex: !\s*Touchstone port\s*([0-9]+)\s*=\s*(CST MWS port|CST DS port)\s*([0-9]+|Zmin|Zmax)\s*\(\"(.*)\"\)(\s*mode\s*([0-9]+))?.*
! Touchstone port assignment:
! Touchstone port 1 = CST MWS port 1 ("")
# GHz S DB R 50
4.5                    -0.726254         74.4277
4.52                   -0.790644         72.4157
4.54                   -0.852479         70.3908
4.56                   -0.911365         68.3437
4.58                   -0.967146         66.2652
4.6                     -1.01988         64.1467
4.62                     -1.0698         61.9799
4.64                    -1.11731         59.7574
4.66                    -1.16291         57.4727
4.68                    -1.20716           55.12
4.7                     -1.25071         52.6947
4.72                     -1.2942          50.193
4.74                    -1.33825         47.6118
4.76                    -1.38345         44.9489
4.78                    -1.43037         42.2026
4.8                     -1.47947         39.3721
4.82                    -1.53116         36.4568
4.84                    -1.58578         33.4566
4.86                    -1.64355          30.372
4.88                    -1.70464         27.2034
4.9                      -1.7691         23.9517
4.92                    -1.83691         20.6179
4.94                    -1.90797         17.2033
4.96                    -1.98208         13.7092
4.98                    -2.05897         10.1373
5                        -2.1383          6.4892
5.02                    -2.21966         2.76699
5.04                    -2.30257        -1.02714
5.06                    -2.38651        -4.89071
5.08                    -2.47091        -8.82093
5.1                     -2.55513        -12.8147
5.12                    -2.63856        -16.8684
5.14                    -2.72051        -20.9783
5.16                    -2.80034        -25.1399
5.18                    -2.87738        -29.3484
5.2                     -2.95099        -33.5986
5.22                    -3.02059        -37.8847
5.24                    -3.08561        -42.2007
5.26                    -3.14556          -46.54
5.28                    -3.20003        -50.8958
5.3                     -3.24869        -55.2609
5.32                    -3.29129        -59.6282
5.34                    -3.32769        -63.9903
5.36                    -3.35783        -68.3396
5.38                    -3.38177        -72.6692
5.4                     -3.39964        -76.9717
5.42                    -3.41167        -81.2405
5.44                    -3.41818        -85.4693
5.46                    -3.41953        -89.6519
5.48                    -3.41616        -93.7829
5.5                     -3.40855        -97.8573
5.52                    -3.39718        -101.871
5.54                     -3.3826        -105.819
5.56                    -3.36531        -109.699
5.58                    -3.34584        -113.508
5.6                      -3.3247        -117.244
5.62                    -3.30236        -120.904
5.64                    -3.27926        -124.488
5.66                    -3.25582        -127.993
5.68                    -3.23239         -131.42
5.7                      -3.2093        -134.769
5.72                    -3.18681        -138.038
5.74                    -3.16516        -141.229
5.76                    -3.14451        -144.342
5.78                    -3.12499        -147.378
5.8                     -3.10668        -150.338
5.82                    -3.08963        -153.222
5.84                    -3.07384        -156.034
5.86                    -3.05926        -158.773
5.88                    -3.04585        -161.442
5.9                     -3.03351        -164.044
5.92                    -3.02213         -166.58
5.94                    -3.01161        -169.053
5.96                    -3.00182        -171.465
5.98                    -2.99264         -173.82
6                       -2.98395        -176.121
6.02                    -2.97568         -178.37
6.04                    -2.96775         179.428
6.06                    -2.96013          177.27
6.08                    -2.95282         175.154
6.1                     -2.94586         173.074
6.12                    -2.93936         171.028
6.14                    -2.93347         169.012
6.16                    -2.92838         167.023
6.18                    -2.92436         165.057
6.2                     -2.92172         163.112
6.22                    -2.92083         161.186
6.24                    -2.92211         159.275
6.26                    -2.92601          157.38
6.28                    -2.93303         155.498
6.3                     -2.94368         153.629
6.32                     -2.9585         151.773
6.34                    -2.97801         149.932
6.36                    -3.00273         148.107
6.38                    -3.03313         146.301
6.4                     -3.06963         144.517
6.42                    -3.11259         142.759
6.44                    -3.16224         141.033
6.46                    -3.21867         139.344
6.48                    -3.28183         137.699
6.5                     -3.35144         136.105
