! TOUCHSTONE file generated by CST MICROWAVE STUDIO
! Date and time: Thu Oct 27 10:08:29 2022
! Project name: L.cst
! Parameters = {Di=1.27; Epsilon_r=1.56; InnerDiameter=1.27; Length=2; Lf=10; Lg=60; OuterConductorThickness=0.2921; OuterDiameter=3.6; Wf=3; Wp=41.2; de=1.5; df=6.8; g=0.8; gx=4.2251; gy=4.40844; h=2.34; hf=1.524; px=8.83853; py=12.5262; w=9.7; wx=4.61343; wy=8.11775}
! Header version: 2018
! Port assignment regex: !\s*Touchstone port\s*([0-9]+)\s*=\s*(CST MWS port|CST DS port)\s*([0-9]+|Zmin|Zmax)\s*\(\"(.*)\"\)(\s*mode\s*([0-9]+))?.*
! Touchstone port assignment:
! Touchstone port 1 = CST MWS port 1 ("")
# GHz S DB R 50
4.5                    -0.280403         97.3548
4.52                   -0.287169         95.9656
4.54                   -0.294055         94.5673
4.56                   -0.301067         93.1599
4.58                   -0.308211         91.7432
4.6                    -0.315488         90.3173
4.62                   -0.322901          88.882
4.64                   -0.330449         87.4373
4.66                   -0.338133         85.9831
4.68                    -0.34595         84.5193
4.7                    -0.353898         83.0459
4.72                   -0.361976         81.5628
4.74                   -0.370182           80.07
4.76                   -0.378514         78.5673
4.78                   -0.386967         77.0547
4.8                    -0.395542         75.5321
4.82                   -0.404235         73.9994
4.84                   -0.413045         72.4567
4.86                   -0.421971         70.9037
4.88                   -0.431011         69.3406
4.9                    -0.440165         67.7671
4.92                   -0.449431         66.1833
4.94                    -0.45881         64.5892
4.96                   -0.468301         62.9848
4.98                   -0.477905         61.3699
5                       -0.48762         59.7446
5.02                   -0.497447          58.109
5.04                   -0.507384         56.4629
5.06                   -0.517433         54.8066
5.08                   -0.527594         53.1399
5.1                    -0.537865         51.4629
5.12                   -0.548244         49.7758
5.14                   -0.558733         48.0785
5.16                   -0.569328         46.3712
5.18                   -0.580029         44.6539
5.2                    -0.590831         42.9268
5.22                   -0.601735         41.1899
5.24                   -0.612736         39.4435
5.26                    -0.62383         37.6877
5.28                   -0.635014         35.9226
5.3                    -0.646285         34.1484
5.32                   -0.657637         32.3652
5.34                   -0.669065         30.5733
5.36                   -0.680565         28.7729
5.38                    -0.69213         26.9641
5.4                    -0.703753         25.1473
5.42                    -0.71543         23.3227
5.44                   -0.727152         21.4904
5.46                   -0.738914         19.6509
5.48                   -0.750707         17.8043
5.5                    -0.762525         15.9509
5.52                   -0.774361         14.0911
5.54                   -0.786206         12.2251
5.56                   -0.798051         10.3532
5.58                   -0.809891         8.47584
5.6                    -0.821716         6.59329
5.62                   -0.833518         4.70589
5.64                   -0.845289           2.814
5.66                    -0.85702        0.917983
5.68                   -0.868704       -0.981799
5.7                    -0.880332        -2.88497
5.72                   -0.891895        -4.79115
5.74                   -0.903385        -6.69995
5.76                   -0.914793        -8.61094
5.78                   -0.926112        -10.5238
5.8                     -0.93733        -12.4381
5.82                   -0.948441        -14.3535
5.84                   -0.959435        -16.2694
5.86                   -0.970304        -18.1857
5.88                   -0.981037        -20.1017
5.9                    -0.991626        -22.0172
5.92                    -1.00206        -23.9317
5.94                    -1.01233        -25.8449
5.96                    -1.02243        -27.7563
5.98                    -1.03234        -29.6656
6                       -1.04206        -31.5724
6.02                    -1.05158        -33.4764
6.04                    -1.06088        -35.3771
6.06                    -1.06996        -37.2744
6.08                     -1.0788        -39.1678
6.1                      -1.0874         -41.057
6.12                    -1.09575        -42.9418
6.14                    -1.10383        -44.8218
6.16                    -1.11164        -46.6969
6.18                    -1.11917        -48.5668
6.2                     -1.12642        -50.4313
6.22                    -1.13337        -52.2901
6.24                    -1.14003        -54.1433
6.26                    -1.14639        -55.9904
6.28                    -1.15245        -57.8316
6.3                     -1.15822        -59.6667
6.32                    -1.16369        -61.4956
6.34                    -1.16888        -63.3182
6.36                    -1.17379        -65.1345
6.38                    -1.17844        -66.9444
6.4                     -1.18285        -68.7481
6.42                    -1.18703        -70.5454
6.44                    -1.19101        -72.3364
6.46                    -1.19481         -74.121
6.48                    -1.19847        -75.8994
6.5                     -1.20202        -77.6714
