! TOUCHSTONE file generated by CST MICROWAVE STUDIO
! Date and time: Sat Oct 29 10:00:53 2022
! Project name: L.cst
! Parameters = {Di=1.27; Epsilon_r=1.56; InnerDiameter=1.27; Length=2; Lf=10; Lg=60; OuterConductorThickness=0.2921; OuterDiameter=3.6; Wf=3; Wp=41.2; de=1.5; df=6.8; g=0.8; gx=4.56602; gy=2.76256; h=2.34; hf=1.524; px=12.355; py=12.5658; w=9.7; wx=7.78901; wy=9.80321}
! Header version: 2018
! Port assignment regex: !\s*Touchstone port\s*([0-9]+)\s*=\s*(CST MWS port|CST DS port)\s*([0-9]+|Zmin|Zmax)\s*\(\"(.*)\"\)(\s*mode\s*([0-9]+))?.*
! Touchstone port assignment:
! Touchstone port 1 = CST MWS port 1 ("")
# GHz S DB R 50
4.5                    -0.480622         90.0698
4.52                   -0.491785         88.5302
4.54                   -0.503336         86.9661
4.56                   -0.515478         85.3778
4.58                    -0.52838         83.7654
4.6                    -0.542179         82.1293
4.62                   -0.556975         80.4699
4.64                   -0.572834         78.7877
4.66                   -0.589797          77.083
4.68                   -0.607879          75.356
4.7                     -0.62707          73.607
4.72                   -0.647349          71.836
4.74                   -0.668676         70.0431
4.76                   -0.691002         68.2282
4.78                   -0.714277         66.3908
4.8                    -0.738441         64.5307
4.82                   -0.763439         62.6473
4.84                   -0.789217         60.7401
4.86                   -0.815725         58.8083
4.88                   -0.842922         56.8512
4.9                    -0.870771          54.868
4.92                   -0.899246         52.8576
4.94                   -0.928329         50.8193
4.96                   -0.958012         48.7519
4.98                   -0.988299         46.6546
5                        -1.0192         44.5264
5.02                    -1.05072         42.3661
5.04                    -1.08291          40.173
5.06                    -1.11578          37.946
5.08                    -1.14937         35.6843
5.1                     -1.18374          33.387
5.12                    -1.21891         31.0532
5.14                    -1.25494         28.6823
5.16                    -1.29187         26.2735
5.18                    -1.32974         23.8262
5.2                     -1.36861         21.3399
5.22                     -1.4085          18.814
5.24                    -1.44946         16.2481
5.26                    -1.49151         13.6419
5.28                    -1.53467         10.9949
5.3                     -1.57896         8.30705
5.32                     -1.6244         5.57807
5.34                    -1.67097          2.8079
5.36                    -1.71867     -0.00351243
5.38                    -1.76749        -2.85612
5.4                      -1.8174        -5.74984
5.42                    -1.86836        -8.68451
5.44                    -1.92033        -11.6599
5.46                    -1.97327        -14.6757
5.48                    -2.02709        -17.7315
5.5                     -2.08175        -20.8269
5.52                    -2.13716        -23.9614
5.54                    -2.19325        -27.1345
5.56                    -2.24991        -30.3454
5.58                    -2.30707        -33.5935
5.6                     -2.36462        -36.8779
5.62                    -2.42245        -40.1978
5.64                    -2.48047        -43.5523
5.66                    -2.53857        -46.9404
5.68                    -2.59665         -50.361
5.7                      -2.6546        -53.8131
5.72                    -2.71232        -57.2954
5.74                    -2.76972        -60.8068
5.76                    -2.82669        -64.3459
5.78                    -2.88316        -67.9117
5.8                     -2.93904        -71.5028
5.82                    -2.99426        -75.1179
5.84                    -3.04876        -78.7557
5.86                    -3.10248        -82.4149
5.88                    -3.15538        -86.0944
5.9                     -3.20744        -89.7929
5.92                    -3.25864        -93.5093
5.94                    -3.30897        -97.2427
5.96                    -3.35844        -100.992
5.98                    -3.40708        -104.757
6                       -3.45492        -108.536
6.02                    -3.50202        -112.329
6.04                    -3.54846        -116.136
6.06                    -3.59431        -119.957
6.08                     -3.6397        -123.792
6.1                     -3.68474        -127.641
6.12                    -3.72958        -131.504
6.14                    -3.77438        -135.384
6.16                    -3.81935         -139.28
6.18                     -3.8647        -143.195
6.2                     -3.91068         -147.13
6.22                    -3.95755        -151.088
6.24                    -4.00564         -155.07
6.26                    -4.05529         -159.08
6.28                    -4.10689        -163.121
6.3                     -4.16087        -167.196
6.32                    -4.21772         -171.31
6.34                    -4.27798        -175.467
6.36                    -4.34224         -179.67
6.38                    -4.41117         176.073
6.4                      -4.4855         171.759
6.42                    -4.56605         167.381
6.44                    -4.65373         162.932
6.46                    -4.74952         158.406
6.48                    -4.85453         153.795
6.5                     -4.96997         149.091
