! TOUCHSTONE file generated by CST MICROWAVE STUDIO
! Date and time: Sat Oct 29 21:24:40 2022
! Project name: L.cst
! Parameters = {Di=1.27; Epsilon_r=1.56; InnerDiameter=1.27; Length=2; Lf=10; Lg=60; OuterConductorThickness=0.2921; OuterDiameter=3.6; Wf=3; Wp=41.2; de=1.5; df=6.8; g=0.8; gx=2.1622; gy=4.71817; h=2.34; hf=1.524; px=11.3697; py=12.8531; w=9.7; wx=9.20747; wy=8.13491}
! Header version: 2018
! Port assignment regex: !\s*Touchstone port\s*([0-9]+)\s*=\s*(CST MWS port|CST DS port)\s*([0-9]+|Zmin|Zmax)\s*\(\"(.*)\"\)(\s*mode\s*([0-9]+))?.*
! Touchstone port assignment:
! Touchstone port 1 = CST MWS port 1 ("")
# GHz S DB R 50
4.5                    -0.497257         94.3538
4.52                   -0.513879         92.8877
4.54                    -0.53108         91.4105
4.56                   -0.548865         89.9223
4.58                   -0.567234          88.423
4.6                     -0.58619         86.9124
4.62                   -0.605732         85.3905
4.64                   -0.625863         83.8571
4.66                   -0.646588          82.312
4.68                   -0.667909         80.7552
4.7                    -0.689832         79.1863
4.72                   -0.712369         77.6053
4.74                   -0.735526         76.0118
4.76                    -0.75932         74.4059
4.78                   -0.783764         72.7872
4.8                    -0.808876         71.1556
4.82                   -0.834676         69.5109
4.84                   -0.861187          67.853
4.86                    -0.88843         66.1817
4.88                    -0.91643         64.4969
4.9                    -0.945215         62.7984
4.92                   -0.974811         61.0862
4.94                    -1.00525         59.3602
4.96                    -1.03655         57.6204
4.98                    -1.06876         55.8666
5                       -1.10189          54.099
5.02                    -1.13598         52.3174
5.04                    -1.17106         50.5219
5.06                    -1.20715         48.7126
5.08                    -1.24429         46.8896
5.1                      -1.2825         45.0528
5.12                    -1.32181         43.2026
5.14                    -1.36225         41.3389
5.16                    -1.40384         39.4619
5.18                     -1.4466         37.5719
5.2                     -1.49056          35.669
5.22                    -1.53574         33.7535
5.24                    -1.58215         31.8257
5.26                    -1.62983         29.8857
5.28                    -1.67878         27.9339
5.3                     -1.72902         25.9707
5.32                    -1.78057         23.9963
5.34                    -1.83344         22.0111
5.36                    -1.88765         20.0155
5.38                    -1.94319           18.01
5.4                     -2.00009          15.995
5.42                    -2.05835         13.9709
5.44                    -2.11798         11.9382
5.46                    -2.17897         9.89753
5.48                    -2.24134         7.84936
5.5                     -2.30508         5.79427
5.52                     -2.3702         3.73288
5.54                    -2.43669         1.66582
5.56                    -2.50455        -0.40625
5.58                    -2.57377        -2.48264
5.6                     -2.64434        -4.56262
5.62                    -2.71625        -6.64544
5.64                    -2.78949        -8.73031
5.66                    -2.86403        -10.8164
5.68                    -2.93986         -12.903
5.7                     -3.01695         -14.989
5.72                    -3.09527        -17.0737
5.74                    -3.17479        -19.1562
5.76                    -3.25546        -21.2353
5.78                    -3.33724        -23.3104
5.8                     -3.42008        -25.3802
5.82                    -3.50393         -27.444
5.84                    -3.58871        -29.5005
5.86                    -3.67435        -31.5489
5.88                    -3.76077        -33.5882
5.9                     -3.84788        -35.6174
5.92                    -3.93558        -37.6354
5.94                    -4.02375        -39.6415
5.96                    -4.11229        -41.6347
5.98                    -4.20105        -43.6142
6                        -4.2899        -45.5792
6.02                    -4.37869         -47.529
6.04                    -4.46726        -49.4632
6.06                    -4.55543        -51.3813
6.08                    -4.64305        -53.2828
6.1                     -4.72994        -55.1678
6.12                     -4.8159        -57.0362
6.14                    -4.90076        -58.8883
6.16                    -4.98435        -60.7244
6.18                    -5.06649        -62.5453
6.2                     -5.14704        -64.3518
6.22                    -5.22585        -66.1451
6.24                    -5.30282        -67.9267
6.26                    -5.37786         -69.698
6.28                    -5.45093        -71.4611
6.3                     -5.52204        -73.2182
6.32                    -5.59124        -74.9715
6.34                    -5.65865        -76.7237
6.36                    -5.72446        -78.4776
6.38                    -5.78894        -80.2358
6.4                     -5.85244        -82.0013
6.42                     -5.9154        -83.7771
6.44                    -5.97836        -85.5659
6.46                    -6.04197        -87.3704
6.48                    -6.10698        -89.1931
6.5                     -6.17426         -91.036
