! TOUCHSTONE file generated by CST MICROWAVE STUDIO
! Date and time: Sat Oct 29 09:15:38 2022
! Project name: L.cst
! Parameters = {Di=1.27; Epsilon_r=1.56; InnerDiameter=1.27; Length=2; Lf=10; Lg=60; OuterConductorThickness=0.2921; OuterDiameter=3.6; Wf=3; Wp=41.2; de=1.5; df=6.8; g=0.8; gx=1.17792; gy=1.65401; h=2.34; hf=1.524; px=12.8249; py=13.472; w=9.7; wx=11.647; wy=11.818}
! Header version: 2018
! Port assignment regex: !\s*Touchstone port\s*([0-9]+)\s*=\s*(CST MWS port|CST DS port)\s*([0-9]+|Zmin|Zmax)\s*\(\"(.*)\"\)(\s*mode\s*([0-9]+))?.*
! Touchstone port assignment:
! Touchstone port 1 = CST MWS port 1 ("")
# GHz S DB R 50
4.5                     -7.18499         52.2367
4.52                    -7.66143         51.7376
4.54                    -8.20515         50.9377
4.56                    -8.68245         50.8151
4.58                    -9.25558         50.8212
4.6                     -9.73134         51.1146
4.62                    -10.2807          52.016
4.64                    -10.7439         52.8205
4.66                    -11.2087         54.5053
4.68                    -11.6312         55.8891
4.7                     -11.9655         58.0342
4.72                    -12.3028         59.9229
4.74                    -12.4972         62.0755
4.76                    -12.7112         64.1834
4.78                    -12.7955         65.9456
4.8                     -12.8819         67.8531
4.82                    -12.9042         69.0298
4.84                    -12.8977         70.3596
4.86                    -12.9017         70.9429
4.88                    -12.8578         71.4898
4.9                     -12.8752         71.5435
4.92                      -12.85         71.2957
4.94                    -12.9033         70.8632
4.96                    -12.9451          69.924
4.98                    -13.0567         69.0112
5                        -13.207         67.5163
5.02                    -13.4102         66.1134
5.04                    -13.7101         64.1798
5.06                    -14.0609         62.2676
5.08                    -14.5696         59.9872
5.1                      -15.166         57.5502
5.12                    -16.0028         55.0074
5.14                    -17.0426         52.1014
5.16                    -18.5004         49.4835
5.18                      -20.52         46.5087
5.2                     -23.6413         45.0702
5.22                    -29.5079         47.2906
5.24                    -40.2851         143.201
5.26                    -26.6936        -167.517
5.28                     -20.864        -168.091
5.3                     -17.1001        -171.998
5.32                    -14.3911        -177.282
5.34                    -12.2233         176.737
5.36                     -10.501         170.418
5.38                    -9.06566         163.714
5.4                     -7.90308         157.009
5.42                    -6.94359         150.152
5.44                    -6.17059         143.531
5.46                    -5.55049         136.982
5.48                    -5.04687          130.82
5.5                     -4.64621         124.837
5.52                    -4.30345         119.184
5.54                    -4.03105         113.664
5.56                    -3.78951         108.304
5.58                      -3.607         103.052
5.6                     -3.44534         97.8393
5.62                    -3.33141         92.7448
5.64                     -3.2344          87.588
5.66                    -3.16974         82.5344
5.68                    -3.12444         77.3144
5.7                     -3.09585         72.1341
5.72                    -3.09353         66.6878
5.74                    -3.09488         61.1503
5.76                    -3.12994          55.249
5.78                    -3.15808         49.0252
5.8                     -3.22231         42.2715
5.82                    -3.26874         34.7587
5.84                    -3.34458         26.1794
5.86                     -3.4231         15.6193
5.88                    -3.72595         2.18218
5.9                     -4.54792        -13.2468
5.92                    -5.58316        -28.4578
5.94                    -6.62185        -47.6849
5.96                    -7.82899        -70.9435
5.98                    -8.62296         -101.62
6                       -8.73408        -140.174
6.02                    -7.92537         175.356
6.04                    -7.39092         128.853
6.06                    -8.25943         80.5639
6.08                    -12.0566         25.6033
6.1                     -17.2608        -58.1984
6.12                    -13.9306        -143.351
6.14                    -12.1232        -171.108
6.16                    -7.05331        -174.476
6.18                    -3.14544         157.447
6.2                     -1.96662          133.07
6.22                    -1.53952         115.519
6.24                    -1.25455         101.724
6.26                    -1.18529          89.677
6.28                   -0.999585         79.0344
6.3                     -1.08542         69.0404
6.32                   -0.888316         58.7773
6.34                    -1.09241         49.4305
6.36                   -0.835391         36.4951
6.38                     -1.1521         25.5286
6.4                    -0.951593        -5.22239
6.42                    -13.5149        -43.8635
6.44                    -4.10397         38.2731
6.46                    -3.48653        -4.73269
6.48                    -3.48518         -27.676
6.5                     -3.86207        -76.1866
