! TOUCHSTONE file generated by CST MICROWAVE STUDIO
! Date and time: Sat Oct 29 16:17:45 2022
! Project name: L.cst
! Parameters = {Di=1.27; Epsilon_r=1.56; InnerDiameter=1.27; Length=2; Lf=10; Lg=60; OuterConductorThickness=0.2921; OuterDiameter=3.6; Wf=3; Wp=41.2; de=1.5; df=6.8; g=0.8; gx=0.780116; gy=3.80491; h=2.34; hf=1.524; px=9.66032; py=10.4116; w=9.7; wx=8.88021; wy=6.60672}
! Header version: 2018
! Port assignment regex: !\s*Touchstone port\s*([0-9]+)\s*=\s*(CST MWS port|CST DS port)\s*([0-9]+|Zmin|Zmax)\s*\(\"(.*)\"\)(\s*mode\s*([0-9]+))?.*
! Touchstone port assignment:
! Touchstone port 1 = CST MWS port 1 ("")
# GHz S DB R 50
4.5                    -0.757672         87.2347
4.52                   -0.795251         85.6841
4.54                    -0.83318         84.1256
4.56                   -0.871424         82.5574
4.58                   -0.909996         80.9778
4.6                    -0.948953         79.3851
4.62                   -0.988382          77.778
4.64                     -1.0284          76.155
4.66                    -1.06916         74.5151
4.68                    -1.11082         72.8573
4.7                     -1.15355         71.1809
4.72                    -1.19754         69.4851
4.74                    -1.24296         67.7697
4.76                    -1.29001         66.0345
4.78                    -1.33887         64.2791
4.8                     -1.38971         62.5037
4.82                    -1.44271         60.7085
4.84                    -1.49802         58.8936
4.86                     -1.5558         57.0595
4.88                    -1.61618         55.2066
4.9                     -1.67931         53.3353
4.92                    -1.74529         51.4463
4.94                    -1.81424           49.54
4.96                    -1.88625         47.6173
4.98                    -1.96142         45.6786
5                       -2.03982         43.7248
5.02                    -2.12153         41.7566
5.04                    -2.20661         39.7746
5.06                    -2.29513         37.7796
5.08                    -2.38712         35.7725
5.1                     -2.48264         33.7539
5.12                    -2.58173         31.7247
5.14                    -2.68443         29.6857
5.16                    -2.79077         27.6378
5.18                    -2.90079         25.5817
5.2                      -3.0145         23.5185
5.22                    -3.13194          21.449
5.24                    -3.25313         19.3742
5.26                    -3.37809         17.2953
5.28                    -3.50685         15.2131
5.3                     -3.63941          13.129
5.32                    -3.77579         11.0442
5.34                    -3.91601         8.95998
5.36                    -4.06007         6.87776
5.38                    -4.20797          4.7991
5.4                     -4.35971         2.72565
5.42                    -4.51526          0.6592
5.44                    -4.67462        -1.39832
5.46                    -4.83773        -3.44482
5.48                    -5.00456        -5.47804
5.5                     -5.17503        -7.49556
5.52                    -5.34904        -9.49473
5.54                    -5.52647        -11.4727
5.56                    -5.70717        -13.4266
5.58                    -5.89095         -15.353
5.6                     -6.07757        -17.2485
5.62                    -6.26673        -19.1095
5.64                    -6.45808        -20.9323
5.66                    -6.65117        -22.7127
5.68                    -6.84551        -24.4467
5.7                     -7.04048        -26.1303
5.72                    -7.23536        -27.7591
5.74                    -7.42932        -29.3293
5.76                    -7.62139         -30.837
5.78                    -7.81046         -32.279
5.8                      -7.9953        -33.6523
5.82                    -8.17451        -34.9549
5.84                    -8.34655        -36.1858
5.86                    -8.50978        -37.3454
5.88                    -8.66244        -38.4356
5.9                     -8.80269          -39.46
5.92                    -8.92871        -40.4243
5.94                    -9.03868        -41.3367
5.96                    -9.13093        -42.2074
5.98                    -9.20397        -43.0491
6                       -9.25656        -43.8765
6.02                    -9.28785        -44.7061
6.04                    -9.29735        -45.5558
6.06                    -9.28505        -46.4444
6.08                    -9.25143        -47.3909
6.1                      -9.1974        -48.4137
6.12                    -9.12434        -49.5303
6.14                    -9.03401        -50.7569
6.16                    -8.92848        -52.1075
6.18                    -8.81011        -53.5942
6.2                      -8.6814        -55.2269
6.22                    -8.54498        -57.0135
6.24                    -8.40352        -58.9595
6.26                    -8.25969        -61.0692
6.28                    -8.11615        -63.3451
6.3                     -7.97548        -65.7885
6.32                    -7.84023        -68.4002
6.34                    -7.71288        -71.1799
6.36                    -7.59588        -74.1276
6.38                    -7.49167        -77.2427
6.4                     -7.40267        -80.5254
6.42                    -7.33138        -83.9761
6.44                    -7.28037         -87.596
6.46                    -7.25235        -91.3874
6.48                    -7.25025        -95.3541
6.5                     -7.27722        -99.5015
