! TOUCHSTONE file generated by CST MICROWAVE STUDIO
! Date and time: Fri Oct 28 09:20:29 2022
! Project name: L.cst
! Parameters = {Di=1.27; Epsilon_r=1.56; InnerDiameter=1.27; Length=2; Lf=10; Lg=60; OuterConductorThickness=0.2921; OuterDiameter=3.6; Wf=3; Wp=41.2; de=1.5; df=6.8; g=0.8; gx=0.580435; gy=4.57091; h=2.34; hf=1.524; px=12.177; py=9.4141; w=9.7; wx=11.5966; wy=4.84319}
! Header version: 2018
! Port assignment regex: !\s*Touchstone port\s*([0-9]+)\s*=\s*(CST MWS port|CST DS port)\s*([0-9]+|Zmin|Zmax)\s*\(\"(.*)\"\)(\s*mode\s*([0-9]+))?.*
! Touchstone port assignment:
! Touchstone port 1 = CST MWS port 1 ("")
# GHz S DB R 50
4.5                     -2.26838         81.9529
4.52                    -2.48623         79.7694
4.54                    -2.73795         78.3044
4.56                     -2.9082         77.1835
4.58                    -3.02376         75.6139
4.6                     -3.20176         73.5772
4.62                     -3.4757         71.7773
4.64                    -3.75676         70.6154
4.66                    -3.96592         69.6491
4.68                    -4.14895         68.2949
4.7                     -4.40001         66.7098
4.72                    -4.72167         65.5306
4.74                    -5.02292         64.9597
4.76                    -5.25186         64.4891
4.78                    -5.46972         63.6988
4.8                     -5.74972         62.8996
4.82                    -6.06262         62.6567
4.84                    -6.31446         62.9452
4.86                    -6.48354         63.1756
4.88                     -6.6462         63.1019
4.9                     -6.84886         63.1631
4.92                      -7.031         63.7584
4.94                    -7.11301         64.5777
4.96                    -7.11762         65.0289
4.98                    -7.12896         65.1083
5                       -7.16057         65.3061
5.02                    -7.14026         65.7752
5.04                    -7.02789         66.0442
5.06                    -6.88233         65.7194
5.08                    -6.77243         65.0385
5.1                     -6.68124         64.4449
5.12                    -6.54248         63.9013
5.14                    -6.34867         62.9503
5.16                    -6.16622         61.4149
5.18                    -6.03886         59.6421
5.2                     -5.93007         57.9757
5.22                    -5.78212         56.2542
5.24                    -5.60569         54.0513
5.26                    -5.46655         51.3082
5.28                    -5.39169         48.4042
5.3                     -5.33295         45.5974
5.32                    -5.23731         42.6186
5.34                    -5.12888         39.0113
5.36                     -5.0799          34.754
5.38                    -5.11204         30.2464
5.4                     -5.16615         25.6773
5.42                    -5.18637          20.594
5.44                    -5.21392         14.3169
5.46                    -5.35068         6.66282
5.48                    -5.63885        -2.09096
5.5                     -6.01388        -12.0409
5.52                    -6.39868        -24.4388
5.54                    -6.83571        -41.4947
5.56                    -7.42289        -65.4927
5.58                    -8.00833        -98.0408
5.6                     -7.99277        -137.697
5.62                    -7.04423        -177.539
5.64                    -5.77527         148.297
5.66                    -4.84749         120.556
5.68                    -4.47579         98.2914
5.7                      -4.5915         80.9005
5.72                    -4.99451         67.8259
5.74                    -5.48921         57.9445
5.76                    -6.03604         49.8386
5.78                    -6.75178         42.9572
5.8                     -7.72236         38.1326
5.82                    -8.82446         36.7477
5.84                    -9.73415         39.0566
5.86                    -10.2213         43.4559
5.88                    -10.3192         48.4814
5.9                     -10.0356         53.7108
5.92                    -9.31329         57.9062
5.94                    -8.33178         59.4203
5.96                    -7.40213          58.324
5.98                    -6.66042         55.9871
6                       -6.04033         53.4445
6.02                    -5.43892          50.691
6.04                    -4.85982         47.2634
6.06                    -4.38264         43.1819
6.08                    -4.03796         39.0142
6.1                     -3.76431         35.2004
6.12                    -3.48547         31.5749
6.14                     -3.2045         27.6893
6.16                    -2.98443         23.4954
6.18                    -2.84749         19.4113
6.2                     -2.73619         15.7282
6.22                    -2.58763         12.1735
6.24                     -2.4224         8.27247
6.26                    -2.31384         4.02923
6.28                    -2.28008      -0.0840035
6.3                     -2.25219        -3.81453
6.32                     -2.1683        -7.56746
6.34                    -2.07025        -11.8917
6.36                    -2.04917        -16.7009
6.38                    -2.11463        -21.4164
6.4                     -2.17336        -25.8724
6.42                    -2.16562        -30.7796
6.44                    -2.17946        -36.9078
6.46                    -2.35073        -44.1312
6.48                    -2.69008        -51.8653
6.5                     -3.08682        -60.5112
