! TOUCHSTONE file generated by CST MICROWAVE STUDIO
! Date and time: Sat Oct 29 00:02:59 2022
! Project name: L.cst
! Parameters = {Di=1.27; Epsilon_r=1.56; InnerDiameter=1.27; Length=2; Lf=10; Lg=60; OuterConductorThickness=0.2921; OuterDiameter=3.6; Wf=3; Wp=41.2; de=1.5; df=6.8; g=0.8; gx=0.765154; gy=0.562146; h=2.34; hf=1.524; px=9.98424; py=14.4079; w=9.7; wx=9.21909; wy=13.8458}
! Header version: 2018
! Port assignment regex: !\s*Touchstone port\s*([0-9]+)\s*=\s*(CST MWS port|CST DS port)\s*([0-9]+|Zmin|Zmax)\s*\(\"(.*)\"\)(\s*mode\s*([0-9]+))?.*
! Touchstone port assignment:
! Touchstone port 1 = CST MWS port 1 ("")
# GHz S DB R 50
4.5                     -3.38284         46.7099
4.52                    -3.49781         43.3371
4.54                    -3.63482         39.6538
4.56                    -3.80058         35.6278
4.58                    -4.00877         31.2026
4.6                     -4.28767         26.2969
4.62                    -4.68896         20.8581
4.64                     -5.2972         15.0108
4.66                    -6.21538         9.42759
4.68                    -7.45128         5.66246
4.7                     -8.73495         5.16445
4.72                    -9.66619         6.97754
4.74                    -10.1794         8.46166
4.76                    -10.4992         8.26768
4.78                    -10.8165         6.52064
4.8                      -11.215         3.68743
4.82                    -11.7271        0.107538
4.84                    -12.3691        -4.02989
4.86                    -13.1563        -8.68407
4.88                    -14.1127        -13.9292
4.9                     -15.2701         -19.956
4.92                    -16.6723        -27.1647
4.94                    -18.3782        -36.3015
4.96                    -20.4377        -48.8374
4.98                    -22.7681        -67.7649
5                       -24.6463        -97.2377
5.02                    -24.4276        -133.408
5.04                    -22.2677        -162.178
5.06                     -19.788         178.647
5.08                    -17.6014         164.825
5.1                      -15.765         153.491
5.12                    -14.2499         143.091
5.14                    -13.0531         132.598
5.16                     -12.261         120.979
5.18                    -12.2222         106.874
5.2                     -14.3272         89.5551
5.22                    -24.6532         120.816
5.24                    -12.1883         169.712
5.26                    -7.60347         147.235
5.28                    -5.66027         128.607
5.3                     -4.49979         112.904
5.32                    -3.67209         98.2036
5.34                    -3.06038         83.2874
5.36                    -2.65202         67.2732
5.38                    -2.48078         49.2788
5.4                     -2.61453         28.1088
5.42                    -3.14723         1.77196
5.44                    -4.13904        -33.2792
5.46                    -5.24958        -81.7495
5.48                    -5.29433        -140.464
5.5                     -4.28559         167.735
5.52                    -3.53564         129.923
5.54                    -3.33366         102.705
5.56                    -3.49599         82.2692
5.58                    -3.87083         66.1342
5.6                     -4.39852         52.8165
5.62                    -5.12315         41.5587
5.64                    -6.36261         33.3678
5.66                    -6.35847         48.8349
5.68                    -4.18961         21.1332
5.7                     -5.22158         7.46364
5.72                    -6.01098        -2.85869
5.74                    -6.71098         -12.861
5.76                    -7.37725        -23.2862
5.78                    -8.02175        -34.5298
5.8                     -8.63611        -46.8802
5.82                    -9.19697        -60.5792
5.84                    -9.67003        -75.8344
5.86                    -10.0092        -92.7978
5.88                    -10.1573        -111.565
5.9                     -10.0554        -132.173
5.92                    -9.65492        -154.692
5.94                    -8.92501         -179.59
5.96                     -7.8251         151.472
5.98                    -6.19883         113.929
6                       -3.70902         57.0743
6.02                    -1.58399        -27.8527
6.04                    -1.90964        -101.886
6.06                    -2.12446        -146.331
6.08                    -1.82908        -175.614
6.1                     -1.33584         161.838
6.12                   -0.834394         142.294
6.14                   -0.459936         124.053
6.16                   -0.334045          106.57
6.18                   -0.540721         90.1391
6.2                     -1.07909         75.5086
6.22                    -1.85541          63.301
6.24                    -2.73826         53.6454
6.26                    -3.61528          46.237
6.28                    -4.41523          40.558
6.3                      -5.1054         36.0757
6.32                    -5.67812         32.3503
6.34                    -6.13931         29.0629
6.36                    -6.50185          26.014
6.38                    -6.78073         23.1027
6.4                     -6.99155         20.2867
6.42                    -7.15058         17.5554
6.44                     -7.2726         14.9043
6.46                    -7.37058         12.3109
6.48                    -7.45458         9.73923
6.5                     -7.52908         7.13878
