! TOUCHSTONE file generated by CST MICROWAVE STUDIO
! Date and time: Fri Oct 28 04:58:23 2022
! Project name: L.cst
! Parameters = {Di=1.27; Epsilon_r=1.56; InnerDiameter=1.27; Length=2; Lf=10; Lg=60; OuterConductorThickness=0.2921; OuterDiameter=3.6; Wf=3; Wp=41.2; de=1.5; df=6.8; g=0.8; gx=4.49786; gy=4.53408; h=2.34; hf=1.524; px=11.9324; py=8.01935; w=9.7; wx=7.43457; wy=3.48527}
! Header version: 2018
! Port assignment regex: !\s*Touchstone port\s*([0-9]+)\s*=\s*(CST MWS port|CST DS port)\s*([0-9]+|Zmin|Zmax)\s*\(\"(.*)\"\)(\s*mode\s*([0-9]+))?.*
! Touchstone port assignment:
! Touchstone port 1 = CST MWS port 1 ("")
# GHz S DB R 50
4.5                    -0.328394         97.4132
4.52                   -0.337378         95.9623
4.54                   -0.346619         94.5007
4.56                   -0.356119         93.0284
4.58                   -0.365882         91.5453
4.6                    -0.375905         90.0514
4.62                   -0.386186         88.5466
4.64                   -0.396719         87.0309
4.66                   -0.407498         85.5043
4.68                   -0.418517         83.9665
4.7                     -0.42977         82.4176
4.72                    -0.44125         80.8575
4.74                   -0.452952          79.286
4.76                    -0.46487         77.7031
4.78                      -0.477         76.1087
4.8                     -0.48934         74.5026
4.82                   -0.501886         72.8847
4.84                   -0.514636         71.2551
4.86                   -0.527593         69.6136
4.88                   -0.540754         67.9601
4.9                    -0.554121         66.2945
4.92                   -0.567696         64.6169
4.94                   -0.581481         62.9272
4.96                   -0.595479         61.2253
4.98                   -0.609692         59.5113
5                      -0.624125         57.7852
5.02                   -0.638779         56.0471
5.04                   -0.653657         54.2969
5.06                   -0.668761         52.5347
5.08                   -0.684094         50.7607
5.1                    -0.699656         48.9749
5.12                   -0.715449         47.1774
5.14                   -0.731473         45.3685
5.16                   -0.747726         43.5482
5.18                   -0.764207         41.7168
5.2                    -0.780914         39.8744
5.22                   -0.797843         38.0213
5.24                   -0.814991         36.1577
5.26                    -0.83235         34.2839
5.28                   -0.849918         32.4001
5.3                    -0.867685         30.5066
5.32                   -0.885643         28.6037
5.34                   -0.903785         26.6918
5.36                     -0.9221         24.7711
5.38                   -0.940579         22.8421
5.4                    -0.959211         20.9051
5.42                   -0.977984         18.9605
5.44                   -0.996886         17.0087
5.46                     -1.0159         15.0501
5.48                    -1.03503         13.0851
5.5                     -1.05424         11.1142
5.52                    -1.07353          9.1379
5.54                    -1.09288         7.15657
5.56                    -1.11228         5.17074
5.58                    -1.13171         3.18088
5.6                     -1.15117         1.18751
5.62                    -1.17062       -0.808865
5.64                    -1.19007        -2.80772
5.66                    -1.20949        -4.80852
5.68                    -1.22888        -6.81074
5.7                     -1.24821        -8.81382
5.72                    -1.26747        -10.8172
5.74                    -1.28665        -12.8204
5.76                    -1.30573        -14.8227
5.78                    -1.32469        -16.8237
5.8                     -1.34353        -18.8228
5.82                    -1.36222        -20.8194
5.84                    -1.38076        -22.8129
5.86                    -1.39912        -24.8029
5.88                    -1.41729        -26.7887
5.9                     -1.43526        -28.7699
5.92                    -1.45301        -30.7458
5.94                    -1.47053         -32.716
5.96                    -1.48779        -34.6799
5.98                    -1.50479        -36.6371
6                        -1.5215         -38.587
6.02                    -1.53791        -40.5293
6.04                    -1.55401        -42.4634
6.06                    -1.56978        -44.3889
6.08                     -1.5852        -46.3055
6.1                     -1.60027        -48.2128
6.12                    -1.61495        -50.1104
6.14                    -1.62925         -51.998
6.16                    -1.64315        -53.8753
6.18                    -1.65664        -55.7421
6.2                     -1.66972        -57.5981
6.22                    -1.68236        -59.4431
6.24                    -1.69458         -61.277
6.26                    -1.70637        -63.0995
6.28                    -1.71772        -64.9107
6.3                     -1.72866        -66.7103
6.32                    -1.73918        -68.4983
6.34                     -1.7493        -70.2747
6.36                    -1.75903        -72.0395
6.38                     -1.7684        -73.7925
6.4                     -1.77744        -75.5338
6.42                    -1.78617        -77.2633
6.44                    -1.79464         -78.981
6.46                    -1.80287         -80.687
6.48                    -1.81092         -82.381
6.5                     -1.81883        -84.0631
