! TOUCHSTONE file generated by CST MICROWAVE STUDIO
! Date and time: Fri Oct 28 07:27:00 2022
! Project name: L.cst
! Parameters = {Di=1.27; Epsilon_r=1.56; InnerDiameter=1.27; Length=2; Lf=10; Lg=60; OuterConductorThickness=0.2921; OuterDiameter=3.6; Wf=3; Wp=41.2; de=1.5; df=6.8; g=0.8; gx=3.61174; gy=0.804257; h=2.34; hf=1.524; px=13.0078; py=10.7703; w=9.7; wx=9.39604; wy=9.96609}
! Header version: 2018
! Port assignment regex: !\s*Touchstone port\s*([0-9]+)\s*=\s*(CST MWS port|CST DS port)\s*([0-9]+|Zmin|Zmax)\s*\(\"(.*)\"\)(\s*mode\s*([0-9]+))?.*
! Touchstone port assignment:
! Touchstone port 1 = CST MWS port 1 ("")
# GHz S DB R 50
4.5                     -1.37848         59.5913
4.52                    -1.47098         56.9546
4.54                    -1.56674         54.2678
4.56                    -1.66493         51.5213
4.58                    -1.76509         48.7043
4.6                     -1.86713         45.8051
4.62                    -1.97129         42.8124
4.64                    -2.07808         39.7154
4.66                    -2.18823         36.5047
4.68                    -2.30257         33.1722
4.7                     -2.42194         29.7112
4.72                    -2.54713         26.1165
4.74                    -2.67877         22.3843
4.76                    -2.81732         18.5118
4.78                      -2.963         14.4966
4.8                     -3.11576         10.3375
4.82                    -3.27527         6.03342
4.84                    -3.44089         1.58355
4.86                    -3.61173        -3.01255
4.88                    -3.78657        -7.75503
4.9                     -3.96397        -12.6436
4.92                     -4.1422        -17.6772
4.94                    -4.31936        -22.8538
4.96                    -4.49335        -28.1701
4.98                    -4.66197        -33.6208
5                       -4.82298        -39.1988
5.02                    -4.97415        -44.8943
5.04                    -5.11339        -50.6947
5.06                    -5.23882        -56.5848
5.08                    -5.34886        -62.5463
5.1                     -5.44235        -68.5587
5.12                     -5.5186        -74.5994
5.14                    -5.57744        -80.6442
5.16                    -5.61922        -86.6685
5.18                    -5.64481        -92.6475
5.2                     -5.65551        -98.5576
5.22                    -5.65299        -104.376
5.24                    -5.63916        -110.084
5.26                    -5.61609        -115.662
5.28                    -5.58584        -121.095
5.3                     -5.55041        -126.371
5.32                    -5.51163        -131.479
5.34                    -5.47106        -136.412
5.36                    -5.42999        -141.164
5.38                    -5.38938        -145.731
5.4                     -5.34989        -150.113
5.42                    -5.31182        -154.309
5.44                    -5.27522        -158.322
5.46                    -5.23988        -162.157
5.48                    -5.20541        -165.819
5.5                     -5.17129        -169.317
5.52                    -5.13696         -172.66
5.54                    -5.10187        -175.858
5.56                    -5.06559        -178.924
5.58                    -5.02781         178.129
5.6                     -4.98845         175.288
5.62                    -4.94765         172.541
5.64                    -4.90577         169.873
5.66                    -4.86343         167.275
5.68                    -4.82142         164.736
5.7                     -4.78065         162.248
5.72                    -4.74214         159.804
5.74                    -4.70691         157.401
5.76                    -4.67592         155.037
5.78                       -4.65         152.711
5.8                     -4.62983         150.424
5.82                    -4.61585          148.18
5.84                    -4.60826         145.981
5.86                    -4.60701         143.832
5.88                    -4.61178         141.736
5.9                     -4.62202         139.695
5.92                    -4.63702         137.713
5.94                    -4.65588          135.79
5.96                    -4.67768         133.926
5.98                    -4.70147         132.119
6                       -4.72638         130.365
6.02                    -4.75168         128.661
6.04                    -4.77684         127.001
6.06                    -4.80149          125.38
6.08                    -4.82551         123.794
6.1                     -4.84887          122.24
6.12                    -4.87164         120.714
6.14                    -4.89381         119.217
6.16                    -4.91522          117.75
6.18                    -4.93535         116.314
6.2                     -4.95329         114.912
6.22                    -4.96759         113.546
6.24                    -4.97625         112.214
6.26                    -4.97679         110.912
6.28                    -4.96642         109.629
6.3                     -4.94234         108.345
6.32                    -4.90207         107.035
6.34                    -4.84398         105.664
6.36                    -4.76769          104.19
6.38                     -4.6745         102.567
6.4                     -4.56758         100.747
6.42                    -4.45203         98.6867
6.44                    -4.33476         96.3449
6.46                    -4.22416         93.6902
6.48                    -4.12984         90.7001
6.5                     -4.06226         87.3609
