! TOUCHSTONE file generated by CST MICROWAVE STUDIO
! Date and time: Thu Oct 27 08:50:27 2022
! Project name: L.cst
! Parameters = {Di=1.27; Epsilon_r=1.56; InnerDiameter=1.27; Length=2; Lf=10; Lg=60; OuterConductorThickness=0.2921; OuterDiameter=3.6; Wf=3; Wp=41.2; de=1.5; df=6.8; g=0.8; gx=3.645; gy=1.95295; h=2.34; hf=1.524; px=10.5381; py=14.2007; w=9.7; wx=6.89308; wy=12.2477}
! Header version: 2018
! Port assignment regex: !\s*Touchstone port\s*([0-9]+)\s*=\s*(CST MWS port|CST DS port)\s*([0-9]+|Zmin|Zmax)\s*\(\"(.*)\"\)(\s*mode\s*([0-9]+))?.*
! Touchstone port assignment:
! Touchstone port 1 = CST MWS port 1 ("")
# GHz S DB R 50
4.5                    -0.572912         78.9675
4.52                   -0.592253         77.0838
4.54                   -0.599651         75.4762
4.56                   -0.638386         73.6212
4.58                   -0.637961         71.8226
4.6                    -0.676365         70.0267
4.62                   -0.686885         68.0525
4.64                   -0.711556         66.2392
4.66                   -0.739029         64.1761
4.68                   -0.751729         62.2375
4.7                    -0.788514         60.1563
4.72                   -0.800512         58.0347
4.74                   -0.834979         55.9297
4.76                   -0.856312         53.6445
4.78                   -0.882155         51.4441
4.8                    -0.914808         49.0477
4.82                   -0.934541         46.6723
4.84                   -0.972884         44.1889
4.86                   -0.994359          41.601
4.88                    -1.03054         38.9966
4.9                     -1.06061         36.1996
4.92                    -1.09126         33.4024
4.94                    -1.13077         30.4071
4.96                    -1.15928         27.3418
4.98                    -1.20381         24.1292
5                       -1.23753         20.7376
5.02                    -1.28304         17.2443
5.04                    -1.32829         13.4867
5.06                    -1.37575         9.61052
5.08                    -1.43595         5.44244
5.1                     -1.49275         1.06633
5.12                    -1.57062        -3.58872
5.14                    -1.64911         -8.5752
5.16                     -1.7504        -13.8371
5.18                    -1.86597         -19.535
5.2                     -2.00265        -25.5524
5.22                    -2.17196         -32.066
5.24                    -2.36359         -38.994
5.26                    -2.60442        -46.4381
5.28                    -2.87667        -54.4195
5.3                     -3.20953        -62.9122
5.32                    -3.59058        -72.0459
5.34                    -4.03797        -81.6666
5.36                    -4.55229        -91.9417
5.38                    -5.12898        -102.631
5.4                     -5.78109        -113.819
5.42                    -6.47109        -125.238
5.44                     -7.2157        -136.788
5.46                    -7.94461        -148.245
5.48                    -8.66444        -159.283
5.5                     -9.29218        -169.852
5.52                    -9.81266        -179.462
5.54                    -10.1673         171.593
5.56                    -10.3161         163.701
5.58                     -10.268          156.28
5.6                     -9.97541         149.322
5.62                    -9.52584         142.333
5.64                    -8.89201         134.974
5.66                    -8.18014          127.17
5.68                    -7.39353         118.433
5.7                     -6.59428         108.966
5.72                    -5.81617         98.2335
5.74                    -5.07224         86.3643
5.76                    -4.42257         72.7766
5.78                    -3.86486         57.1806
5.8                     -3.49959         38.7123
5.82                    -3.38351         16.2539
5.84                    -3.76135        -11.7682
5.86                    -4.88667        -46.6873
5.88                    -6.90027        -87.1769
5.9                     -8.68885        -126.815
5.92                    -8.50997         -159.86
5.94                    -6.57613         170.965
5.96                    -4.58605         143.154
5.98                    -3.14899         117.862
6                       -2.24854         94.7712
6.02                    -1.74556         73.1844
6.04                    -1.57239         50.5782
6.06                    -1.92865         24.1029
6.08                      -3.825        -19.3345
6.1                     -10.8744        -127.764
6.12                    -4.64335          108.57
6.14                    -2.64874         66.1242
6.16                    -1.64946         41.8729
6.18                    -1.76621         23.0916
6.2                     -1.46043         4.95058
6.22                    -1.93302        -10.8928
6.24                    -1.92375        -33.7858
6.26                    -2.87441        -55.4688
6.28                    -3.97513        -114.626
6.3                     -6.93308         79.3569
6.32                   -0.694006        -32.4626
6.34                    -1.35633        -95.0091
6.36                   -0.899177        -137.475
6.38                   -0.726941         173.805
6.4                    -0.449648         138.231
6.42                   -0.348206         104.372
6.44                   -0.360137         82.8234
6.46                   -0.526015         61.7278
6.48                    -0.49759         48.7015
6.5                    -0.846014         34.6529
