! TOUCHSTONE file generated by CST MICROWAVE STUDIO
! Date and time: Thu Oct 27 03:26:30 2022
! Project name: L.cst
! Parameters = {Di=1.27; Epsilon_r=1.56; InnerDiameter=1.27; Length=2; Lf=10; Lg=60; OuterConductorThickness=0.2921; OuterDiameter=3.6; Wf=3; Wp=41.2; de=1.5; df=6.8; g=0.8; gx=3.76065; gy=3.75254; h=2.34; hf=1.524; px=12.4123; py=13.3386; w=9.7; wx=8.65166; wy=9.58606}
! Header version: 2018
! Port assignment regex: !\s*Touchstone port\s*([0-9]+)\s*=\s*(CST MWS port|CST DS port)\s*([0-9]+|Zmin|Zmax)\s*\(\"(.*)\"\)(\s*mode\s*([0-9]+))?.*
! Touchstone port assignment:
! Touchstone port 1 = CST MWS port 1 ("")
# GHz S DB R 50
4.5                     -0.50645         92.3608
4.52                   -0.519429         90.9109
4.54                   -0.531467         89.4358
4.56                   -0.543229         87.9342
4.58                   -0.555351         86.4059
4.6                    -0.568379         84.8517
4.62                   -0.582743         83.2734
4.64                   -0.598737         81.6733
4.66                   -0.616517         80.0538
4.68                   -0.636104         78.4173
4.7                    -0.657408         76.7659
4.72                   -0.680248         75.1011
4.74                   -0.704387          73.424
4.76                   -0.729558          71.735
4.78                   -0.755494         70.0339
4.8                    -0.781948         68.3199
4.82                    -0.80872         66.5918
4.84                    -0.83567         64.8483
4.86                   -0.862721         63.0874
4.88                   -0.889865         61.3076
4.9                    -0.917156         59.5071
4.92                   -0.944705         57.6846
4.94                   -0.972659         55.8386
4.96                     -1.0012         53.9685
4.98                    -1.03051         52.0736
5                       -1.06077         50.1537
5.02                    -1.09216         48.2089
5.04                     -1.1248         46.2396
5.06                    -1.15882         44.2462
5.08                    -1.19426         42.2294
5.1                     -1.23115         40.1898
5.12                    -1.26947          38.128
5.14                    -1.30918         36.0444
5.16                     -1.3502         33.9395
5.18                    -1.39244         31.8132
5.2                     -1.43579         29.6656
5.22                    -1.48015         27.4963
5.24                    -1.52544         25.3049
5.26                    -1.57159         23.0906
5.28                    -1.61856         20.8528
5.3                     -1.66632         18.5905
5.32                    -1.71491          16.303
5.34                    -1.76437         13.9896
5.36                    -1.81477         11.6496
5.38                    -1.86621          9.2826
5.4                      -1.9188         6.88837
5.42                    -1.97268         4.46691
5.44                    -2.02794         2.01847
5.46                     -2.0847       -0.456451
5.48                    -2.14306        -2.95714
5.5                     -2.20306        -5.48269
5.52                    -2.26473        -8.03206
5.54                    -2.32808        -10.6041
5.56                    -2.39305        -13.1977
5.58                    -2.45957        -15.8118
5.6                      -2.5275        -18.4452
5.62                    -2.59671        -21.0973
5.64                    -2.66704        -23.7673
5.66                    -2.73829        -26.4548
5.68                     -2.8103        -29.1596
5.7                     -2.88289         -31.882
5.72                    -2.95592        -34.6222
5.74                    -3.02927        -37.3808
5.76                    -3.10288        -40.1584
5.78                    -3.17672        -42.9559
5.8                     -3.25083         -45.774
5.82                    -3.32527        -48.6134
5.84                    -3.40019        -51.4746
5.86                    -3.47574        -54.3577
5.88                    -3.55213        -57.2626
5.9                     -3.62956        -60.1887
5.92                    -3.70822        -63.1352
5.94                    -3.78831        -66.1008
5.96                    -3.86993        -69.0838
5.98                    -3.95315        -72.0823
6                       -4.03793        -75.0945
6.02                    -4.12416        -78.1184
6.04                     -4.2116        -81.1527
6.06                    -4.29991        -84.1963
6.08                    -4.38865        -87.2494
6.1                     -4.47731         -90.313
6.12                    -4.56536          -93.39
6.14                    -4.65225        -96.4846
6.16                    -4.73756        -99.6033
6.18                    -4.82098        -102.755
6.2                     -4.90247        -105.949
6.22                    -4.98232        -109.198
6.24                    -5.06124        -112.516
6.26                    -5.14042        -115.918
6.28                    -5.22162         -119.42
6.3                     -5.30723        -123.036
6.32                    -5.40024        -126.783
6.34                    -5.50432        -130.674
6.36                    -5.62379        -134.721
6.38                    -5.76366        -138.934
6.4                     -5.92962         -143.32
6.42                    -6.12812        -147.885
6.44                    -6.36648         -152.63
6.46                    -6.65305        -157.555
6.48                    -6.99747        -162.655
6.5                     -7.41115        -167.924
