! TOUCHSTONE file generated by CST MICROWAVE STUDIO
! Date and time: Sat Oct 29 22:42:42 2022
! Project name: L.cst
! Parameters = {Di=1.27; Epsilon_r=1.56; InnerDiameter=1.27; Length=2; Lf=10; Lg=60; OuterConductorThickness=0.2921; OuterDiameter=3.6; Wf=3; Wp=41.2; de=1.5; df=6.8; g=0.8; gx=1.50609; gy=0.427079; h=2.34; hf=1.524; px=9.32727; py=14.0924; w=9.7; wx=7.82118; wy=13.6653}
! Header version: 2018
! Port assignment regex: !\s*Touchstone port\s*([0-9]+)\s*=\s*(CST MWS port|CST DS port)\s*([0-9]+|Zmin|Zmax)\s*\(\"(.*)\"\)(\s*mode\s*([0-9]+))?.*
! Touchstone port assignment:
! Touchstone port 1 = CST MWS port 1 ("")
# GHz S DB R 50
4.5                     -1.69769         53.3513
4.52                     -1.8061         49.0526
4.54                    -1.75342          44.238
4.56                    -2.00951         38.7879
4.58                     -2.2952         32.0029
4.6                      -3.1732         25.4612
4.62                     -4.5212         20.4576
4.64                    -6.14117         23.7546
4.66                    -6.62579         30.3312
4.68                    -6.17902         34.9884
4.7                     -5.70982         33.9928
4.72                    -5.27131         31.7096
4.74                    -5.14338         27.6055
4.76                    -4.98216         23.3286
4.78                    -5.07869         18.4264
4.8                     -5.09258         13.1225
4.82                    -5.32448         7.64925
4.84                    -5.47425         1.32795
4.86                    -5.80924        -4.93868
4.88                    -6.08709        -12.5476
4.9                     -6.51724         -20.051
4.92                    -6.92155        -29.4496
4.94                    -7.43691        -38.8805
4.96                    -7.94089        -50.8887
4.98                    -8.48562        -63.2115
5                       -8.97134        -78.8835
5.02                    -9.37467        -94.9298
5.04                    -9.59793        -114.606
5.06                    -9.68741        -133.717
5.08                    -9.70764         -156.02
5.1                     -10.2461        -176.462
5.12                    -12.9915         161.655
5.14                    -15.1334        -143.227
5.16                    -6.22383        -156.673
5.18                    -3.62168         174.274
5.2                       -2.673         154.414
5.22                    -2.03885         138.363
5.24                    -1.62468         125.124
5.26                    -1.27792          113.15
5.28                    -1.04965         102.437
5.3                     -0.85779         92.3585
5.32                   -0.755313         83.0357
5.34                   -0.669427         74.0493
5.36                   -0.657633         65.5813
5.38                   -0.646311         57.2128
5.4                    -0.699611         49.2239
5.42                   -0.742584         41.0729
5.44                   -0.842786         33.2102
5.46                   -0.927868         24.8046
5.48                    -1.06352         16.5605
5.5                     -1.19998         6.96648
5.52                    -1.42187        -3.13136
5.54                    -2.14154        -17.5436
5.56                    -4.29305         -23.075
5.58                    -3.99075        -20.9042
5.6                     -3.46982        -32.7521
5.62                    -3.50986        -46.2102
5.64                     -3.6788        -63.2874
5.66                    -3.92841        -83.7258
5.68                    -4.05324        -111.024
5.7                     -3.88832        -146.512
5.72                    -3.10414         169.376
5.74                    -2.14232         122.573
5.76                    -1.58629         81.0105
5.78                    -1.58005         47.9089
5.8                     -1.83592         22.5144
5.82                    -2.15573         1.97217
5.84                    -2.49729        -15.2312
5.86                    -2.77908        -30.7632
5.88                    -3.06372        -45.0438
5.9                     -3.25187        -59.0616
5.92                    -3.45308        -72.7285
5.94                    -3.51827        -86.9274
5.96                    -3.61204        -101.243
5.98                     -3.5171        -116.771
6                       -3.48187        -132.798
6.02                    -3.19125        -151.017
6.04                    -3.03984        -170.644
6.06                    -2.53502         164.955
6.08                    -2.37698         134.425
6.1                      -1.6038         86.4894
6.12                    -1.58458         3.14825
6.14                   -0.743433        -91.0388
6.16                   -0.524406        -154.718
6.18                   -0.374626         170.794
6.2                    -0.235324         142.918
6.22                    -0.31486         123.429
6.24                   -0.371417         104.509
6.26                    -0.59485         90.3149
6.28                   -0.795399         75.5571
6.3                     -1.07703         64.5201
6.32                    -1.36215         52.3784
6.34                     -1.6319         43.5429
6.36                    -1.96906         33.2268
6.38                    -2.18125         25.9378
6.4                      -2.5604          17.005
6.42                    -2.68881         10.7343
6.44                    -3.10909         2.97685
6.46                    -3.14394        -2.73758
6.48                    -3.60085        -9.36135
6.5                     -3.55009        -14.9424
