! TOUCHSTONE file generated by CST MICROWAVE STUDIO
! Date and time: Thu Oct 27 14:42:46 2022
! Project name: L.cst
! Parameters = {Di=1.27; Epsilon_r=1.56; InnerDiameter=1.27; Length=2; Lf=10; Lg=60; OuterConductorThickness=0.2921; OuterDiameter=3.6; Wf=3; Wp=41.2; de=1.5; df=6.8; g=0.8; gx=2.99295; gy=3.50676; h=2.34; hf=1.524; px=11.5178; py=13.3176; w=9.7; wx=8.52487; wy=9.81086}
! Header version: 2018
! Port assignment regex: !\s*Touchstone port\s*([0-9]+)\s*=\s*(CST MWS port|CST DS port)\s*([0-9]+|Zmin|Zmax)\s*\(\"(.*)\"\)(\s*mode\s*([0-9]+))?.*
! Touchstone port assignment:
! Touchstone port 1 = CST MWS port 1 ("")
# GHz S DB R 50
4.5                    -0.535143         90.2312
4.52                   -0.541335         88.7787
4.54                   -0.547102         87.2718
4.56                   -0.555327         85.7154
4.58                   -0.568004         84.1216
4.6                     -0.58594         82.5057
4.62                   -0.608753         80.8826
4.64                   -0.635136         79.2632
4.66                   -0.663269         77.6526
4.68                   -0.691291         76.0495
4.7                    -0.717735         74.4473
4.72                   -0.741808         72.8363
4.74                   -0.763502         71.2059
4.76                   -0.783507         69.5472
4.78                   -0.802975         67.8546
4.8                    -0.823214          66.127
4.82                   -0.845376          64.367
4.84                    -0.87023         62.5801
4.86                   -0.898027          60.773
4.88                   -0.928509          58.952
4.9                    -0.961015         57.1215
4.92                   -0.994667         55.2833
4.94                    -1.02859          53.436
4.96                    -1.06212         51.5758
4.98                    -1.09491         49.6974
5                       -1.12705         47.7951
5.02                    -1.15896         45.8644
5.04                     -1.1913         43.9024
5.06                    -1.22483         41.9085
5.08                     -1.2602         39.8845
5.1                     -1.29786         37.8338
5.12                    -1.33794         35.7604
5.14                    -1.38025         33.6683
5.16                    -1.42435         31.5603
5.18                    -1.46965         29.4373
5.2                     -1.51555         27.2984
5.22                    -1.56157         25.1409
5.24                    -1.60748          22.961
5.26                    -1.65334         20.7545
5.28                    -1.69946         18.5179
5.3                     -1.74636         16.2489
5.32                    -1.79466         13.9474
5.34                    -1.84489         11.6146
5.36                    -1.89747         9.25366
5.38                     -1.9525         6.86839
5.4                     -2.00985         4.46262
5.42                     -2.0691         2.03933
5.44                     -2.1297        -0.39999
5.46                    -2.19101        -2.85575
5.48                    -2.25253        -5.33015
5.5                     -2.31394        -7.82675
5.52                    -2.37522        -10.3497
5.54                    -2.43667        -12.9026
5.56                    -2.49881        -15.4881
5.58                    -2.56235        -18.1065
5.6                     -2.62794         -20.756
5.62                     -2.6961        -23.4327
5.64                    -2.76703        -26.1315
5.66                    -2.84058        -28.8467
5.68                    -2.91622        -31.5733
5.7                     -2.99311        -34.3082
5.72                    -3.07026        -37.0512
5.74                    -3.14674        -39.8046
5.76                    -3.22186        -42.5737
5.78                    -3.29537        -45.3655
5.8                     -3.36754         -48.187
5.82                    -3.43914        -51.0442
5.84                    -3.51132        -53.9399
5.86                    -3.58537        -56.8733
5.88                    -3.66243        -59.8396
5.9                     -3.74322        -62.8303
5.92                    -3.82781        -65.8354
5.94                    -3.91543        -68.8451
5.96                    -4.00461        -71.8526
5.98                    -4.09332        -74.8564
6                        -4.1794        -77.8619
6.02                    -4.26105        -80.8822
6.04                    -4.33738        -83.9366
6.06                    -4.40881        -87.0478
6.08                    -4.47729        -90.2376
6.1                     -4.54619        -93.5226
6.12                    -4.61981        -96.9099
6.14                    -4.70274        -100.395
6.16                    -4.79891         -103.96
6.18                    -4.91078         -107.58
6.2                     -5.03854        -111.221
6.22                    -5.17965        -114.855
6.24                    -5.32878        -118.464
6.26                    -5.47851        -122.052
6.28                    -5.62082        -125.655
6.3                     -5.74942        -129.346
6.32                    -5.86249        -133.232
6.34                    -5.96516        -137.441
6.36                    -6.07091        -142.108
6.38                    -6.20151         -147.35
6.4                     -6.38606        -153.262
6.42                     -6.6599        -159.908
6.44                    -7.06455         -167.33
6.46                    -7.64987        -175.561
6.48                     -8.4797         175.348
6.5                     -9.64427         165.286
