! TOUCHSTONE file generated by CST MICROWAVE STUDIO
! Date and time: Sat Oct 29 10:15:23 2022
! Project name: L.cst
! Parameters = {Di=1.27; Epsilon_r=1.56; InnerDiameter=1.27; Length=2; Lf=10; Lg=60; OuterConductorThickness=0.2921; OuterDiameter=3.6; Wf=3; Wp=41.2; de=1.5; df=6.8; g=0.8; gx=1.14873; gy=4.34232; h=2.34; hf=1.524; px=14.1897; py=13.8122; w=9.7; wx=13.041; wy=9.46987}
! Header version: 2018
! Port assignment regex: !\s*Touchstone port\s*([0-9]+)\s*=\s*(CST MWS port|CST DS port)\s*([0-9]+|Zmin|Zmax)\s*\(\"(.*)\"\)(\s*mode\s*([0-9]+))?.*
! Touchstone port assignment:
! Touchstone port 1 = CST MWS port 1 ("")
# GHz S DB R 50
4.5                     -3.48586         90.1631
4.52                    -3.62921         89.5956
4.54                    -3.74533         89.2156
4.56                     -3.8308         88.7595
4.58                    -3.91867         88.2476
4.6                     -3.99564         87.8543
4.62                    -4.03709         87.4358
4.64                    -4.06628         86.8422
4.66                    -4.09777         86.2145
4.68                    -4.10809         85.5723
4.7                     -4.10079         84.7315
4.72                    -4.10198         83.7196
4.74                    -4.10442         82.6479
4.76                    -4.09796          81.414
4.78                    -4.10239         79.9408
4.8                      -4.1298         78.3215
4.82                    -4.17102         76.5722
4.84                    -4.23321         74.5823
4.86                    -4.34205         72.3621
4.88                    -4.50601         70.0067
4.9                     -4.73201         67.4769
4.92                    -5.05857         64.7546
4.94                     -5.5338         62.0484
4.96                      -6.201         59.7016
4.98                    -7.12492         58.3379
5                       -8.34789         59.5185
5.02                    -9.63372          66.031
5.04                    -10.0981          78.585
5.06                     -9.1101         89.7399
5.08                     -7.5643         93.2417
5.1                     -6.34102         91.0071
5.12                    -5.65938         86.3338
5.14                    -5.47945         81.3776
5.16                    -5.70135         77.5361
5.18                    -6.19016         75.9671
5.2                     -6.70028         77.6362
5.22                    -6.84451         82.1362
5.24                    -6.40557         86.7629
5.26                    -5.60119         89.0428
5.28                    -4.74736         88.7969
5.3                     -3.99153         86.8362
5.32                    -3.37347         83.8415
5.34                    -2.89565         80.3183
5.36                    -2.53271         76.6267
5.38                    -2.25013         72.8964
5.4                     -2.03088         69.1333
5.42                    -1.86535         65.3785
5.44                    -1.73636         61.6382
5.46                    -1.63333         57.8257
5.48                    -1.55907         53.8611
5.5                     -1.51445         49.7077
5.52                    -1.49326         45.2484
5.54                    -1.50298         40.2333
5.56                    -1.56911         34.3628
5.58                    -1.72467         27.1311
5.6                     -2.05194         17.3798
5.62                    -2.81601         2.49216
5.64                    -4.92592        -24.6359
5.66                    -10.9586        -97.2359
5.68                    -6.77693         141.355
5.7                     -2.97394         99.2886
5.72                    -1.74892          78.976
5.74                    -1.25101         66.7658
5.76                    -1.01128          58.296
5.78                   -0.881489         51.9038
5.8                    -0.787682         46.7281
5.82                   -0.715197         42.1845
5.84                   -0.676708         38.1084
5.86                   -0.647325         34.5028
5.88                   -0.598786         31.0794
5.9                    -0.566524         27.5765
5.92                   -0.576575         24.2215
5.94                   -0.562137         20.9956
5.96                   -0.522786         16.5677
5.98                     -1.3551         6.11125
6                      -0.814282         22.7486
6.02                   -0.545542         15.1342
6.04                   -0.503953         11.8226
6.06                   -0.421009         8.77899
6.08                    -0.40052          5.6838
6.1                    -0.415879         3.04127
6.12                   -0.387868        0.609207
6.14                   -0.351584        -2.05521
6.16                   -0.356906        -4.69299
6.18                   -0.357605        -7.05782
6.2                    -0.325537        -9.48319
6.22                   -0.312224        -12.0886
6.24                   -0.324785        -14.5346
6.26                   -0.311862        -16.8427
6.28                   -0.286114        -19.3404
6.3                    -0.293072        -21.8865
6.32                   -0.302741        -24.2162
6.34                   -0.281015        -26.5811
6.36                   -0.272411        -29.1585
6.38                   -0.294893        -31.6253
6.4                    -0.295519        -33.9327
6.42                   -0.277774        -36.4535
6.44                   -0.298827        -39.1017
6.46                   -0.335607        -41.5306
6.48                   -0.343559        -43.9949
6.5                    -0.383103         -46.767
