! TOUCHSTONE file generated by CST MICROWAVE STUDIO
! Date and time: Sat Oct 29 21:02:00 2022
! Project name: L.cst
! Parameters = {Di=1.27; Epsilon_r=1.56; InnerDiameter=1.27; Length=2; Lf=10; Lg=60; OuterConductorThickness=0.2921; OuterDiameter=3.6; Wf=3; Wp=41.2; de=1.5; df=6.8; g=0.8; gx=1.14223; gy=0.483048; h=2.34; hf=1.524; px=13.6765; py=14.6182; w=9.7; wx=12.5342; wy=14.1351}
! Header version: 2018
! Port assignment regex: !\s*Touchstone port\s*([0-9]+)\s*=\s*(CST MWS port|CST DS port)\s*([0-9]+|Zmin|Zmax)\s*\(\"(.*)\"\)(\s*mode\s*([0-9]+))?.*
! Touchstone port assignment:
! Touchstone port 1 = CST MWS port 1 ("")
# GHz S DB R 50
4.5                     -10.2533         110.862
4.52                    -9.86184         110.355
4.54                    -9.53473         109.556
4.56                    -9.26985         108.393
4.58                    -9.05102         106.818
4.6                     -8.86431         104.865
4.62                    -8.70625         102.605
4.64                    -8.58836         100.039
4.66                    -8.53515         97.0368
4.68                    -8.57728         93.2945
4.7                     -8.77105         88.2653
4.72                    -9.26606         81.0703
4.74                    -10.5356         70.3709
4.76                    -14.2775         56.4258
4.78                    -26.5467         95.9036
4.8                     -15.5696         159.718
4.82                    -11.3087         151.794
4.84                    -9.37203          145.18
4.86                    -8.09426         140.505
4.88                    -7.00842         136.583
4.9                     -5.97485         132.502
4.92                    -4.97772         127.677
4.94                    -4.04977         121.771
4.96                    -3.23785         114.611
4.98                    -2.58672         106.139
5                       -2.13595         96.3464
5.02                    -1.93365         85.1962
5.04                    -2.06009         72.5807
5.06                    -2.66342         58.3126
5.08                    -4.02335         42.2947
5.1                     -6.67225         24.9852
5.12                    -11.8769         8.46434
5.14                     -27.405         19.3312
5.16                    -15.8841         138.728
5.18                    -10.0702         127.961
5.2                     -7.34722         115.735
5.22                    -5.78304           103.8
5.24                    -4.81782            91.8
5.26                    -4.22847         79.0191
5.28                    -3.93222         64.4566
5.3                     -3.95286         46.5613
5.32                    -4.45672          22.604
5.34                    -5.78635        -12.4122
5.36                    -7.81447        -65.9764
5.38                     -8.0491        -131.642
5.4                      -6.4102        -179.699
5.42                    -5.06055         150.712
5.44                    -4.16464         130.794
5.46                    -3.39229         115.466
5.48                    -2.54708          97.476
5.5                     -4.04293         82.7728
5.52                    -4.32542         78.2423
5.54                    -4.36175         70.9931
5.56                    -4.50659         62.6244
5.58                    -4.78778         53.3475
5.6                     -5.23767         42.8927
5.62                    -5.93303         30.7011
5.64                    -7.03424         15.7342
5.66                    -8.89095        -4.18524
5.68                    -12.4044        -35.3268
5.7                     -18.8038        -116.267
5.72                    -10.9383         120.766
5.74                     -4.0979         30.8815
5.76                    -2.47742        -61.8727
5.78                     -2.1015        -127.156
5.8                     -1.52566        -168.514
5.82                    -1.01546         163.565
5.84                   -0.609158         142.479
5.86                    -0.62103         121.934
5.88                    -1.85313         115.613
5.9                     -1.29809         108.843
5.92                    -1.04682         100.694
5.94                   -0.925862         93.3576
5.96                   -0.865454         86.7863
5.98                   -0.840515         80.7848
6                      -0.835591         75.1918
6.02                   -0.837776         69.8994
6.04                    -0.83881         64.8561
6.06                   -0.835696         60.0479
6.08                   -0.831112         55.4582
6.1                     -0.83156         51.0537
6.12                   -0.842309         46.7717
6.14                   -0.867648         42.5106
6.16                   -0.916508         38.0839
6.18                    -1.18853         32.3388
6.2                    -0.914023         32.2942
6.22                   -0.922732         27.1237
6.24                   -0.931343         22.7201
6.26                   -0.928276         18.5086
6.28                   -0.919637         14.4221
6.3                    -0.913581         10.4264
6.32                   -0.915939         6.47185
6.34                   -0.927042         2.49616
6.36                   -0.941368        -1.54589
6.38                   -0.950464         -5.6565
6.4                    -0.948816        -9.79417
6.42                   -0.938273        -13.9031
6.44                   -0.927083        -17.9574
6.46                   -0.923699        -21.9852
6.48                   -0.929918        -26.0518
6.5                    -0.938613        -30.2065
