! TOUCHSTONE file generated by CST MICROWAVE STUDIO
! Date and time: Thu Oct 27 10:25:52 2022
! Project name: L.cst
! Parameters = {Di=1.27; Epsilon_r=1.56; InnerDiameter=1.27; Length=2; Lf=10; Lg=60; OuterConductorThickness=0.2921; OuterDiameter=3.6; Wf=3; Wp=41.2; de=1.5; df=6.8; g=0.8; gx=0.925387; gy=0.626114; h=2.34; hf=1.524; px=14.349; py=14.9823; w=9.7; wx=13.4236; wy=14.3562}
! Header version: 2018
! Port assignment regex: !\s*Touchstone port\s*([0-9]+)\s*=\s*(CST MWS port|CST DS port)\s*([0-9]+|Zmin|Zmax)\s*\(\"(.*)\"\)(\s*mode\s*([0-9]+))?.*
! Touchstone port assignment:
! Touchstone port 1 = CST MWS port 1 ("")
# GHz S DB R 50
4.5                     -7.41872         96.7458
4.52                    -7.71245          95.455
4.54                    -7.97451         93.6994
4.56                    -8.20075         92.9302
4.58                    -8.56791         93.2966
4.6                     -9.04648         93.8437
4.62                    -9.41749         94.8282
4.64                    -9.61528         97.3835
4.66                    -9.70612         101.131
4.68                    -9.61393         104.345
4.7                     -9.21488         106.076
4.72                    -8.62706         106.385
4.74                    -8.13247         104.771
4.76                    -7.90206         100.379
4.78                     -8.0757         93.4317
4.8                     -9.16464          85.457
4.82                    -12.3531         82.5496
4.84                    -16.0955         116.965
4.86                    -11.4608         143.443
4.88                    -8.33095         139.096
4.9                     -7.00542         132.969
4.92                     -6.3684         129.228
4.94                    -5.71751           127.4
4.96                    -4.83264         125.645
4.98                    -3.92267         122.361
5                        -3.1723         117.391
5.02                    -2.58722         111.589
5.04                    -2.14972         105.749
5.06                     -1.8513         99.8683
5.08                    -1.64738         93.4216
5.1                     -1.63628         86.0263
5.12                    -2.03963         80.8838
5.14                    -2.10459          77.723
5.16                    -2.02331         72.7967
5.18                    -1.96438         66.7221
5.2                     -1.99523         59.6672
5.22                    -2.16577          50.879
5.24                    -2.52784         39.2186
5.26                    -3.38557         22.7316
5.28                    -5.90359        -4.17793
5.3                     -14.6425        -67.2539
5.32                    -10.5986         142.518
5.34                    -5.69657         102.764
5.36                    -4.25081         80.5511
5.38                    -4.04564         63.2659
5.4                     -4.76316         47.3844
5.42                     -4.9238         45.8171
5.44                    -3.96904         21.5067
5.46                    -5.17063        -7.57991
5.48                    -6.53597        -50.0963
5.5                     -6.84554        -110.429
5.52                      -5.017        -167.673
5.54                    -3.20582         152.813
5.56                     -2.2421         125.427
5.58                    -1.76147         104.418
5.6                     -1.54449         86.7908
5.62                    -1.61625         69.3037
5.64                    -2.01578         46.9835
5.66                    -3.55949           9.314
5.68                    -12.5513        -104.795
5.7                     -6.46916          113.04
5.72                    -6.39803         64.5806
5.74                    -12.7149        -20.3169
5.76                    -4.46993         -179.31
5.78                   -0.900139         128.674
5.8                    -0.333178         105.161
5.82                   -0.304336         91.0393
5.84                   -0.312427         80.7236
5.86                   -0.299087         72.8732
5.88                   -0.334047         66.4691
5.9                    -0.379014          60.574
5.92                   -0.390966         55.1161
5.94                   -0.389318         50.3126
5.96                   -0.422625         45.8085
5.98                   -0.453926         41.2672
6                      -0.448848         36.9027
6.02                   -0.449411         32.8684
6.04                   -0.480579         28.8506
6.06                   -0.497627         24.6957
6.08                   -0.485014         20.6879
6.1                    -0.490043         16.8874
6.12                   -0.519318         12.9678
6.14                   -0.524477         8.90246
6.16                   -0.507711         5.00979
6.18                   -0.518263         1.23782
6.2                    -0.544909        -2.74403
6.22                   -0.538254        -6.83222
6.24                   -0.519712        -10.7077
6.26                   -0.537168        -14.5477
6.28                   -0.558912        -18.6625
6.3                    -0.539542        -22.8068
6.32                   -0.522335        -26.6966
6.34                   -0.547718        -30.6531
6.36                   -0.560887        -34.9235
6.38                   -0.528191        -39.1044
6.4                    -0.516827        -43.0027
6.42                   -0.550413        -47.0994
6.44                    -0.54979        -51.5108
6.46                   -0.504251        -55.6668
6.48                   -0.505209        -59.5523
6.5                    -0.546303        -63.8012
