! TOUCHSTONE file generated by CST MICROWAVE STUDIO
! Date and time: Thu Oct 27 17:59:21 2022
! Project name: L.cst
! Parameters = {Di=1.27; Epsilon_r=1.56; InnerDiameter=1.27; Length=2; Lf=10; Lg=60; OuterConductorThickness=0.2921; OuterDiameter=3.6; Wf=3; Wp=41.2; de=1.5; df=6.8; g=0.8; gx=1.53024; gy=1.96387; h=2.34; hf=1.524; px=14.8277; py=14.9441; w=9.7; wx=13.2974; wy=12.9802}
! Header version: 2018
! Port assignment regex: !\s*Touchstone port\s*([0-9]+)\s*=\s*(CST MWS port|CST DS port)\s*([0-9]+|Zmin|Zmax)\s*\(\"(.*)\"\)(\s*mode\s*([0-9]+))?.*
! Touchstone port assignment:
! Touchstone port 1 = CST MWS port 1 ("")
# GHz S DB R 50
4.5                     -8.30458         92.0014
4.52                    -8.24006         92.4418
4.54                    -8.17132           92.61
4.56                    -8.10728         92.5276
4.58                    -8.05386         92.2149
4.6                       -8.018          91.691
4.62                    -8.00527         90.9892
4.64                    -8.02007         90.1322
4.66                    -8.06887          89.149
4.68                    -8.15655         88.0798
4.7                     -8.28925         86.9558
4.72                    -8.47541         85.8339
4.74                    -8.72218         84.7848
4.76                    -9.04027         83.9029
4.78                    -9.43945         83.3495
4.8                     -9.92567         83.3443
4.82                    -10.4976          84.226
4.84                    -11.1255         86.4694
4.86                    -11.7261         90.5949
4.88                    -12.1325         96.8778
4.9                     -12.1224         104.662
4.92                    -11.5839         112.109
4.94                    -10.6456         117.326
4.96                    -9.57111         119.628
4.98                    -8.57636         119.489
5                       -7.76713         117.821
5.02                     -7.1598         115.521
5.04                    -6.70533         113.259
5.06                    -6.32336         111.273
5.08                    -5.96253         109.429
5.1                     -5.61376         107.625
5.12                    -5.25881         105.907
5.14                    -4.85344         104.157
5.16                    -4.38118         101.932
5.18                    -3.89258          98.843
5.2                     -3.45926         94.9048
5.22                    -3.11999         90.3857
5.24                    -2.87857         85.5505
5.26                    -2.72099         80.5544
5.28                    -2.63103         75.4389
5.3                     -2.59693         70.1804
5.32                    -2.61048         64.7113
5.34                    -2.66741         58.9207
5.36                    -2.76481         52.6523
5.38                    -2.89601          45.635
5.4                     -3.05388         37.2997
5.42                    -3.26933         26.4135
5.44                    -3.76015          10.751
5.46                     -5.3424        -11.8274
5.48                    -8.89076        -31.8976
5.5                       -11.19        -52.7028
5.52                    -11.7289        -97.6109
5.54                    -9.65686        -147.941
5.56                    -6.79041         179.764
5.58                    -3.43437         151.985
5.6                     -2.25387         125.709
5.62                    -2.05844         104.825
5.64                    -3.55427         87.4174
5.66                    -5.03249         98.9435
5.68                    -2.77865         97.0402
5.7                     -1.84566         87.4666
5.72                    -1.45358         78.6987
5.74                    -1.26262         70.7246
5.76                    -1.18008         63.0144
5.78                    -1.26722         54.9725
5.8                     -1.18463         49.9261
5.82                    -1.05186          37.426
5.84                     -1.5398         16.4824
5.86                    -18.5005        -77.8688
5.88                    -3.31118          62.353
5.9                     -2.40314         39.0029
5.92                    -2.63534         20.1095
5.94                    -3.79582        -7.50817
5.96                     -7.0722        -77.4883
5.98                    -3.54113         152.786
6                      -0.889303         96.9125
6.02                   -0.417658         72.6396
6.04                   -0.329903          58.851
6.06                   -0.321651         49.3817
6.08                   -0.331703         42.0527
6.1                    -0.345335         35.9321
6.12                    -0.35804         30.5587
6.14                     -0.3689          25.675
6.16                    -0.37797         21.1311
6.18                    -0.38513         16.8295
6.2                    -0.390841         12.7055
6.22                   -0.395161         8.71549
6.24                   -0.398274         4.82627
6.26                   -0.400444         1.01533
6.28                   -0.401694        -2.73499
6.3                     -0.40217        -6.43806
6.32                   -0.401947        -10.1038
6.34                   -0.401077        -13.7401
6.36                   -0.399598        -17.3529
6.38                   -0.397571        -20.9473
6.4                    -0.395067        -24.5263
6.42                   -0.392028        -28.0927
6.44                   -0.388558        -31.6488
6.46                   -0.384627        -35.1952
6.48                   -0.380167        -38.7337
6.5                    -0.375406        -42.2641
