! TOUCHSTONE file generated by CST MICROWAVE STUDIO
! Date and time: Thu Oct 27 09:07:45 2022
! Project name: L.cst
! Parameters = {Di=1.27; Epsilon_r=1.56; InnerDiameter=1.27; Length=2; Lf=10; Lg=60; OuterConductorThickness=0.2921; OuterDiameter=3.6; Wf=3; Wp=41.2; de=1.5; df=6.8; g=0.8; gx=1.69666; gy=1.44019; h=2.34; hf=1.524; px=13.0503; py=14.2571; w=9.7; wx=11.3536; wy=12.8169}
! Header version: 2018
! Port assignment regex: !\s*Touchstone port\s*([0-9]+)\s*=\s*(CST MWS port|CST DS port)\s*([0-9]+|Zmin|Zmax)\s*\(\"(.*)\"\)(\s*mode\s*([0-9]+))?.*
! Touchstone port assignment:
! Touchstone port 1 = CST MWS port 1 ("")
# GHz S DB R 50
4.5                     -5.08648         40.6045
4.52                    -5.45868         37.6358
4.54                    -5.89688         34.7732
4.56                    -6.36675         31.5839
4.58                    -6.85071         28.5386
4.6                     -7.41803          25.404
4.62                    -8.00572         22.0226
4.64                    -8.64987         18.8186
4.66                    -9.38508         15.3213
4.68                     -10.153         11.7039
4.7                     -11.0355         8.12996
4.72                    -12.0225         4.05521
4.74                    -13.1014      -0.0863183
4.76                    -14.3884         -4.6225
4.78                    -15.8446        -10.0459
4.8                     -17.5748        -16.0379
4.82                    -19.7429        -24.1557
4.84                    -22.3591        -35.7985
4.86                    -25.7045        -55.2211
4.88                    -28.4195        -93.5225
4.9                     -27.2376        -137.722
4.92                    -23.9936        -164.734
4.94                    -21.1908        -179.003
4.96                    -19.0761         171.131
4.98                    -17.3722         163.635
5                       -16.0636         157.539
5.02                    -15.0098         151.958
5.04                     -14.148         147.194
5.06                    -13.4823         142.854
5.08                    -12.9233          138.88
5.1                     -12.4761         135.504
5.12                    -12.1212         132.372
5.14                    -11.8049         129.661
5.16                    -11.5514         127.368
5.18                    -11.3228         125.244
5.2                     -11.0997         123.519
5.22                    -10.9025         122.011
5.24                    -10.6866         120.628
5.26                    -10.4592         119.544
5.28                    -10.2228         118.485
5.3                     -9.93721         117.498
5.32                    -9.62295         116.611
5.34                    -9.25911         115.532
5.36                    -8.81887         114.342
5.38                    -8.32085         112.825
5.4                     -7.73249          110.64
5.42                    -7.06203         107.683
5.44                     -6.3437         103.441
5.46                    -5.58535         97.5979
5.48                    -4.85647          89.894
5.5                     -4.20256         79.7435
5.52                    -3.67605         66.7001
5.54                    -3.38977         49.5836
5.56                    -3.47855           26.47
5.58                    -4.24799        -5.71515
5.6                     -5.79502        -51.4342
5.62                    -6.93098        -110.369
5.64                    -6.12344        -165.525
5.66                    -4.77974         154.564
5.68                    -3.86638         123.908
5.7                     -3.72662         96.9812
5.72                    -4.78656         70.4223
5.74                    -7.97222         47.6742
5.76                    -14.9108         46.2397
5.78                    -13.8905         91.7805
5.8                     -12.9724         89.7827
5.82                    -11.2803          98.541
5.84                     -9.8611         94.4562
5.86                    -8.78153         87.6684
5.88                    -8.30502          80.892
5.9                     -8.09327          72.504
5.92                    -8.00696         65.0592
5.94                    -8.31669         57.2324
5.96                    -8.54168         48.8862
5.98                    -8.74843         43.1058
6                       -8.20561          34.752
6.02                    -4.99621         11.3097
6.04                    -3.79729        -45.8036
6.06                    -4.97836        -100.542
6.08                    -4.56305        -140.631
6.1                     -3.37188        -173.444
6.12                    -1.99756          159.81
6.14                    -1.00184         135.022
6.16                   -0.517569         109.739
6.18                    -1.52236         79.4725
6.2                     -7.66019         57.6057
6.22                    -9.52159         110.514
6.24                    -5.38043         110.316
6.26                    -3.62784         100.409
6.28                     -2.8294         91.6015
6.3                     -2.39167         83.2829
6.32                    -2.08298         76.1973
6.34                    -1.93249         69.6637
6.36                    -1.78519         63.4849
6.38                    -1.70893         57.9677
6.4                     -1.64653         52.3399
6.42                      -1.577         47.3472
6.44                    -1.58877         42.1067
6.46                     -1.4834         36.9755
6.48                    -1.53905         32.4302
6.5                     -1.52643         25.6566
