! TOUCHSTONE file generated by CST MICROWAVE STUDIO
! Date and time: Thu Oct 27 23:07:59 2022
! Project name: L.cst
! Parameters = {Di=1.27; Epsilon_r=1.56; InnerDiameter=1.27; Length=2; Lf=10; Lg=60; OuterConductorThickness=0.2921; OuterDiameter=3.6; Wf=3; Wp=41.2; de=1.5; df=6.8; g=0.8; gx=2.5474; gy=1.80178; h=2.34; hf=1.524; px=14.8039; py=12.9771; w=9.7; wx=12.2565; wy=11.1753}
! Header version: 2018
! Port assignment regex: !\s*Touchstone port\s*([0-9]+)\s*=\s*(CST MWS port|CST DS port)\s*([0-9]+|Zmin|Zmax)\s*\(\"(.*)\"\)(\s*mode\s*([0-9]+))?.*
! Touchstone port assignment:
! Touchstone port 1 = CST MWS port 1 ("")
# GHz S DB R 50
4.5                     -6.25301         48.7516
4.52                    -6.84163         46.3027
4.54                    -7.41727          44.149
4.56                    -8.11745          42.168
4.58                    -8.82047          40.122
4.6                     -9.62187         38.7179
4.62                    -10.5006         37.1589
4.64                     -11.421          36.415
4.66                    -12.4981         35.9769
4.68                     -13.593         36.2357
4.7                     -14.8559         37.8108
4.72                    -16.1793         40.1928
4.74                    -17.5411         45.1117
4.76                    -18.9568         52.0412
4.78                    -20.0538         61.9333
4.8                     -20.7888         74.7733
4.82                    -20.8622         87.4511
4.84                    -20.2971          99.253
4.86                    -19.5083         108.104
4.88                    -18.5247         114.077
4.9                     -17.6066         118.466
4.92                    -16.7766         120.866
4.94                    -16.0012         122.567
4.96                    -15.3784         123.429
4.98                    -14.7976         123.715
5                       -14.3322         123.912
5.02                    -13.9339         123.626
5.04                    -13.5906         123.506
5.06                    -13.3361         123.221
5.08                    -13.0999         123.042
5.1                     -12.9387         123.113
5.12                    -12.7906         123.234
5.14                    -12.6638         123.869
5.16                    -12.5482         124.685
5.18                    -12.3792         125.972
5.2                     -12.1798         127.595
5.22                    -11.8667         129.278
5.24                    -11.4537         131.009
5.26                    -10.9363         132.107
5.28                     -10.327         132.503
5.3                     -9.72258         131.842
5.32                    -9.14933         130.146
5.34                    -8.70236          127.78
5.36                    -8.39866         124.927
5.38                    -8.24467         122.283
5.4                     -8.23543         120.069
5.42                    -8.29051          118.77
5.44                    -8.37483         118.574
5.46                    -8.36909         119.334
5.48                    -8.20823         120.929
5.5                     -7.85163         122.468
5.52                    -7.29172         123.468
5.54                    -6.63319         123.365
5.56                    -5.92366          121.94
5.58                     -5.2566         119.489
5.6                     -4.67844         115.957
5.62                    -4.22038         111.752
5.64                    -4.00963          107.86
5.66                    -3.61901         104.919
5.68                    -3.24644         100.198
5.7                     -3.02303         95.1915
5.72                    -2.90484         90.0868
5.74                    -2.85714         84.7979
5.76                    -2.89477         79.3836
5.78                    -3.03402         73.5536
5.8                     -3.29228         67.3471
5.82                    -3.77072         60.4137
5.84                    -4.58242         52.4919
5.86                    -6.17034         43.5085
5.88                    -9.70084         35.4179
5.9                     -17.7097         73.0384
5.92                    -9.12678         122.645
5.94                    -4.57652         107.971
5.96                    -2.97352         93.1525
5.98                    -2.39197          81.108
6                       -2.21519         71.7159
6.02                    -2.31774          63.276
6.04                     -2.5163         56.0416
6.06                     -3.0228         49.7662
6.08                    -3.54159         44.5149
6.1                     -4.16412         45.7151
6.12                    -2.85994         40.5977
6.14                    -3.06185         25.2185
6.16                    -3.89492         9.60231
6.18                    -6.37474        -15.9755
6.2                     -13.8791        -63.5081
6.22                    -12.7629         150.251
6.24                    -6.21603         107.527
6.26                    -3.89432         85.3434
6.28                    -3.08905         69.3486
6.3                     -3.10854         61.6884
6.32                    -2.06785         57.0083
6.34                    -1.43707         45.8385
6.36                    -1.34581         37.3058
6.38                     -1.3006         29.0337
6.4                      -1.3232         21.8093
6.42                     -1.3725         13.9268
6.44                     -1.4527         6.55913
6.46                    -1.61561         -2.4056
6.48                    -1.75536        -11.0632
6.5                     -2.29014        -23.2044
