! TOUCHSTONE file generated by CST MICROWAVE STUDIO
! Date and time: Fri Oct 28 10:26:16 2022
! Project name: L.cst
! Parameters = {Di=1.27; Epsilon_r=1.56; InnerDiameter=1.27; Length=2; Lf=10; Lg=60; OuterConductorThickness=0.2921; OuterDiameter=3.6; Wf=3; Wp=41.2; de=1.5; df=6.8; g=0.8; gx=3.26535; gy=1.18965; h=2.34; hf=1.524; px=10.5894; py=8.73928; w=9.7; wx=7.32408; wy=7.54963}
! Header version: 2018
! Port assignment regex: !\s*Touchstone port\s*([0-9]+)\s*=\s*(CST MWS port|CST DS port)\s*([0-9]+|Zmin|Zmax)\s*\(\"(.*)\"\)(\s*mode\s*([0-9]+))?.*
! Touchstone port assignment:
! Touchstone port 1 = CST MWS port 1 ("")
# GHz S DB R 50
4.5                    -0.563243         75.9591
4.52                   -0.587231         74.1466
4.54                   -0.612569         72.3144
4.56                   -0.639048         70.4621
4.58                    -0.66647         68.5889
4.6                    -0.694663         66.6938
4.62                   -0.723481         64.7756
4.64                   -0.752803          62.833
4.66                   -0.782533         60.8646
4.68                   -0.812606         58.8689
4.7                    -0.842982         56.8444
4.72                   -0.873642         54.7896
4.74                    -0.90459          52.703
4.76                   -0.935847         50.5835
4.78                   -0.967449         48.4296
4.8                    -0.999446         46.2401
4.82                    -1.03189          44.014
4.84                    -1.06485         41.7504
4.86                    -1.09838         39.4485
4.88                    -1.13254         37.1076
4.9                     -1.16739         34.7271
4.92                    -1.20298         32.3066
4.94                    -1.23936         29.8458
4.96                    -1.27654         27.3447
4.98                    -1.31456         24.8031
5                       -1.35341         22.2211
5.02                    -1.39309          19.599
5.04                    -1.43357          16.937
5.06                    -1.47482         14.2357
5.08                    -1.51679         11.4954
5.1                      -1.5594         8.71697
5.12                    -1.60257         5.90107
5.14                    -1.64622         3.04857
5.16                    -1.69023         0.16045
5.18                    -1.73448        -2.76221
5.2                     -1.77884        -5.71823
5.22                    -1.82319        -8.70629
5.24                    -1.86736         -11.725
5.26                    -1.91122        -14.7728
5.28                     -1.9546        -17.8481
5.3                     -1.99737        -20.9491
5.32                    -2.03935         -24.074
5.34                     -2.0804        -27.2209
5.36                    -2.12037        -30.3876
5.38                    -2.15911         -33.572
5.4                     -2.19651        -36.7718
5.42                    -2.23243        -39.9848
5.44                    -2.26676        -43.2083
5.46                     -2.2994        -46.4401
5.48                    -2.33027        -49.6774
5.5                     -2.35929        -52.9178
5.52                    -2.38643        -56.1587
5.54                    -2.41163        -59.3973
5.56                    -2.43488         -62.631
5.58                    -2.45617        -65.8572
5.6                     -2.47552        -69.0734
5.62                    -2.49294        -72.2768
5.64                    -2.50848        -75.4652
5.66                     -2.5222        -78.6359
5.68                    -2.53415        -81.7866
5.7                      -2.5444        -84.9151
5.72                    -2.55305        -88.0193
5.74                    -2.56016        -91.0969
5.76                    -2.56584        -94.1462
5.78                    -2.57017        -97.1654
5.8                     -2.57325        -100.153
5.82                    -2.57516        -103.107
5.84                    -2.57599        -106.026
5.86                    -2.57583         -108.91
5.88                    -2.57474        -111.757
5.9                      -2.5728        -114.566
5.92                    -2.57007        -117.336
5.94                    -2.56659        -120.067
5.96                    -2.56242        -122.759
5.98                    -2.55759        -125.412
6                       -2.55213        -128.024
6.02                    -2.54607        -130.597
6.04                    -2.53942        -133.131
6.06                    -2.53219        -135.626
6.08                    -2.52441        -138.083
6.1                     -2.51609        -140.503
6.12                    -2.50725        -142.887
6.14                    -2.49791        -145.235
6.16                    -2.48811        -147.549
6.18                    -2.47789         -149.83
6.2                     -2.46732         -152.08
6.22                    -2.45648          -154.3
6.24                    -2.44546        -156.491
6.26                    -2.43438        -158.656
6.28                    -2.42339        -160.796
6.3                     -2.41265        -162.911
6.32                    -2.40235        -165.004
6.34                     -2.3927        -167.076
6.36                    -2.38394        -169.127
6.38                    -2.37632        -171.159
6.4                     -2.37009        -173.172
6.42                    -2.36553        -175.166
6.44                    -2.36292        -177.142
6.46                    -2.36251        -179.098
6.48                    -2.36457         178.966
6.5                     -2.36931         177.051
