! TOUCHSTONE file generated by CST MICROWAVE STUDIO
! Date and time: Thu Oct 27 16:43:59 2022
! Project name: L.cst
! Parameters = {Di=1.27; Epsilon_r=1.56; InnerDiameter=1.27; Length=2; Lf=10; Lg=60; OuterConductorThickness=0.2921; OuterDiameter=3.6; Wf=3; Wp=41.2; de=1.5; df=6.8; g=0.8; gx=3.21671; gy=0.87316; h=2.34; hf=1.524; px=14.199; py=13.0671; w=9.7; wx=10.9823; wy=12.1939}
! Header version: 2018
! Port assignment regex: !\s*Touchstone port\s*([0-9]+)\s*=\s*(CST MWS port|CST DS port)\s*([0-9]+|Zmin|Zmax)\s*\(\"(.*)\"\)(\s*mode\s*([0-9]+))?.*
! Touchstone port assignment:
! Touchstone port 1 = CST MWS port 1 ("")
# GHz S DB R 50
4.5                     -3.84642         34.8804
4.52                    -4.23367         30.3953
4.54                    -4.55004         26.1975
4.56                    -4.92206         20.9136
4.58                    -5.38597          16.005
4.6                     -5.77656         10.4639
4.62                    -6.31117         4.25859
4.64                    -6.82852        -1.76903
4.66                    -7.35692        -9.04974
4.68                    -8.00521        -16.5335
4.7                     -8.56495         -24.635
4.72                    -9.19858           -34.1
4.74                    -9.82178        -43.7116
4.76                    -10.3063        -54.6878
4.78                    -10.8059        -66.5625
4.8                     -11.1029        -78.5014
4.82                     -11.219        -91.4506
4.84                    -11.2491        -103.936
4.86                    -11.0296        -115.816
4.88                    -10.7393         -127.49
4.9                     -10.3976        -137.745
4.92                    -9.95086        -147.349
4.94                     -9.5698        -156.219
4.96                    -9.17072        -163.916
4.98                    -8.78843        -171.312
5                       -8.49125        -177.856
5.02                    -8.18072         176.199
5.04                    -7.94648          170.51
5.06                    -7.75019           165.6
5.08                    -7.56255         160.867
5.1                     -7.45259         156.586
5.12                    -7.33428         152.794
5.14                    -7.26042         149.088
5.16                    -7.22022         145.971
5.18                    -7.16817         143.006
5.2                      -7.1729         140.355
5.22                    -7.15837         138.189
5.24                    -7.15959         136.113
5.26                     -7.1712          134.64
5.28                    -7.13023         133.399
5.3                      -7.0912         132.476
5.32                    -6.96467         131.978
5.34                    -6.77438          131.33
5.36                    -6.52046         130.818
5.38                    -6.16668         129.872
5.4                     -5.80189         128.474
5.42                    -5.38618          126.72
5.44                    -4.97659         124.247
5.46                     -4.5926         121.512
5.48                    -4.20124          118.25
5.5                     -3.86655         114.554
5.52                    -3.53926         110.607
5.54                    -3.24596          106.02
5.56                    -3.01079         101.098
5.58                    -2.80068         95.5403
5.6                     -2.70092         89.2068
5.62                    -2.71751          82.326
5.64                    -2.91792         74.5676
5.66                    -3.42511          66.592
5.68                    -4.22983         59.0874
5.7                     -5.39779         52.7222
5.72                    -6.83791         49.1899
5.74                    -8.33029         48.6351
5.76                    -9.79575         51.9447
5.78                    -10.7134         59.0175
5.8                     -11.0064         66.9312
5.82                    -10.4987         74.5794
5.84                    -9.43151         77.6096
5.86                    -8.23827         77.1927
5.88                    -6.85669         72.2045
5.9                     -5.71142         62.3114
5.92                    -4.76217         48.2871
5.94                    -4.20521         27.6833
5.96                    -4.51008        0.871312
5.98                    -5.53149        -31.6803
6                       -6.81158        -72.8742
6.02                    -7.66296        -120.646
6.04                    -7.22163        -163.478
6.06                     -5.5714         158.966
6.08                    -4.66233         116.706
6.1                      -6.8583         67.8338
6.12                     -16.109        -1.35185
6.14                    -13.8389         -160.03
6.16                    -8.95145         161.435
6.18                    -6.84854         145.182
6.2                     -5.24287             130
6.22                    -4.54973         116.813
6.24                    -3.78708         105.713
6.26                    -3.20049         91.4177
6.28                    -2.99425         75.1017
6.3                     -3.23901         51.5957
6.32                    -5.50506          15.465
6.34                    -11.3453        -47.7538
6.36                      -10.21        -154.091
6.38                    -5.22352           158.5
6.4                     -2.62897         131.058
6.42                    -1.32973         107.902
6.44                    -1.53254         86.3534
6.46                    -3.28654         75.0984
6.48                    -3.81814         77.7887
6.5                     -3.24366          73.053
