! TOUCHSTONE file generated by CST MICROWAVE STUDIO
! Date and time: Fri Oct 28 10:34:10 2022
! Project name: L.cst
! Parameters = {Di=1.27; Epsilon_r=1.56; InnerDiameter=1.27; Length=2; Lf=10; Lg=60; OuterConductorThickness=0.2921; OuterDiameter=3.6; Wf=3; Wp=41.2; de=1.5; df=6.8; g=0.8; gx=4.95408; gy=2.39708; h=2.34; hf=1.524; px=10.6525; py=8.61776; w=9.7; wx=5.69843; wy=6.22067}
! Header version: 2018
! Port assignment regex: !\s*Touchstone port\s*([0-9]+)\s*=\s*(CST MWS port|CST DS port)\s*([0-9]+|Zmin|Zmax)\s*\(\"(.*)\"\)(\s*mode\s*([0-9]+))?.*
! Touchstone port assignment:
! Touchstone port 1 = CST MWS port 1 ("")
# GHz S DB R 50
4.5                     -0.33813         93.3986
4.52                   -0.346628         91.9421
4.54                   -0.355533         90.4703
4.56                   -0.364869         88.9833
4.58                   -0.374647          87.481
4.6                    -0.384868         85.9636
4.62                   -0.395527         84.4309
4.64                   -0.406613          82.883
4.66                   -0.418109         81.3196
4.68                   -0.429994         79.7408
4.7                     -0.44225         78.1462
4.72                   -0.454853         76.5358
4.74                   -0.467781         74.9091
4.76                   -0.481015         73.2661
4.78                   -0.494536         71.6063
4.8                    -0.508328         69.9294
4.82                   -0.522375         68.2351
4.84                   -0.536669          66.523
4.86                   -0.551199         64.7929
4.88                    -0.56596         63.0443
4.9                    -0.580949         61.2769
4.92                   -0.596166         59.4905
4.94                   -0.611612         57.6846
4.96                   -0.627289         55.8591
4.98                   -0.643203         54.0136
5                      -0.659359         52.1479
5.02                   -0.675762         50.2619
5.04                    -0.69242         48.3553
5.06                   -0.709337          46.428
5.08                    -0.72652         44.4799
5.1                    -0.743972         42.5109
5.12                   -0.761697         40.5209
5.14                   -0.779697           38.51
5.16                    -0.79797         36.4783
5.18                   -0.816515         34.4257
5.2                    -0.835326         32.3524
5.22                   -0.854397         30.2585
5.24                   -0.873717         28.1443
5.26                   -0.893275         26.0099
5.28                   -0.913055         23.8557
5.3                     -0.93304         21.6818
5.32                   -0.953212         19.4887
5.34                   -0.973545         17.2768
5.36                   -0.994017         15.0464
5.38                     -1.0146          12.798
5.4                     -1.03526         10.5321
5.42                    -1.05598          8.2493
5.44                    -1.07672         5.95008
5.46                    -1.09744         3.63508
5.48                    -1.11811         1.30494
5.5                     -1.13869        -1.03965
5.52                    -1.15916        -3.39799
5.54                    -1.17946         -5.7693
5.56                    -1.19957        -8.15281
5.58                    -1.21945        -10.5477
5.6                     -1.23906        -12.9531
5.62                    -1.25837        -15.3681
5.64                    -1.27734        -17.7918
5.66                    -1.29594        -20.2232
5.68                    -1.31415        -22.6615
5.7                     -1.33192        -25.1055
5.72                    -1.34923        -27.5542
5.74                    -1.36605        -30.0067
5.76                    -1.38236        -32.4618
5.78                    -1.39814        -34.9184
5.8                     -1.41336        -37.3756
5.82                    -1.42801        -39.8321
5.84                    -1.44207        -42.2869
5.86                    -1.45552        -44.7389
5.88                    -1.46836        -47.1869
5.9                     -1.48056        -49.6299
5.92                    -1.49211        -52.0668
5.94                    -1.50301        -54.4965
5.96                    -1.51325         -56.918
5.98                    -1.52282        -59.3302
6                       -1.53171        -61.7322
6.02                    -1.53991         -64.123
6.04                    -1.54742        -66.5017
6.06                    -1.55422        -68.8673
6.08                    -1.56032        -71.2191
6.1                      -1.5657        -73.5563
6.12                    -1.57036        -75.8782
6.14                    -1.57428        -78.1841
6.16                    -1.57747        -80.4733
6.18                    -1.57991        -82.7455
6.2                     -1.58161        -85.0002
6.22                    -1.58255        -87.2368
6.24                    -1.58274        -89.4553
6.26                    -1.58218        -91.6552
6.28                    -1.58088        -93.8365
6.3                     -1.57884        -95.9992
6.32                    -1.57608        -98.1431
6.34                    -1.57262        -100.268
6.36                     -1.5685        -102.375
6.38                    -1.56375        -104.463
6.4                     -1.55842        -106.533
6.42                    -1.55256        -108.585
6.44                    -1.54625         -110.62
6.46                    -1.53957        -112.637
6.48                    -1.53259        -114.636
6.5                     -1.52543        -116.619
