! TOUCHSTONE file generated by CST MICROWAVE STUDIO
! Date and time: Fri Oct 28 05:41:45 2022
! Project name: L.cst
! Parameters = {Di=1.27; Epsilon_r=1.56; InnerDiameter=1.27; Length=2; Lf=10; Lg=60; OuterConductorThickness=0.2921; OuterDiameter=3.6; Wf=3; Wp=41.2; de=1.5; df=6.8; g=0.8; gx=4.00399; gy=1.08091; h=2.34; hf=1.524; px=10.101; py=12.2691; w=9.7; wx=6.09703; wy=11.1881}
! Header version: 2018
! Port assignment regex: !\s*Touchstone port\s*([0-9]+)\s*=\s*(CST MWS port|CST DS port)\s*([0-9]+|Zmin|Zmax)\s*\(\"(.*)\"\)(\s*mode\s*([0-9]+))?.*
! Touchstone port assignment:
! Touchstone port 1 = CST MWS port 1 ("")
# GHz S DB R 50
4.5                    -0.541762           76.62
4.52                   -0.550288         75.0285
4.54                   -0.541762         73.2722
4.56                   -0.540157         71.3264
4.58                   -0.560394         69.2977
4.6                    -0.597688         67.3156
4.62                   -0.634264         65.4224
4.64                   -0.655686         63.5481
4.66                   -0.662518         61.5814
4.68                     -0.6679         59.4665
4.7                     -0.68492         57.2403
4.72                   -0.715901         54.9871
4.74                   -0.751888         52.7621
4.76                   -0.781314         50.5472
4.78                   -0.799916         48.2713
4.8                    -0.813513         45.8735
4.82                   -0.832056         43.3495
4.84                   -0.860976         40.7463
4.86                   -0.897246         38.1152
4.88                   -0.932712          35.466
4.9                    -0.961307         32.7597
4.92                   -0.983934         29.9411
4.94                    -1.00712         26.9824
4.96                     -1.0372         23.8994
4.98                    -1.07516         20.7304
5                       -1.11638         17.4987
5.02                    -1.15483         14.1897
5.04                    -1.18823         10.7601
5.06                     -1.2198         7.16978
5.08                    -1.25539         3.40867
5.1                     -1.29878       -0.503162
5.12                    -1.34901        -4.53955
5.14                     -1.4017        -8.69562
5.16                     -1.4531        -12.9968
5.18                     -1.5035        -17.4828
5.2                     -1.55734        -22.1805
5.22                    -1.62011        -27.0877
5.24                    -1.69459        -32.1793
5.26                    -1.77943        -37.4291
5.28                    -1.87097        -42.8314
5.3                     -1.96665        -48.4019
5.32                    -2.06748        -54.1624
5.34                    -2.17747        -60.1168
5.36                    -2.30051        -66.2403
5.38                    -2.43706        -72.4881
5.4                     -2.58308        -78.8181
5.42                    -2.73199        -85.2118
5.44                    -2.87841        -91.6783
5.46                    -3.02108        -98.2376
5.48                     -3.1627        -104.896
5.5                      -3.3069        -111.631
5.52                    -3.45475        -118.401
5.54                    -3.60343        -125.169
5.56                    -3.74854        -131.923
5.58                    -3.88849        -138.682
5.6                     -4.02788        -145.475
5.62                    -4.17707        -152.303
5.64                    -4.34785        -159.121
5.66                    -4.54811        -165.846
5.68                    -4.77915        -172.386
5.7                     -5.03756        -178.675
5.72                    -5.32051         175.319
5.74                    -5.63058         169.619
5.76                    -5.97508         164.289
5.78                    -6.35828          159.47
5.8                     -6.76969         155.364
5.82                     -7.1762         152.144
5.84                    -7.52691         149.838
5.86                    -7.77412         148.258
5.88                    -7.89709         147.083
5.9                     -7.90436         146.043
5.92                    -7.81076          145.02
5.94                    -7.61596         143.946
5.96                    -7.31105         142.644
5.98                    -6.90663         140.806
6                       -6.44851         138.179
6.02                    -5.99955         134.758
6.04                    -5.60469         130.791
6.06                    -5.26857         126.607
6.08                    -4.96011         122.388
6.1                     -4.64387         118.025
6.12                    -4.32101         113.199
6.14                    -4.04626         107.664
6.16                    -3.90437          101.53
6.18                    -3.96511         95.3534
6.2                     -4.23684         90.0527
6.22                     -4.6181         86.6453
6.24                    -4.87051         85.5704
6.26                    -4.72588         85.7367
6.28                    -4.14587         84.8339
6.3                     -3.37122          81.351
6.32                    -2.67129         75.4524
6.34                    -2.18089         68.1456
6.36                    -1.90399          60.437
6.38                    -1.76441         52.9179
6.4                     -1.66778         45.5899
6.42                      -1.572         37.9805
6.44                    -1.52384          29.611
6.46                    -1.62404         20.4843
6.48                    -1.95055         11.2332
6.5                     -2.48007         2.91721
