! TOUCHSTONE file generated by CST MICROWAVE STUDIO
! Date and time: Fri Oct 28 03:29:46 2022
! Project name: L.cst
! Parameters = {Di=1.27; Epsilon_r=1.56; InnerDiameter=1.27; Length=2; Lf=10; Lg=60; OuterConductorThickness=0.2921; OuterDiameter=3.6; Wf=3; Wp=41.2; de=1.5; df=6.8; g=0.8; gx=0.683401; gy=2.40649; h=2.34; hf=1.524; px=9.85019; py=14.4254; w=9.7; wx=9.16679; wy=12.0189}
! Header version: 2018
! Port assignment regex: !\s*Touchstone port\s*([0-9]+)\s*=\s*(CST MWS port|CST DS port)\s*([0-9]+|Zmin|Zmax)\s*\(\"(.*)\"\)(\s*mode\s*([0-9]+))?.*
! Touchstone port assignment:
! Touchstone port 1 = CST MWS port 1 ("")
# GHz S DB R 50
4.5                     -1.50866         71.3213
4.52                    -1.62135         69.2541
4.54                    -1.69439         67.8293
4.56                    -1.75896         65.7164
4.58                    -1.88873         64.0851
4.6                     -1.93639         62.2428
4.62                    -2.07083         60.2591
4.64                    -2.15155         58.6211
4.66                    -2.25597         56.4689
4.68                    -2.38848         54.7487
4.7                     -2.47481         52.7162
4.72                    -2.63223         50.7338
4.74                     -2.7377         48.9027
4.76                    -2.88296         46.7291
4.78                    -3.03144         44.9173
4.8                     -3.15938         42.7645
4.82                    -3.34198         40.7641
4.84                    -3.48054         38.7693
4.86                    -3.66843         36.5727
4.88                    -3.84498          34.668
4.9                     -4.02169          32.442
4.92                    -4.23729         30.4424
4.94                    -4.41686         28.3439
4.96                    -4.64984         26.1609
4.98                    -4.86117          24.194
5                       -5.09096          21.936
5.02                     -5.3462         19.9625
5.04                    -5.57454         17.8141
5.06                    -5.85766         15.6999
5.08                    -6.10902         13.7303
5.1                      -6.3945         11.5045
5.12                    -6.69109         9.60491
5.14                    -6.97138           7.452
5.16                    -7.30719         5.45525
5.18                    -7.60198         3.52281
5.2                     -7.94718         1.38565
5.22                    -8.28538        -0.39261
5.24                    -8.62048        -2.52153
5.26                    -9.01007        -4.36772
5.28                    -9.35172        -6.28292
5.3                     -9.76817        -8.33485
5.32                    -10.1581        -10.0142
5.34                    -10.5722        -12.1659
5.36                    -11.0431        -13.8586
5.38                    -11.4705         -15.831
5.4                     -12.0253        -17.7944
5.42                    -12.5463        -19.3325
5.44                    -13.1737        -21.3763
5.46                    -13.8936        -22.3402
5.48                    -14.6152        -23.4993
5.5                     -15.5854        -23.4595
5.52                    -16.4569        -21.7645
5.54                    -17.5186        -18.8859
5.56                    -18.3257        -11.4718
5.58                    -18.6791        -3.35157
5.6                     -18.4348         8.21756
5.62                    -17.1434         16.3772
5.64                     -15.606         22.3661
5.66                    -13.2765         24.2541
5.68                    -10.9056         20.5302
5.7                      -8.0795         12.0925
5.72                    -5.40771        -7.66603
5.74                    -4.19293        -35.1199
5.76                    -4.64744        -62.3915
5.78                    -6.11918        -83.2277
5.8                     -7.42402        -97.7367
5.82                    -8.36669        -111.625
5.84                    -9.25152         -124.15
5.86                    -9.58625         -136.07
5.88                    -9.76282        -150.342
5.9                     -9.78618        -163.028
5.92                    -9.10636        -177.585
5.94                     -8.5244         165.259
5.96                    -7.34075         148.989
5.98                    -5.58317         122.074
6                       -5.51699         83.9306
6.02                    -8.48761         45.3838
6.04                    -15.0361         27.7691
6.06                    -18.1992         50.5293
6.08                    -18.4887         56.5299
6.1                     -17.5585         64.7141
6.12                    -16.4019         56.1289
6.14                    -16.6802         49.8416
6.16                    -16.3045         43.4291
6.18                    -16.9336         33.4467
6.2                     -17.5205         31.3453
6.22                    -17.3714         23.4251
6.24                    -18.2661         14.9156
6.26                    -18.4202         7.98585
6.28                    -19.1013        -10.4142
6.3                     -21.2978        -27.6025
6.32                    -21.8663        -52.2207
6.34                    -21.5017        -106.809
6.36                    -19.9984        -157.524
6.38                    -15.3473         174.669
6.4                     -10.0053         130.193
6.42                    -8.06462          67.738
6.44                    -9.64028        -17.5427
6.46                    -8.62309        -128.486
6.48                    -5.57692         156.279
6.5                     -5.09596         113.012
