! TOUCHSTONE file generated by CST MICROWAVE STUDIO
! Date and time: Thu Oct 27 15:09:04 2022
! Project name: L.cst
! Parameters = {Di=1.27; Epsilon_r=1.56; InnerDiameter=1.27; Length=2; Lf=10; Lg=60; OuterConductorThickness=0.2921; OuterDiameter=3.6; Wf=3; Wp=41.2; de=1.5; df=6.8; g=0.8; gx=2.81087; gy=1.82389; h=2.34; hf=1.524; px=10.5279; py=9.01351; w=9.7; wx=7.71708; wy=7.18962}
! Header version: 2018
! Port assignment regex: !\s*Touchstone port\s*([0-9]+)\s*=\s*(CST MWS port|CST DS port)\s*([0-9]+|Zmin|Zmax)\s*\(\"(.*)\"\)(\s*mode\s*([0-9]+))?.*
! Touchstone port assignment:
! Touchstone port 1 = CST MWS port 1 ("")
# GHz S DB R 50
4.5                    -0.580697         79.2133
4.52                   -0.603167         77.4934
4.54                   -0.626952          75.754
4.56                   -0.651934         73.9948
4.58                   -0.677998         72.2155
4.6                    -0.705033         70.4156
4.62                   -0.732942         68.5944
4.64                    -0.76164         66.7512
4.66                   -0.791057          64.885
4.68                   -0.821138         62.9949
4.7                    -0.851847         61.0799
4.72                   -0.883158         59.1389
4.74                   -0.915065         57.1709
4.76                   -0.947571         55.1749
4.78                   -0.980696         53.1499
4.8                     -1.01446          51.095
4.82                    -1.04891         49.0093
4.84                    -1.08407          46.892
4.86                    -1.11999         44.7425
4.88                    -1.15672           42.56
4.9                      -1.1943          40.344
4.92                    -1.23277         38.0942
4.94                    -1.27217           35.81
4.96                    -1.31253         33.4913
4.98                    -1.35387         31.1379
5                       -1.39622         28.7497
5.02                    -1.43958         26.3266
5.04                    -1.48394         23.8688
5.06                    -1.52929         21.3764
5.08                    -1.57562         18.8497
5.1                     -1.62288          16.289
5.12                    -1.67102         13.6947
5.14                    -1.71998         11.0674
5.16                    -1.76971         8.40752
5.18                     -1.8201         5.71585
5.2                     -1.87109          2.9931
5.22                    -1.92255        0.240094
5.24                    -1.97439        -2.54224
5.26                    -2.02648        -5.35285
5.28                    -2.07871        -8.19075
5.3                     -2.13094        -11.0547
5.32                    -2.18304        -13.9434
5.34                    -2.23487        -16.8556
5.36                     -2.2863        -19.7897
5.38                    -2.33718        -22.7442
5.4                     -2.38737        -25.7174
5.42                    -2.43674        -28.7077
5.44                    -2.48515        -31.7132
5.46                    -2.53249        -34.7321
5.48                    -2.57862        -37.7623
5.5                     -2.62343        -40.8018
5.52                    -2.66683        -43.8484
5.54                     -2.7087        -46.9002
5.56                    -2.74898        -49.9547
5.58                    -2.78759        -53.0099
5.6                     -2.82446        -56.0634
5.62                    -2.85956        -59.1129
5.64                    -2.89283        -62.1561
5.66                    -2.92426        -65.1908
5.68                    -2.95383        -68.2148
5.7                     -2.98153        -71.2257
5.72                    -3.00739        -74.2215
5.74                    -3.03141           -77.2
5.76                    -3.05362         -80.159
5.78                    -3.07405        -83.0968
5.8                     -3.09274        -86.0115
5.82                    -3.10973        -88.9013
5.84                    -3.12507        -91.7645
5.86                    -3.13881        -94.5996
5.88                      -3.151        -97.4052
5.9                     -3.16168         -100.18
5.92                    -3.17092        -102.923
5.94                    -3.17874        -105.633
5.96                    -3.18521        -108.309
5.98                    -3.19036        -110.951
6                       -3.19423        -113.559
6.02                    -3.19687        -116.131
6.04                    -3.19831        -118.667
6.06                    -3.19859        -121.168
6.08                    -3.19775        -123.634
6.1                     -3.19582        -126.065
6.12                    -3.19283        -128.461
6.14                    -3.18886        -130.823
6.16                    -3.18393        -133.152
6.18                    -3.17811        -135.448
6.2                     -3.17148        -137.712
6.22                     -3.1641        -139.946
6.24                    -3.15609         -142.15
6.26                    -3.14754        -144.326
6.28                    -3.13859        -146.474
6.3                     -3.12937        -148.595
6.32                    -3.12004        -150.691
6.34                    -3.11077        -152.763
6.36                    -3.10175        -154.811
6.38                    -3.09319        -156.836
6.4                     -3.08527        -158.839
6.42                    -3.07823         -160.82
6.44                    -3.07227        -162.778
6.46                     -3.0676        -164.715
6.48                     -3.0644        -166.629
6.5                     -3.06286        -168.519
