! TOUCHSTONE file generated by CST MICROWAVE STUDIO
! Date and time: Wed Oct 26 22:55:14 2022
! Project name: L.cst
! Parameters = {Di=1.27; Epsilon_r=1.56; InnerDiameter=1.27; Length=2; Lf=10; Lg=60; OuterConductorThickness=0.2921; OuterDiameter=3.6; Wf=3; Wp=41.2; de=1.5; df=6.8; g=0.8; gx=0.979105; gy=2.50421; h=2.34; hf=1.524; px=13.6348; py=11.4629; w=9.7; wx=12.6557; wy=8.95873}
! Header version: 2018
! Port assignment regex: !\s*Touchstone port\s*([0-9]+)\s*=\s*(CST MWS port|CST DS port)\s*([0-9]+|Zmin|Zmax)\s*\(\"(.*)\"\)(\s*mode\s*([0-9]+))?.*
! Touchstone port assignment:
! Touchstone port 1 = CST MWS port 1 ("")
# GHz S DB R 50
4.5                     -7.69438         93.5551
4.52                    -7.60976         94.6281
4.54                    -7.50349         95.3455
4.56                    -7.38591         95.8615
4.58                    -7.24021         96.1852
4.6                     -7.06946         96.1641
4.62                    -6.90065         95.7594
4.64                     -6.7495         95.0922
4.66                     -6.6086         94.2611
4.68                    -6.46789         93.2287
4.7                     -6.33581         91.9237
4.72                    -6.22568         90.3887
4.74                    -6.13501         88.6922
4.76                    -6.05733         86.8154
4.78                    -5.99592         84.7034
4.8                     -5.96174         82.3442
4.82                    -5.96048         79.7908
4.84                    -5.98585         77.0591
4.86                    -6.03604         74.0753
4.88                    -6.12117         70.7691
4.9                     -6.25347         67.1137
4.92                    -6.44138         63.0853
4.94                    -6.69227         58.6082
4.96                    -7.02276         53.5433
4.98                    -7.46211         47.7435
5                       -8.04324         41.0404
5.02                    -8.80398         33.1163
5.04                    -9.80075          23.369
5.06                    -11.1135         10.6965
5.08                    -12.8063        -7.03103
5.1                     -14.6739        -33.8258
5.12                    -15.4798         -72.714
5.14                    -13.8508        -112.791
5.16                    -11.1596         -142.46
5.18                    -8.77631        -164.232
5.2                     -7.01083         178.216
5.22                    -5.86724         163.474
5.24                    -5.24775         151.631
5.26                    -4.90639         143.035
5.28                    -4.56672         136.814
5.3                     -4.15863         131.457
5.32                    -3.74959         126.225
5.34                     -3.3916         121.038
5.36                    -3.09852         115.966
5.38                    -2.86892         111.054
5.4                     -2.69984         106.335
5.42                    -2.58472         101.861
5.44                    -2.51286         97.6698
5.46                    -2.47177         93.8009
5.48                    -2.43926         90.2941
5.5                      -2.3787          87.076
5.52                    -2.26693         83.8227
5.54                    -2.13595         80.2014
5.56                    -2.03527         76.2264
5.58                    -1.98139         72.0814
5.6                     -1.96702         67.8833
5.62                    -1.97861         63.6505
5.64                     -2.0058         59.3137
5.66                    -2.04867         54.7608
5.68                    -2.11418         49.8931
5.7                      -2.2085         44.5999
5.72                    -2.33995          38.686
5.74                     -2.5325         31.8079
5.76                    -2.86506         23.3971
5.78                    -3.69276          13.589
5.8                     -4.06557         7.35542
5.82                    -4.47159        -10.9562
5.84                    -5.69942        -38.4793
5.86                    -7.22421        -83.9217
5.88                    -6.77279        -147.604
5.9                     -4.40285         159.979
5.92                    -2.75794         126.214
5.94                    -1.95368         104.131
5.96                    -1.57377         88.8247
5.98                    -1.38189         77.4812
6                       -1.27765         68.5019
6.02                    -1.22602         61.0085
6.04                    -1.21035         54.5625
6.06                    -1.20822         48.9005
6.08                    -1.20218         43.7393
6.1                     -1.20015         38.8346
6.12                    -1.22143         34.1477
6.14                     -1.2599         29.7887
6.16                    -1.27825           25.71
6.18                    -1.26198         21.5438
6.2                     -1.26647         16.9685
6.22                    -1.37199         12.1448
6.24                    -1.61475         7.30728
6.26                    -4.26966          7.3381
6.28                    -1.53773         5.87793
6.3                      -1.4335         1.32365
6.32                     -1.3613        -3.38608
6.34                    -1.41131        -8.10334
6.36                    -1.52685        -12.1971
6.38                    -1.59337        -15.7896
6.4                     -1.59203        -19.5828
6.42                    -1.61041        -23.8431
6.44                    -1.70149        -28.1059
6.46                    -1.80868        -31.9464
6.48                    -1.85658        -35.6474
6.5                     -1.87241        -39.7591
