! TOUCHSTONE file generated by CST MICROWAVE STUDIO
! Date and time: Sat Oct 29 01:56:08 2022
! Project name: L.cst
! Parameters = {Di=1.27; Epsilon_r=1.56; InnerDiameter=1.27; Length=2; Lf=10; Lg=60; OuterConductorThickness=0.2921; OuterDiameter=3.6; Wf=3; Wp=41.2; de=1.5; df=6.8; g=0.8; gx=1.28093; gy=2.5112; h=2.34; hf=1.524; px=9.7459; py=13.5455; w=9.7; wx=8.46497; wy=11.0343}
! Header version: 2018
! Port assignment regex: !\s*Touchstone port\s*([0-9]+)\s*=\s*(CST MWS port|CST DS port)\s*([0-9]+|Zmin|Zmax)\s*\(\"(.*)\"\)(\s*mode\s*([0-9]+))?.*
! Touchstone port assignment:
! Touchstone port 1 = CST MWS port 1 ("")
# GHz S DB R 50
4.5                    -0.828429         77.6309
4.52                   -0.827716         75.8435
4.54                   -0.876146         73.9684
4.56                   -0.945342         72.3449
4.58                   -0.982374         70.8751
4.6                    -0.989789         69.2198
4.62                    -1.01466         67.3237
4.64                    -1.07449          65.455
4.66                    -1.13605         63.7764
4.68                    -1.16947         62.1209
4.7                     -1.19168         60.2715
4.72                    -1.23629         58.2833
4.74                    -1.30297         56.3705
4.76                    -1.36165         54.5774
4.78                    -1.39953         52.7287
4.8                      -1.4384         50.7077
4.82                    -1.49933         48.6206
4.84                    -1.57207         46.6188
4.86                    -1.63282         44.6724
4.88                    -1.68054         42.6266
4.9                     -1.73687         40.4395
4.92                    -1.81253         38.2341
4.94                    -1.89247         36.1035
4.96                    -1.95984         33.9743
4.98                    -2.02132         31.7234
5                       -2.09595         29.3633
5.02                    -2.18629         27.0145
5.04                    -2.27551         24.7196
5.06                    -2.35342         22.3814
5.08                    -2.43166         19.9117
5.1                     -2.52562         17.3618
5.12                    -2.63142         14.8396
5.14                    -2.73225         12.3447
5.16                    -2.82406         9.76829
5.18                    -2.92168         7.05702
5.2                     -3.03638         4.29072
5.22                    -3.15905         1.55938
5.24                      -3.274        -1.17527
5.26                    -3.38287        -4.02559
5.28                    -3.50256        -7.01039
5.3                     -3.63984        -10.0273
5.32                    -3.78096        -13.0085
5.34                    -3.91201        -16.0283
5.36                    -4.04036        -19.1982
5.38                    -4.18429        -22.5004
5.4                     -4.34543         -25.813
5.42                    -4.50531        -29.0954
5.44                    -4.65238        -32.4615
5.46                    -4.80033        -36.0203
5.48                    -4.96851        -39.7134
5.5                     -5.15243        -43.4006
5.52                    -5.32835         -47.079
5.54                     -5.4883        -50.9124
5.56                    -5.65411        -55.0062
5.58                    -5.84662        -59.2523
5.6                     -6.05361        -63.4914
5.62                    -6.24525        -67.7745
5.64                    -6.41942        -72.3353
5.66                    -6.61027        -77.2749
5.68                     -6.8419        -82.4164
5.7                     -7.09249        -87.5712
5.72                    -7.32408        -92.8662
5.74                    -7.54431         -98.643
5.76                    -7.80876        -105.002
5.78                    -8.15159        -111.649
5.8                     -8.53808        -118.305
5.82                    -8.91149         -125.18
5.84                    -9.28753        -132.818
5.86                    -9.75877         -141.37
5.88                    -10.3817        -150.316
5.9                     -11.0814        -159.104
5.92                    -11.7077        -168.163
5.94                    -12.2305        -178.908
5.96                    -12.7945         167.732
5.98                    -13.4845         152.231
6                       -14.0604         135.524
6.02                    -13.9639         116.974
6.04                    -12.8339         94.0874
6.06                    -10.9236           66.14
6.08                    -8.78196         35.2902
6.1                     -6.87389         3.92762
6.12                    -5.47751        -26.5141
6.14                    -4.71943        -55.1348
6.16                    -4.61746        -81.0021
6.18                    -5.06385        -102.918
6.2                      -5.7509        -119.906
6.22                    -6.21826        -132.858
6.24                    -6.27579        -145.067
6.26                    -6.21214        -158.764
6.28                    -6.28598        -173.167
6.3                     -6.34245         173.032
6.32                    -6.01166         158.398
6.34                    -5.30291          139.09
6.36                    -4.63595         112.982
6.38                    -4.31948         80.5133
6.4                     -4.38007         43.1482
6.42                    -4.69507          3.0218
6.44                    -5.20436        -36.8188
6.46                    -6.02834        -72.7804
6.48                    -7.28576        -101.006
6.5                     -8.54993        -117.788
