! TOUCHSTONE file generated by CST MICROWAVE STUDIO
! Date and time: Fri Oct 28 20:14:28 2022
! Project name: L.cst
! Parameters = {Di=1.27; Epsilon_r=1.56; InnerDiameter=1.27; Length=2; Lf=10; Lg=60; OuterConductorThickness=0.2921; OuterDiameter=3.6; Wf=3; Wp=41.2; de=1.5; df=6.8; g=0.8; gx=2.08986; gy=4.22468; h=2.34; hf=1.524; px=9.5569; py=13.3925; w=9.7; wx=7.46704; wy=9.16781}
! Header version: 2018
! Port assignment regex: !\s*Touchstone port\s*([0-9]+)\s*=\s*(CST MWS port|CST DS port)\s*([0-9]+|Zmin|Zmax)\s*\(\"(.*)\"\)(\s*mode\s*([0-9]+))?.*
! Touchstone port assignment:
! Touchstone port 1 = CST MWS port 1 ("")
# GHz S DB R 50
4.5                    -0.416079         93.4004
4.52                   -0.428893           91.99
4.54                   -0.441633         90.5695
4.56                   -0.454339         89.1385
4.58                   -0.467055         87.6964
4.6                    -0.479828         86.2429
4.62                   -0.492711         84.7777
4.64                   -0.505749         83.3005
4.66                   -0.518994         81.8111
4.68                   -0.532488         80.3093
4.7                    -0.546277         78.7952
4.72                   -0.560396         77.2686
4.74                    -0.57488         75.7294
4.76                   -0.589757         74.1778
4.78                   -0.605053         72.6137
4.8                    -0.620787         71.0371
4.82                   -0.636973          69.448
4.84                   -0.653624         67.8465
4.86                   -0.670747         66.2327
4.88                   -0.688346         64.6065
4.9                    -0.706421          62.968
4.92                   -0.724973         61.3172
4.94                   -0.743997         59.6541
4.96                   -0.763487         57.9788
4.98                   -0.783438         56.2913
5                      -0.803841         54.5914
5.02                   -0.824691         52.8794
5.04                   -0.845978          51.155
5.06                   -0.867694         49.4184
5.08                   -0.889832         47.6694
5.1                    -0.912385         45.9081
5.12                   -0.935348         44.1345
5.14                   -0.958713         42.3485
5.16                   -0.982477         40.5501
5.18                    -1.00664         38.7394
5.2                     -1.03119         36.9163
5.22                    -1.05614         35.0808
5.24                    -1.08147          33.233
5.26                    -1.10721          31.373
5.28                    -1.13333         29.5007
5.3                     -1.15986         27.6163
5.32                    -1.18678         25.7198
5.34                    -1.21411         23.8114
5.36                    -1.24185         21.8913
5.38                    -1.27001         19.9595
5.4                     -1.29859         18.0163
5.42                    -1.32759         16.0618
5.44                    -1.35703         14.0964
5.46                     -1.3869         12.1203
5.48                    -1.41721         10.1337
5.5                     -1.44796         8.13692
5.52                    -1.47916         6.13037
5.54                     -1.5108         4.11438
5.56                    -1.54289         2.08931
5.58                    -1.57543       0.0555689
5.6                      -1.6084        -1.98642
5.62                    -1.64181        -4.03621
5.64                    -1.67564        -6.09336
5.66                    -1.70989        -8.15739
5.68                    -1.74454        -10.2278
5.7                     -1.77958        -12.3041
5.72                    -1.81499        -14.3859
5.74                    -1.85074        -16.4725
5.76                    -1.88681        -18.5635
5.78                    -1.92317        -20.6584
5.8                     -1.95979        -22.7568
5.82                    -1.99664        -24.8582
5.84                    -2.03368        -26.9621
5.86                    -2.07087        -29.0681
5.88                    -2.10817        -31.1759
5.9                     -2.14552        -33.2852
5.92                     -2.1829        -35.3955
5.94                    -2.22026        -37.5069
5.96                    -2.25754         -39.619
5.98                    -2.29471        -41.7319
6                       -2.33173        -43.8455
6.02                    -2.36857        -45.9599
6.04                     -2.4052        -48.0753
6.06                     -2.4416        -50.1921
6.08                    -2.47776        -52.3105
6.1                      -2.5137        -54.4312
6.12                    -2.54944        -56.5546
6.14                    -2.58502        -58.6817
6.16                    -2.62053        -60.8131
6.18                    -2.65604        -62.9498
6.2                     -2.69171        -65.0928
6.22                    -2.72768        -67.2432
6.24                    -2.76417        -69.4021
6.26                    -2.80143        -71.5706
6.28                    -2.83977        -73.7501
6.3                     -2.87952        -75.9415
6.32                    -2.92111         -78.146
6.34                    -2.96502        -80.3647
6.36                    -3.01178        -82.5981
6.38                      -3.062         -84.847
6.4                     -3.11639        -87.1117
6.42                     -3.1757         -89.392
6.44                    -3.24078        -91.6874
6.46                    -3.31257        -93.9969
6.48                    -3.39211        -96.3187
6.5                      -3.4805        -98.6501
