! TOUCHSTONE file generated by CST MICROWAVE STUDIO
! Date and time: Fri Oct 28 03:00:54 2022
! Project name: L.cst
! Parameters = {Di=1.27; Epsilon_r=1.56; InnerDiameter=1.27; Length=2; Lf=10; Lg=60; OuterConductorThickness=0.2921; OuterDiameter=3.6; Wf=3; Wp=41.2; de=1.5; df=6.8; g=0.8; gx=0.739305; gy=0.414855; h=2.34; hf=1.524; px=12.536; py=13.2751; w=9.7; wx=11.7967; wy=12.8603}
! Header version: 2018
! Port assignment regex: !\s*Touchstone port\s*([0-9]+)\s*=\s*(CST MWS port|CST DS port)\s*([0-9]+|Zmin|Zmax)\s*\(\"(.*)\"\)(\s*mode\s*([0-9]+))?.*
! Touchstone port assignment:
! Touchstone port 1 = CST MWS port 1 ("")
# GHz S DB R 50
4.5                      -11.353         97.8584
4.52                    -11.0028         99.2928
4.54                    -10.7492         100.606
4.56                    -10.3909         101.135
4.58                    -10.1208         101.577
4.6                     -9.77615         101.316
4.62                    -9.51538          100.94
4.64                    -9.20711         99.9236
4.66                    -8.98907         98.7644
4.68                    -8.75041         97.0838
4.7                     -8.60715         95.3009
4.72                    -8.45926         93.1376
4.74                    -8.40536         90.9292
4.76                    -8.35195         88.4393
4.78                    -8.39131         85.9195
4.8                     -8.43444         83.1752
4.82                    -8.57394         80.3737
4.84                    -8.72598         77.3795
4.86                    -8.98544         74.2849
4.88                    -9.27497         71.0091
4.9                     -9.69691         67.5925
4.92                    -10.1791         64.0069
4.94                    -10.8436         60.2388
4.96                    -11.6261         56.3496
4.98                    -12.6907         52.2429
5                       -14.0032         48.1324
5.02                    -15.8423         43.7732
5.04                    -18.3399          39.522
5.06                    -22.4839         34.2901
5.08                     -31.858         25.1016
5.1                     -29.2866        -145.248
5.12                    -19.7927        -157.135
5.14                    -14.8662        -166.392
5.16                    -11.6968        -176.441
5.18                     -9.4369         174.058
5.2                      -7.8041         164.661
5.22                    -6.57433         156.108
5.24                    -5.64904         147.794
5.26                    -4.95224         140.274
5.28                    -4.42709         132.966
5.3                     -4.05641         126.427
5.32                    -3.78317         120.117
5.34                    -3.61417         114.655
5.36                    -3.46046         109.455
5.38                    -3.32588         105.069
5.4                     -3.08248         100.373
5.42                    -2.79986         95.4996
5.44                     -2.4145          88.502
5.46                    -2.21034         79.2333
5.48                    -2.55337          63.617
5.5                     -6.01575         48.0798
5.52                    -9.91944         78.8401
5.54                    -6.28324         91.6792
5.56                    -4.69577         86.5605
5.58                    -3.77058          79.805
5.6                     -3.36189         73.2511
5.62                    -3.01155         66.5749
5.64                    -2.86831         59.8515
5.66                    -2.70593         52.6837
5.68                    -2.68557         44.9209
5.7                     -2.64972         36.1174
5.72                     -2.7742         25.6332
5.74                    -3.00868          12.391
5.76                    -3.78153        -5.80794
5.78                    -5.94809        -31.3526
5.8                     -12.5207         -63.017
5.82                    -28.0011         52.3162
5.84                    -14.6317         49.2987
5.86                     -12.309         26.9817
5.88                    -13.5144        0.842924
5.9                     -17.9098        -55.5518
5.92                    -11.7991         166.619
5.94                    -4.89211         100.441
5.96                    -3.61646         53.1708
5.98                    -4.41047         22.7854
6                        -5.1395        -2.97698
6.02                    -6.30424        -28.1359
6.04                     -7.0209        -55.5489
6.06                    -7.74395        -87.7637
6.08                     -7.5241        -120.048
6.1                     -6.78047        -153.714
6.12                    -5.85554         179.703
6.14                    -4.60056         155.134
6.16                    -3.80604         134.277
6.18                    -2.91468         114.265
6.2                     -2.67718         95.6589
6.22                    -2.05029          77.362
6.24                    -2.13658         55.0532
6.26                    -1.57725         29.7403
6.28                    -2.19024         -23.674
6.3                     -7.55695        -112.632
6.32                    -12.2211         112.427
6.34                    -15.0082         -19.137
6.36                    -8.98345        -127.177
6.38                    -3.17785        -178.941
6.4                    -0.862866         141.212
6.42                   -0.503904         117.248
6.44                  -0.0523154         99.3457
6.46                   -0.274761         85.9844
6.48                  -0.0598285         75.5513
6.5                    -0.310876         65.9818
