! TOUCHSTONE file generated by CST MICROWAVE STUDIO
! Date and time: Thu Oct 27 08:25:36 2022
! Project name: L.cst
! Parameters = {Di=1.27; Epsilon_r=1.56; InnerDiameter=1.27; Length=2; Lf=10; Lg=60; OuterConductorThickness=0.2921; OuterDiameter=3.6; Wf=3; Wp=41.2; de=1.5; df=6.8; g=0.8; gx=2.22735; gy=1.48385; h=2.34; hf=1.524; px=10.0636; py=14.9425; w=9.7; wx=7.83622; wy=13.4586}
! Header version: 2018
! Port assignment regex: !\s*Touchstone port\s*([0-9]+)\s*=\s*(CST MWS port|CST DS port)\s*([0-9]+|Zmin|Zmax)\s*\(\"(.*)\"\)(\s*mode\s*([0-9]+))?.*
! Touchstone port assignment:
! Touchstone port 1 = CST MWS port 1 ("")
# GHz S DB R 50
4.5                     -1.15403         61.8071
4.52                    -1.20576         59.6069
4.54                    -1.26682         57.4042
4.56                    -1.32863         55.2188
4.58                    -1.38228         53.0181
4.6                     -1.42552         50.7391
4.62                    -1.46179         48.3332
4.64                    -1.49682         45.7748
4.66                    -1.53618         43.0708
4.68                    -1.58007          40.244
4.7                     -1.62483         37.2945
4.72                    -1.66596         34.1989
4.74                    -1.69973         30.8997
4.76                    -1.72785         27.3192
4.78                    -1.75595         23.3888
4.8                     -1.79161         19.0453
4.82                    -1.84372         14.2341
4.84                    -1.92041          8.8937
4.86                    -2.03171         2.93386
4.88                     -2.1932         -3.7677
4.9                     -2.43071        -11.3644
4.92                    -2.78667        -20.0206
4.94                    -3.32676        -29.8639
4.96                    -4.14447        -40.8973
4.98                    -5.35931        -52.8749
5                        -7.1043        -65.1546
5.02                    -9.50196        -76.5918
5.04                    -12.6503        -85.4154
5.06                    -16.5907        -88.5317
5.08                    -20.9186        -79.9054
5.1                     -23.4767        -57.0657
5.12                      -23.09        -40.5911
5.14                    -22.2952        -39.4124
5.16                    -22.1488        -47.9869
5.18                    -22.5916        -64.2982
5.2                     -23.1168        -89.4116
5.22                    -22.6537        -122.239
5.24                    -20.6221        -154.318
5.26                    -17.8815        -179.663
5.28                    -15.2263         160.372
5.3                     -12.8941         143.226
5.32                    -10.9043         127.216
5.34                    -9.23192         111.319
5.36                     -7.8529         94.8204
5.38                    -6.75429         77.0564
5.4                     -5.94081         57.2302
5.42                    -5.43994         34.1829
5.44                    -5.32794         6.00647
5.46                    -5.84367        -30.3352
5.48                    -7.82339        -76.3793
5.5                       -11.74        -111.718
5.52                    -10.6673        -126.969
5.54                    -7.35757        -157.961
5.56                    -5.02898         170.582
5.58                     -3.5438         143.336
5.6                     -2.63438         119.765
5.62                    -2.12436         98.4938
5.64                    -1.93672         77.8037
5.66                    -2.13938         54.9398
5.68                    -3.26641         22.9427
5.7                     -8.29605        -50.5182
5.72                      -5.453         150.088
5.74                    -2.14277          95.355
5.76                    -1.47429         69.0737
5.78                    -1.33864         51.4194
5.8                     -1.36617         37.1716
5.82                    -1.47162         24.3632
5.84                    -1.63613         12.0105
5.86                    -1.86494       -0.553175
5.88                    -2.18469        -13.9787
5.9                     -2.68094        -29.2582
5.92                    -3.79338        -48.9092
5.94                    -14.7852        -54.5528
5.96                    -1.27558        -51.3177
5.98                    -1.52415        -87.6021
6                       -1.46922        -120.337
6.02                    -1.11356        -155.379
6.04                   -0.677345         168.938
6.06                     -0.4112         136.031
6.08                   -0.388153         108.222
6.1                    -0.529006         85.7862
6.12                   -0.738744         67.8161
6.14                   -0.963291         53.1792
6.16                     -1.1831         40.9465
6.18                    -1.39668         30.4556
6.2                     -1.60908         21.2806
6.22                    -1.82202         13.1627
6.24                    -2.03083         5.93021
6.26                    -2.22557       -0.560756
6.28                     -2.3958         -6.4704
6.3                     -2.53773        -11.9762
6.32                    -2.65807        -17.2367
6.34                    -2.77164        -22.3448
6.36                    -2.89399        -27.3058
6.38                    -3.03307        -32.0533
6.4                     -3.18359        -36.5009
6.42                    -3.32879        -40.6136
6.44                    -3.44945        -44.4503
6.46                    -3.53559        -48.1568
6.48                    -3.59549        -51.8962
6.5                     -3.65252        -55.7463
