! TOUCHSTONE file generated by CST MICROWAVE STUDIO
! Date and time: Thu Oct 27 15:59:23 2022
! Project name: L.cst
! Parameters = {Di=1.27; Epsilon_r=1.56; InnerDiameter=1.27; Length=2; Lf=10; Lg=60; OuterConductorThickness=0.2921; OuterDiameter=3.6; Wf=3; Wp=41.2; de=1.5; df=6.8; g=0.8; gx=2.31239; gy=2.45294; h=2.34; hf=1.524; px=14.9423; py=14.5784; w=9.7; wx=12.6299; wy=12.1255}
! Header version: 2018
! Port assignment regex: !\s*Touchstone port\s*([0-9]+)\s*=\s*(CST MWS port|CST DS port)\s*([0-9]+|Zmin|Zmax)\s*\(\"(.*)\"\)(\s*mode\s*([0-9]+))?.*
! Touchstone port assignment:
! Touchstone port 1 = CST MWS port 1 ("")
# GHz S DB R 50
4.5                     -5.09496         63.3983
4.52                    -5.48554         61.9669
4.54                    -5.89779         60.6894
4.56                    -6.33102         59.5959
4.58                    -6.78204         58.7161
4.6                     -7.24792         58.0721
4.62                    -7.72479         57.6952
4.64                    -8.20629         57.6062
4.66                    -8.68686         57.8194
4.68                     -9.1585         58.3519
4.7                     -9.61191         59.1943
4.72                    -10.0395         60.3322
4.74                    -10.4311         61.7365
4.76                    -10.7801          63.346
4.78                    -11.0816         65.1072
4.8                     -11.3319         66.9394
4.82                    -11.5337         68.7624
4.84                    -11.6908         70.5128
4.86                    -11.8106         72.1206
4.88                    -11.9039         73.5512
4.9                     -11.9803         74.7804
4.92                    -12.0526         75.7977
4.94                    -12.1324         76.6276
4.96                    -12.2305         77.2974
4.98                    -12.3594          77.858
5                       -12.5295         78.3927
5.02                    -12.7509         78.9963
5.04                     -13.034         79.8216
5.06                    -13.3825         81.0768
5.08                    -13.7938         83.0393
5.1                     -14.2436         86.1027
5.12                    -14.6664          90.681
5.14                    -14.9382         97.0441
5.16                    -14.8784         104.861
5.18                    -14.3543         112.826
5.2                     -13.4064         119.234
5.22                    -12.2337         123.046
5.24                    -11.0525         124.331
5.26                    -9.99334         123.803
5.28                    -9.09113         122.281
5.3                     -8.31346         120.359
5.32                    -7.60236         118.253
5.34                    -6.91765         115.877
5.36                     -6.2524         113.057
5.38                    -5.62214         109.689
5.4                     -5.04889         105.779
5.42                    -4.54766         101.414
5.44                    -4.12474          96.693
5.46                    -3.78069         91.7104
5.48                    -3.51014         86.5335
5.5                     -3.30668         81.1893
5.52                    -3.16363         75.6805
5.54                    -3.07397         69.9705
5.56                    -3.02939         63.9849
5.58                    -3.02726         57.5222
5.6                     -3.07425         50.3819
5.62                    -3.17345         42.1746
5.64                    -3.34672         32.1696
5.66                    -3.68122         18.9842
5.68                    -4.50836         0.59901
5.7                     -6.26934        -22.5268
5.72                    -8.15475        -55.0051
5.74                    -8.96336        -108.976
5.76                    -7.19223        -167.744
5.78                    -5.40671         151.297
5.8                     -4.30242         129.483
5.82                    -2.73112         110.667
5.84                    -2.31826         91.0761
5.86                    -2.88868         74.9681
5.88                    -4.56301         64.2297
5.9                     -6.73588         71.2358
5.92                    -4.85006         84.6791
5.94                    -3.51109         77.1458
5.96                    -2.28865         70.0709
5.98                    -1.71586         61.0679
6                       -1.42797         52.2983
6.02                    -1.26639         43.2633
6.04                    -1.17152         32.4914
6.06                    -1.29797         13.9568
6.08                    -19.8323         3.52312
6.1                      -3.4455         38.1305
6.12                    -2.87014         18.9564
6.14                    -3.28139       -0.738748
6.16                    -4.71698        -33.8134
6.18                    -6.87288        -117.998
6.2                     -2.53634         135.198
6.22                   -0.665588         86.5494
6.24                   -0.331446         63.2314
6.26                   -0.285826         49.3655
6.28                   -0.297179         39.6457
6.3                    -0.318622         32.0555
6.32                   -0.339511         25.6961
6.34                   -0.357685         20.1097
6.36                   -0.373479         15.0409
6.38                   -0.387503         10.3376
6.4                    -0.400434          5.9023
6.42                   -0.412921         1.67203
6.44                   -0.425214        -2.39603
6.46                   -0.437557        -6.33244
6.48                   -0.450016        -10.1578
6.5                    -0.462401        -13.8874
