! TOUCHSTONE file generated by CST MICROWAVE STUDIO
! Date and time: Thu Oct 27 19:41:04 2022
! Project name: L.cst
! Parameters = {Di=1.27; Epsilon_r=1.56; InnerDiameter=1.27; Length=2; Lf=10; Lg=60; OuterConductorThickness=0.2921; OuterDiameter=3.6; Wf=3; Wp=41.2; de=1.5; df=6.8; g=0.8; gx=1.05482; gy=4.89453; h=2.34; hf=1.524; px=9.42815; py=14.1123; w=9.7; wx=8.37333; wy=9.21774}
! Header version: 2018
! Port assignment regex: !\s*Touchstone port\s*([0-9]+)\s*=\s*(CST MWS port|CST DS port)\s*([0-9]+|Zmin|Zmax)\s*\(\"(.*)\"\)(\s*mode\s*([0-9]+))?.*
! Touchstone port assignment:
! Touchstone port 1 = CST MWS port 1 ("")
# GHz S DB R 50
4.5                    -0.513336         94.1547
4.52                   -0.532272         92.7236
4.54                   -0.551204         91.2842
4.56                   -0.570152         89.8355
4.58                   -0.589161         88.3768
4.6                    -0.608288         86.9074
4.62                   -0.627601         85.4267
4.64                   -0.647174         83.9343
4.66                    -0.66709         82.4298
4.68                   -0.687427          80.913
4.7                    -0.708264         79.3837
4.72                   -0.729675         77.8419
4.74                   -0.751732         76.2876
4.76                   -0.774499         74.7209
4.78                    -0.79803         73.1417
4.8                    -0.822377         71.5503
4.82                    -0.84758         69.9468
4.84                   -0.873674         68.3315
4.86                   -0.900688         66.7046
4.88                   -0.928642         65.0662
4.9                    -0.957554         63.4165
4.92                   -0.987433         61.7557
4.94                    -1.01829          60.084
4.96                    -1.05013         58.4016
4.98                    -1.08295         56.7086
5                       -1.11675         55.0051
5.02                    -1.15154         53.2912
5.04                    -1.18732         51.5671
5.06                    -1.22409         49.8329
5.08                    -1.26185         48.0886
5.1                     -1.30061         46.3343
5.12                    -1.34037         44.5702
5.14                    -1.38115         42.7963
5.16                    -1.42296         41.0127
5.18                    -1.46582         39.2196
5.2                     -1.50973         37.4171
5.22                    -1.55473         35.6054
5.24                    -1.60083         33.7846
5.26                    -1.64807          31.955
5.28                    -1.69645         30.1169
5.3                     -1.74603         28.2705
5.32                    -1.79681         26.4162
5.34                    -1.84883         24.5544
5.36                    -1.90212         22.6854
5.38                     -1.9567         20.8099
5.4                     -2.01261         18.9282
5.42                    -2.06985          17.041
5.44                    -2.12845         15.1489
5.46                    -2.18843         13.2525
5.48                     -2.2498         11.3525
5.5                     -2.31256         9.44981
5.52                    -2.37671         7.54508
5.54                    -2.44224         5.63918
5.56                    -2.50915         3.73297
5.58                    -2.57739         1.82735
5.6                     -2.64696      -0.0767723
5.62                     -2.7178        -1.97846
5.64                    -2.78987        -3.87677
5.66                     -2.8631        -5.77076
5.68                    -2.93743        -7.65949
5.7                     -3.01277        -9.54204
5.72                    -3.08903        -11.4175
5.74                    -3.16612        -13.2851
5.76                    -3.24391        -15.1439
5.78                     -3.3223        -16.9932
5.8                     -3.40116        -18.8324
5.82                    -3.48035        -20.6608
5.84                    -3.55973        -22.4781
5.86                    -3.63916        -24.2837
5.88                    -3.71851        -26.0775
5.9                     -3.79762        -27.8592
5.92                    -3.87638         -29.629
5.94                    -3.95464         -31.387
5.96                    -4.03231        -33.1333
5.98                    -4.10929        -34.8686
6                        -4.1855        -36.5932
6.02                     -4.2609        -38.3079
6.04                    -4.33546        -40.0134
6.06                    -4.40922        -41.7105
6.08                    -4.48222        -43.4001
6.1                     -4.55457        -45.0831
6.12                     -4.6264        -46.7604
6.14                    -4.69791        -48.4326
6.16                    -4.76935        -50.1004
6.18                      -4.841        -51.7643
6.2                      -4.9132        -53.4244
6.22                    -4.98635        -55.0805
6.24                    -5.06085         -56.732
6.26                    -5.13717        -58.3779
6.28                    -5.21582        -60.0167
6.3                      -5.2973        -61.6461
6.32                    -5.38211        -63.2632
6.34                    -5.47078        -64.8643
6.36                    -5.56377        -66.4449
6.38                    -5.66153        -67.9996
6.4                     -5.76439        -69.5219
6.42                    -5.87262        -71.0047
6.44                     -5.9863        -72.4394
6.46                    -6.10537        -73.8169
6.48                    -6.22948        -75.1269
6.5                     -6.35804        -76.3586
