! TOUCHSTONE file generated by CST MICROWAVE STUDIO
! Date and time: Thu Oct 27 21:09:44 2022
! Project name: L.cst
! Parameters = {Di=1.27; Epsilon_r=1.56; InnerDiameter=1.27; Length=2; Lf=10; Lg=60; OuterConductorThickness=0.2921; OuterDiameter=3.6; Wf=3; Wp=41.2; de=1.5; df=6.8; g=0.8; gx=2.0513; gy=1.55972; h=2.34; hf=1.524; px=11.2261; py=9.04887; w=9.7; wx=9.17477; wy=7.48916}
! Header version: 2018
! Port assignment regex: !\s*Touchstone port\s*([0-9]+)\s*=\s*(CST MWS port|CST DS port)\s*([0-9]+|Zmin|Zmax)\s*\(\"(.*)\"\)(\s*mode\s*([0-9]+))?.*
! Touchstone port assignment:
! Touchstone port 1 = CST MWS port 1 ("")
# GHz S DB R 50
4.5                     -1.14038          67.006
4.52                    -1.20077          64.997
4.54                    -1.26172         62.9576
4.56                    -1.32335         60.8843
4.58                    -1.38583         58.7739
4.6                     -1.44941         56.6235
4.62                    -1.51434         54.4306
4.64                     -1.5809         52.1928
4.66                    -1.64941         49.9082
4.68                    -1.72015         47.5754
4.7                     -1.79343          45.193
4.72                    -1.86952         42.7601
4.74                    -1.94867         40.2758
4.76                    -2.03112         37.7399
4.78                    -2.11707         35.1518
4.8                     -2.20667         32.5114
4.82                    -2.30006         29.8187
4.84                    -2.39733         27.0737
4.86                    -2.49851         24.2766
4.88                    -2.60363         21.4277
4.9                     -2.71265         18.5271
4.92                     -2.8255         15.5753
4.94                    -2.94206         12.5726
4.96                    -3.06218         9.51945
4.98                    -3.18567         6.41628
5                       -3.31231         3.26364
5.02                    -3.44182       0.0621465
5.04                    -3.57389        -3.18752
5.06                    -3.70819        -6.48455
5.08                    -3.84435        -9.82804
5.1                     -3.98196        -13.2169
5.12                    -4.12059        -16.6499
5.14                    -4.25978        -20.1256
5.16                    -4.39906        -23.6424
5.18                    -4.53792        -27.1982
5.2                     -4.67585         -30.791
5.22                    -4.81235        -34.4182
5.24                    -4.94689         -38.077
5.26                    -5.07896        -41.7642
5.28                    -5.20808        -45.4766
5.3                     -5.33376        -49.2103
5.32                    -5.45555        -52.9612
5.34                    -5.57305        -56.7248
5.36                    -5.68589        -60.4966
5.38                    -5.79375        -64.2716
5.4                     -5.89636        -68.0448
5.42                    -5.99352        -71.8108
5.44                    -6.08508        -75.5644
5.46                    -6.17097        -79.3002
5.48                    -6.25117        -83.0129
5.5                     -6.32572        -86.6972
5.52                    -6.39472         -90.348
5.54                    -6.45834        -93.9605
5.56                    -6.51677        -97.5299
5.58                    -6.57026        -101.052
5.6                     -6.61909        -104.522
5.62                    -6.66357        -107.938
5.64                    -6.70402        -111.294
5.66                    -6.74079         -114.59
5.68                     -6.7742        -117.821
5.7                     -6.80459        -120.985
5.72                     -6.8323        -124.081
5.74                    -6.85763        -127.107
5.76                    -6.88089        -130.062
5.78                    -6.90233        -132.945
5.8                     -6.92221        -135.755
5.82                    -6.94074        -138.492
5.84                     -6.9581        -141.155
5.86                    -6.97446        -143.745
5.88                    -6.98994        -146.262
5.9                     -7.00464        -148.706
5.92                    -7.01863        -151.079
5.94                    -7.03195        -153.381
5.96                    -7.04461        -155.613
5.98                    -7.05662        -157.776
6                       -7.06794        -159.872
6.02                    -7.07854        -161.901
6.04                    -7.08835        -163.866
6.06                     -7.0973        -165.768
6.08                    -7.10532        -167.609
6.1                      -7.1123         -169.39
6.12                    -7.11816        -171.113
6.14                    -7.12278         -172.78
6.16                    -7.12607        -174.394
6.18                    -7.12792        -175.955
6.2                     -7.12821        -177.466
6.22                    -7.12681        -178.928
6.24                    -7.12362         179.656
6.26                     -7.1185         178.285
6.28                    -7.11132         176.957
6.3                     -7.10192          175.67
6.32                    -7.09015         174.422
6.34                    -7.07584         173.211
6.36                    -7.05879         172.036
6.38                    -7.03881         170.895
6.4                     -7.01567         169.785
6.42                    -6.98915         168.704
6.44                    -6.95899         167.649
6.46                    -6.92495         166.619
6.48                    -6.88678         165.608
6.5                     -6.84425         164.615
