! TOUCHSTONE file generated by CST MICROWAVE STUDIO
! Date and time: Sat Oct 29 21:09:58 2022
! Project name: L.cst
! Parameters = {Di=1.27; Epsilon_r=1.56; InnerDiameter=1.27; Length=2; Lf=10; Lg=60; OuterConductorThickness=0.2921; OuterDiameter=3.6; Wf=3; Wp=41.2; de=1.5; df=6.8; g=0.8; gx=0.967896; gy=4.28566; h=2.34; hf=1.524; px=12.2777; py=8.05825; w=9.7; wx=11.3098; wy=3.77258}
! Header version: 2018
! Port assignment regex: !\s*Touchstone port\s*([0-9]+)\s*=\s*(CST MWS port|CST DS port)\s*([0-9]+|Zmin|Zmax)\s*\(\"(.*)\"\)(\s*mode\s*([0-9]+))?.*
! Touchstone port assignment:
! Touchstone port 1 = CST MWS port 1 ("")
# GHz S DB R 50
4.5                     -1.29304         82.2911
4.52                    -1.35817         80.2767
4.54                    -1.44562         78.2558
4.56                    -1.54659         76.3074
4.58                    -1.64729         74.4359
4.6                     -1.73905         72.5772
4.62                    -1.82388         70.6501
4.64                    -1.91203         68.6143
4.66                    -2.01421         66.4931
4.68                    -2.13457         64.3501
4.7                     -2.26889         62.2424
4.72                     -2.4085         60.1834
4.74                    -2.54683          58.138
4.76                     -2.6841         56.0513
4.78                     -2.8269         53.8892
4.8                     -2.98345         51.6612
4.82                    -3.15822         49.4116
4.84                     -3.3495         47.1888
4.86                    -3.55129         45.0136
4.88                    -3.75799         42.8683
4.9                     -3.96869         40.7132
4.92                    -4.18801         38.5181
4.94                    -4.42308          36.286
4.96                    -4.67889         34.0542
4.98                    -4.95528         31.8719
5                       -5.24743         29.7705
5.02                    -5.54962         27.7473
5.04                     -5.8596         25.7735
5.06                    -6.18057         23.8215
5.08                    -6.51917         21.8938
5.1                     -6.88095         20.0314
5.12                    -7.26618         18.2969
5.14                    -7.66917         16.7419
5.16                    -8.08148          15.382
5.18                     -8.4973         14.1963
5.2                     -8.91691         13.1572
5.22                    -9.34529         12.2692
5.24                    -9.78623         11.5874
5.26                    -10.2358         11.1989
5.28                    -10.6803         11.1741
5.3                     -11.0999         11.5194
5.32                    -11.4787         12.1689
5.34                    -11.8104         13.0291
5.36                    -12.0972         14.0433
5.38                    -12.3397         15.2162
5.4                      -12.528         16.5702
5.42                    -12.6429         18.0629
5.44                    -12.6684         19.5429
5.46                    -12.6049         20.7963
5.48                    -12.4723         21.6557
5.5                     -12.2971         22.0748
5.52                    -12.0972         22.1083
5.54                    -11.8755         21.8252
5.56                    -11.6259         21.2294
5.58                    -11.3455         20.2455
5.6                     -11.0442         18.7758
5.62                    -10.7418         16.7777
5.64                    -10.4581         14.2988
5.66                    -10.2028         11.4479
5.68                    -9.97182         8.32638
5.7                     -9.75251         4.96591
5.72                    -9.53418         1.30986
5.74                    -9.31737        -2.74678
5.76                    -9.11551         -7.2841
5.78                    -8.94757        -12.3019
5.8                     -8.82725        -17.7158
5.82                    -8.75495        -23.4062
5.84                    -8.71711          -29.29
5.86                    -8.69365         -35.378
5.88                    -8.67054        -41.7806
5.9                      -8.6499        -48.6422
5.92                    -8.64982        -56.0374
5.94                    -8.69173        -63.8871
5.96                    -8.78091        -71.9476
5.98                    -8.88691        -79.8874
6                       -8.93244        -87.4652
6.02                    -8.80648        -94.7838
6.04                    -8.41587        -102.444
6.06                    -7.74923        -111.329
6.08                    -6.88762        -122.099
6.1                     -5.95223         -134.89
6.12                    -5.05087          -149.4
6.14                    -4.25934        -165.116
6.16                    -3.62541          178.52
6.18                    -3.17699         162.049
6.2                     -2.92625         145.979
6.22                    -2.86864         130.791
6.24                    -2.97734         116.932
6.26                     -3.1958         104.762
6.28                    -3.43648         94.4234
6.3                     -3.60097         85.6732
6.32                    -3.62792         77.8565
6.34                    -3.53548         70.1992
6.36                    -3.40995         62.2481
6.38                    -3.34866         54.0714
6.4                     -3.40666         46.1439
6.42                     -3.5677          39.081
6.44                    -3.73833         33.2899
6.46                    -3.78309         28.5615
6.48                    -3.61959         23.9333
6.5                     -3.30452         18.2366
