! TOUCHSTONE file generated by CST MICROWAVE STUDIO
! Date and time: Fri Oct 28 04:22:58 2022
! Project name: L.cst
! Parameters = {Di=1.27; Epsilon_r=1.56; InnerDiameter=1.27; Length=2; Lf=10; Lg=60; OuterConductorThickness=0.2921; OuterDiameter=3.6; Wf=3; Wp=41.2; de=1.5; df=6.8; g=0.8; gx=4.32031; gy=1.36362; h=2.34; hf=1.524; px=11.3521; py=9.79685; w=9.7; wx=7.03178; wy=8.43323}
! Header version: 2018
! Port assignment regex: !\s*Touchstone port\s*([0-9]+)\s*=\s*(CST MWS port|CST DS port)\s*([0-9]+|Zmin|Zmax)\s*\(\"(.*)\"\)(\s*mode\s*([0-9]+))?.*
! Touchstone port assignment:
! Touchstone port 1 = CST MWS port 1 ("")
# GHz S DB R 50
4.5                    -0.491555         80.0865
4.52                   -0.511185         78.2251
4.54                   -0.533972         76.3429
4.56                    -0.55948         74.4409
4.58                   -0.587267         72.5196
4.6                    -0.616902         70.5788
4.62                   -0.647979         68.6176
4.64                   -0.680125         66.6347
4.66                   -0.713016         64.6283
4.68                   -0.746375         62.5963
4.7                    -0.779975         60.5362
4.72                    -0.81365         58.4457
4.74                   -0.847282         56.3219
4.76                   -0.880802         54.1623
4.78                   -0.914196         51.9642
4.8                     -0.94748          49.725
4.82                   -0.980712         47.4423
4.84                    -1.01398         45.1139
4.86                    -1.04738         42.7376
4.88                    -1.08104         40.3116
4.9                     -1.11508         37.8343
4.92                    -1.14965         35.3043
4.94                    -1.18485         32.7205
4.96                    -1.22081         30.0819
4.98                    -1.25762         27.3878
5                       -1.29538         24.6377
5.02                    -1.33414         21.8314
5.04                    -1.37394         18.9688
5.06                     -1.4148         16.0502
5.08                    -1.45669         13.0757
5.1                     -1.49958         10.0459
5.12                    -1.54339         6.96155
5.14                    -1.58803         3.82352
5.16                    -1.63338        0.632845
5.18                    -1.67929        -2.60921
5.2                     -1.72558        -5.90123
5.22                    -1.77208        -9.24159
5.24                    -1.81856        -12.6285
5.26                    -1.86481        -16.0599
5.28                    -1.91061        -19.5337
5.3                      -1.9557        -23.0475
5.32                    -1.99985        -26.5986
5.34                    -2.04281        -30.1844
5.36                    -2.08435        -33.8017
5.38                    -2.12425        -37.4475
5.4                      -2.1623        -41.1184
5.42                    -2.19829         -44.811
5.44                    -2.23207        -48.5214
5.46                    -2.26347        -52.2461
5.48                    -2.29239         -55.981
5.5                     -2.31873        -59.7223
5.52                    -2.34243        -63.4659
5.54                    -2.36347        -67.2078
5.56                    -2.38186         -70.944
5.58                    -2.39762        -74.6704
5.6                     -2.41083        -78.3831
5.62                    -2.42159        -82.0784
5.64                    -2.43001        -85.7525
5.66                    -2.43624        -89.4017
5.68                    -2.44045        -93.0228
5.7                      -2.4428        -96.6125
5.72                    -2.44349        -100.168
5.74                    -2.44272        -103.686
5.76                    -2.44067        -107.164
5.78                    -2.43755        -110.599
5.8                     -2.43355        -113.991
5.82                    -2.42883        -117.336
5.84                    -2.42359        -120.633
5.86                    -2.41796         -123.88
5.88                    -2.41207        -127.077
5.9                     -2.40605        -130.223
5.92                    -2.39999        -133.315
5.94                    -2.39396        -136.356
5.96                    -2.38802        -139.342
5.98                    -2.38219        -142.276
6                       -2.37648        -145.157
6.02                    -2.37089        -147.986
6.04                    -2.36541        -150.763
6.06                    -2.35999        -153.489
6.08                    -2.35461        -156.166
6.1                     -2.34921        -158.794
6.12                    -2.34376        -161.377
6.14                    -2.33824        -163.915
6.16                    -2.33261         -166.41
6.18                    -2.32689        -168.866
6.2                      -2.3211        -171.284
6.22                     -2.3153        -173.667
6.24                    -2.30959        -176.018
6.26                    -2.30409        -178.339
6.28                    -2.29899         179.367
6.3                     -2.29451         177.098
6.32                    -2.29093         174.851
6.34                    -2.28856         172.623
6.36                    -2.28778         170.414
6.38                    -2.28899         168.221
6.4                     -2.29264         166.044
6.42                     -2.2992         163.882
6.44                    -2.30917         161.735
6.46                    -2.32306         159.603
6.48                    -2.34136         157.488
6.5                     -2.36454         155.392
