! TOUCHSTONE file generated by CST MICROWAVE STUDIO
! Date and time: Sat Oct 29 18:06:01 2022
! Project name: L.cst
! Parameters = {Di=1.27; Epsilon_r=1.56; InnerDiameter=1.27; Length=2; Lf=10; Lg=60; OuterConductorThickness=0.2921; OuterDiameter=3.6; Wf=3; Wp=41.2; de=1.5; df=6.8; g=0.8; gx=2.26772; gy=2.06193; h=2.34; hf=1.524; px=10.0541; py=14.8849; w=9.7; wx=7.78636; wy=12.823}
! Header version: 2018
! Port assignment regex: !\s*Touchstone port\s*([0-9]+)\s*=\s*(CST MWS port|CST DS port)\s*([0-9]+|Zmin|Zmax)\s*\(\"(.*)\"\)(\s*mode\s*([0-9]+))?.*
! Touchstone port assignment:
! Touchstone port 1 = CST MWS port 1 ("")
# GHz S DB R 50
4.5                    -0.806439         71.8581
4.52                   -0.837682         70.0778
4.54                   -0.868932         68.2761
4.56                   -0.899492         66.4473
4.58                   -0.928969         64.5786
4.6                    -0.959418         62.6604
4.62                   -0.992297         60.7013
4.64                    -1.02702         58.7067
4.66                    -1.06316         56.6785
4.68                    -1.09904         54.6149
4.7                     -1.13434         52.4993
4.72                    -1.17076         50.3269
4.74                    -1.20864         48.0984
4.76                    -1.24862         45.8143
4.78                    -1.28971         43.4809
4.8                     -1.33009         41.0875
4.82                    -1.36995          38.621
4.84                     -1.4094         36.0712
4.86                    -1.44946         33.4268
4.88                    -1.49079          30.687
4.9                     -1.53224         27.8453
4.92                    -1.57309         24.8848
4.94                    -1.61313         21.7843
4.96                     -1.6532         18.5164
4.98                    -1.69559         15.0573
5                       -1.74206         11.3881
5.02                    -1.79401         7.48253
5.04                    -1.85336         3.30646
5.06                    -1.92307          -1.185
5.08                    -2.00856        -6.04582
5.1                     -2.11796        -11.3304
5.12                    -2.26163        -17.0943
5.14                    -2.45311        -23.3983
5.16                    -2.71117        -30.3058
5.18                    -3.06176        -37.8715
5.2                     -3.54095        -46.1197
5.22                    -4.19509        -54.9912
5.24                    -5.07493        -64.2959
5.26                    -6.22594        -73.6735
5.28                    -7.67037        -82.5952
5.3                     -9.38945        -90.4649
5.32                    -11.3161        -96.7887
5.34                    -13.3374          -101.4
5.36                    -15.3217        -104.768
5.38                    -17.1851         -108.22
5.4                     -18.9624        -113.927
5.42                     -20.807        -124.985
5.44                    -22.7448        -146.443
5.46                     -23.625         175.312
5.48                    -21.2148         130.592
5.5                     -17.0466         96.3871
5.52                    -13.0198         68.1166
5.54                    -9.55712         39.2123
5.56                    -6.91439          6.5122
5.58                    -5.42519         -29.497
5.6                     -5.06857        -65.3565
5.62                    -5.32876        -98.5654
5.64                    -5.68291        -129.083
5.66                    -5.86425        -157.645
5.68                    -5.82541         175.231
5.7                     -5.65807         149.287
5.72                    -5.52685          124.49
5.74                    -5.60291         101.394
5.76                    -5.85782         81.9135
5.78                    -5.44454         66.5248
5.8                     -3.93735         43.9151
5.82                    -3.14765         10.2811
5.84                    -3.37689        -27.4622
5.86                    -3.94008        -67.4833
5.88                    -4.22638        -108.961
5.9                     -3.94676        -148.948
5.92                    -3.28179         175.597
5.94                     -2.5648         145.476
5.96                    -1.98394         119.966
5.98                    -1.58371         98.0209
6                       -1.34459         78.7154
6.02                    -1.23008         61.2837
6.04                    -1.20405         45.0691
6.06                     -1.2285         29.4304
6.08                     -1.2428         13.4754
6.1                      -1.0543        -6.29612
6.12                    -3.81515        -16.2387
6.14                    -2.76838        -34.4977
6.16                    -2.72011        -58.1997
6.18                    -2.63145        -87.9645
6.2                     -2.20178        -125.772
6.22                    -1.36874        -170.202
6.24                   -0.599547          145.36
6.26                   -0.323455         107.961
6.28                   -0.430808         79.5243
6.3                     -0.68985         58.2663
6.32                   -0.979594         41.9484
6.34                    -1.25636         28.9376
6.36                    -1.50856         18.1753
6.38                    -1.73652         8.98484
6.4                     -1.94514        0.932197
6.42                    -2.13961        -6.25638
6.44                    -2.32236        -12.7564
6.46                    -2.49283         -18.695
6.48                    -2.64979        -24.1812
6.5                     -2.79408        -29.3103
