! TOUCHSTONE file generated by CST MICROWAVE STUDIO
! Date and time: Thu Oct 27 13:21:09 2022
! Project name: L.cst
! Parameters = {Di=1.27; Epsilon_r=1.56; InnerDiameter=1.27; Length=2; Lf=10; Lg=60; OuterConductorThickness=0.2921; OuterDiameter=3.6; Wf=3; Wp=41.2; de=1.5; df=6.8; g=0.8; gx=1.75037; gy=3.6751; h=2.34; hf=1.524; px=11.4454; py=11.276; w=9.7; wx=9.69499; wy=7.60093}
! Header version: 2018
! Port assignment regex: !\s*Touchstone port\s*([0-9]+)\s*=\s*(CST MWS port|CST DS port)\s*([0-9]+|Zmin|Zmax)\s*\(\"(.*)\"\)(\s*mode\s*([0-9]+))?.*
! Touchstone port assignment:
! Touchstone port 1 = CST MWS port 1 ("")
# GHz S DB R 50
4.5                    -0.774378         86.2085
4.52                   -0.808187         84.6138
4.54                   -0.842903          83.004
4.56                   -0.878563         81.3784
4.58                   -0.915219         79.7361
4.6                    -0.952939         78.0764
4.62                   -0.991796         76.3985
4.64                    -1.03188         74.7017
4.66                    -1.07329         72.9855
4.68                    -1.11611         71.2493
4.7                     -1.16047         69.4927
4.72                    -1.20647         67.7152
4.74                    -1.25422         65.9164
4.76                    -1.30384         64.0961
4.78                    -1.35544         62.2541
4.8                     -1.40913         60.3901
4.82                    -1.46504         58.5041
4.84                    -1.52326         56.5959
4.86                    -1.58391         54.6656
4.88                    -1.64709         52.7131
4.9                      -1.7129         50.7385
4.92                    -1.78144         48.7419
4.94                     -1.8528         46.7235
4.96                    -1.92707         44.6833
4.98                    -2.00435         42.6216
5                        -2.0847         40.5386
5.02                     -2.1682         38.4346
5.04                    -2.25493         36.3097
5.06                    -2.34495         34.1644
5.08                    -2.43833          31.999
5.1                     -2.53513         29.8138
5.12                     -2.6354         27.6092
5.14                     -2.7392         25.3856
5.16                    -2.84656         23.1435
5.18                    -2.95754         20.8833
5.2                     -3.07216         18.6056
5.22                    -3.19047          16.311
5.24                    -3.31249              14
5.26                    -3.43823         11.6734
5.28                    -3.56773         9.33181
5.3                     -3.70099         6.97596
5.32                    -3.83802         4.60673
5.34                    -3.97882         2.22502
5.36                    -4.12338       -0.168203
5.38                    -4.27168        -2.57189
5.4                     -4.42369        -4.98489
5.42                    -4.57939        -7.40598
5.44                    -4.73872        -9.83382
5.46                    -4.90163         -12.267
5.48                    -5.06803        -14.7039
5.5                     -5.23784        -17.1429
5.52                    -5.41095        -19.5822
5.54                    -5.58722        -22.0199
5.56                    -5.76651        -24.4539
5.58                    -5.94863        -26.8821
5.6                     -6.13337        -29.3021
5.62                    -6.32048        -31.7115
5.64                    -6.50968        -34.1078
5.66                    -6.70064        -36.4882
5.68                    -6.89299        -38.8502
5.7                     -7.08629        -41.1908
5.72                    -7.28006        -43.5073
5.74                    -7.47376        -45.7969
5.76                    -7.66675        -48.0569
5.78                    -7.85836        -50.2848
5.8                     -8.04781        -52.4783
5.82                    -8.23426        -54.6354
5.84                    -8.41679        -56.7546
5.86                     -8.5944        -58.8348
5.88                    -8.76603        -60.8759
5.9                     -8.93057        -62.8783
5.92                    -9.08686        -64.8437
5.94                    -9.23371        -66.7747
5.96                    -9.36996        -68.6751
5.98                    -9.49447        -70.5501
6                        -9.6062        -72.4063
6.02                     -9.7042        -74.2515
6.04                    -9.78769        -76.0951
6.06                    -9.85608        -77.9473
6.08                    -9.90901        -79.8195
6.1                      -9.9464         -81.724
6.12                    -9.96841        -83.6734
6.14                    -9.97554        -85.6807
6.16                    -9.96855        -87.7586
6.18                     -9.9485        -89.9197
6.2                      -9.9167        -92.1758
6.22                    -9.87468        -94.5379
6.24                    -9.82418        -97.0163
6.26                    -9.76713        -99.6201
6.28                    -9.70554        -102.358
6.3                     -9.64157        -105.236
6.32                     -9.5774        -108.262
6.34                    -9.51532        -111.442
6.36                     -9.4576         -114.78
6.38                     -9.4066        -118.283
6.4                     -9.36466        -121.956
6.42                    -9.33418        -125.805
6.44                    -9.31759        -129.836
6.46                    -9.31738        -134.058
6.48                    -9.33612        -138.479
6.5                     -9.37647        -143.111
