! TOUCHSTONE file generated by CST MICROWAVE STUDIO
! Date and time: Sat Oct 29 09:26:09 2022
! Project name: L.cst
! Parameters = {Di=1.27; Epsilon_r=1.56; InnerDiameter=1.27; Length=2; Lf=10; Lg=60; OuterConductorThickness=0.2921; OuterDiameter=3.6; Wf=3; Wp=41.2; de=1.5; df=6.8; g=0.8; gx=0.636917; gy=2.91733; h=2.34; hf=1.524; px=11.6217; py=14.9632; w=9.7; wx=10.9848; wy=12.0459}
! Header version: 2018
! Port assignment regex: !\s*Touchstone port\s*([0-9]+)\s*=\s*(CST MWS port|CST DS port)\s*([0-9]+|Zmin|Zmax)\s*\(\"(.*)\"\)(\s*mode\s*([0-9]+))?.*
! Touchstone port assignment:
! Touchstone port 1 = CST MWS port 1 ("")
# GHz S DB R 50
4.5                     -3.74721         73.0015
4.52                    -3.91775         71.6447
4.54                    -4.11234         70.9267
4.56                    -4.36624         69.9046
4.58                    -4.54245         68.8582
4.6                     -4.73991         68.3615
4.62                     -4.9782         67.5975
4.64                    -5.14259         66.8482
4.66                    -5.32292         66.5611
4.68                    -5.52854         66.0185
4.7                     -5.66325         65.4887
4.72                    -5.80888         65.3256
4.74                    -5.96858         64.8909
4.76                    -6.06269         64.4378
4.78                    -6.16574         64.2499
4.8                     -6.27796         63.7581
4.82                     -6.3338         63.2102
4.84                    -6.40137         62.8324
4.86                    -6.47947         62.1249
4.88                     -6.5135         61.3369
4.9                      -6.5667         60.6459
4.92                    -6.63595         59.6181
4.94                    -6.67561         58.5075
4.96                    -6.74553         57.4525
4.98                    -6.84011         56.0752
5                       -6.92166         54.6416
5.02                    -7.04874         53.2603
5.04                    -7.21353         51.6052
5.06                    -7.38569         49.9709
5.08                    -7.62601         48.4607
5.1                     -7.92408         46.8194
5.12                    -8.25501         45.4233
5.14                    -8.68092         44.4474
5.16                    -9.17966         43.7738
5.18                    -9.71021         43.9828
5.2                     -10.3002         45.4324
5.22                    -10.8536         48.0708
5.24                     -11.223          52.301
5.26                     -11.345         57.7514
5.28                    -11.1252         63.0258
5.3                     -10.5595         67.3231
5.32                    -9.82653         70.1163
5.34                    -9.04103         70.9471
5.36                    -8.24843         70.3118
5.38                    -7.54166         68.6741
5.4                     -6.93045         66.0189
5.42                    -6.38408         62.7842
5.44                    -5.94033         59.2049
5.46                     -5.5822         55.1283
5.48                     -5.2775         50.8405
5.5                     -5.06031          46.413
5.52                    -4.90734         41.6483
5.54                    -4.79247         36.7794
5.56                    -4.74676         31.7527
5.58                    -4.73207         26.2642
5.6                      -4.7156         20.2908
5.62                    -4.71935         13.0244
5.64                    -4.79208         2.36271
5.66                     -5.6439        -14.6602
5.68                    -9.17984         -31.447
5.7                     -14.3743        -25.6059
5.72                    -17.3429         2.64681
5.74                    -16.8946         31.1614
5.76                    -14.7714         47.2945
5.78                     -12.461         54.0596
5.8                     -10.5151         55.4201
5.82                    -8.89987         53.3608
5.84                    -7.48107         49.8687
5.86                    -6.19924         45.6901
5.88                    -4.78765         39.5926
5.9                     -3.45925         25.1538
5.92                    -4.43172         12.0683
5.94                    -4.83548         9.70645
5.96                     -4.7363         6.62442
5.98                     -4.5644         1.76546
6                       -4.32263        -3.67071
6.02                    -4.18808        -9.15055
6.04                    -4.12647        -15.7726
6.06                    -3.99976          -22.54
6.08                    -4.02703        -29.0552
6.1                     -4.08931        -37.0587
6.12                    -4.02293        -45.0649
6.14                    -4.21185        -53.3216
6.16                    -4.39966         -64.383
6.18                    -4.46443        -75.0012
6.2                     -5.16087        -87.6237
6.22                    -5.77191        -107.623
6.24                    -7.21966        -129.749
6.26                    -14.8027         89.7077
6.28                    -2.37834         -55.256
6.3                     -2.23539        -110.148
6.32                    -1.79925        -136.128
6.34                     -2.1603        -161.661
6.36                    -1.94968         174.314
6.38                    -1.96285         154.906
6.4                     -1.99991         134.707
6.42                    -1.73855         117.119
6.44                    -1.70072         101.661
6.46                    -1.68315         86.1211
6.48                    -1.51963         71.6998
6.5                     -1.53169         59.1837
