! TOUCHSTONE file generated by CST MICROWAVE STUDIO
! Date and time: Fri Oct 28 22:56:29 2022
! Project name: L.cst
! Parameters = {Di=1.27; Epsilon_r=1.56; InnerDiameter=1.27; Length=2; Lf=10; Lg=60; OuterConductorThickness=0.2921; OuterDiameter=3.6; Wf=3; Wp=41.2; de=1.5; df=6.8; g=0.8; gx=1.46171; gy=1.84562; h=2.34; hf=1.524; px=11.984; py=8.47172; w=9.7; wx=10.5223; wy=6.6261}
! Header version: 2018
! Port assignment regex: !\s*Touchstone port\s*([0-9]+)\s*=\s*(CST MWS port|CST DS port)\s*([0-9]+|Zmin|Zmax)\s*\(\"(.*)\"\)(\s*mode\s*([0-9]+))?.*
! Touchstone port assignment:
! Touchstone port 1 = CST MWS port 1 ("")
# GHz S DB R 50
4.5                     -2.36917         57.9032
4.52                    -2.50987         55.4196
4.54                    -2.66086         52.8719
4.56                    -2.82326         50.2641
4.58                    -2.99788         47.6011
4.6                     -3.18521         44.8878
4.62                    -3.38546         42.1282
4.64                    -3.59862         39.3251
4.66                    -3.82457         36.4798
4.68                    -4.06317         33.5916
4.7                      -4.3143         30.6585
4.72                    -4.57797         27.6768
4.74                    -4.85437         24.6417
4.76                    -5.14385         21.5479
4.78                    -5.44701         18.3897
4.8                     -5.76457         15.1614
4.82                     -6.0974          11.858
4.84                    -6.44643         8.47489
4.86                    -6.81258         5.00798
4.88                    -7.19674         1.45374
4.9                     -7.59963        -2.19118
4.92                    -8.02181        -5.93022
4.94                    -8.46357        -9.76741
4.96                    -8.92494        -13.7078
4.98                    -9.40562        -17.7578
5                         -9.905         -21.926
5.02                    -10.4221        -26.2232
5.04                    -10.9555        -30.6625
5.06                    -11.5034        -35.2598
5.08                    -12.0636        -40.0334
5.1                     -12.6332        -45.0034
5.12                     -13.209        -50.1908
5.14                    -13.7867         -55.616
5.16                    -14.3615         -61.297
5.18                    -14.9278        -67.2464
5.2                     -15.4788        -73.4691
5.22                    -16.0075        -79.9579
5.24                    -16.5063         -86.691
5.26                    -16.9679        -93.6292
5.28                    -17.3862        -100.716
5.3                     -17.7567        -107.879
5.32                    -18.0773        -115.035
5.34                     -18.349        -122.094
5.36                    -18.5757        -128.971
5.38                    -18.7635        -135.588
5.4                     -18.9203        -141.884
5.42                    -19.0552         -147.81
5.44                    -19.1773        -153.336
5.46                    -19.2955        -158.441
5.48                    -19.4185        -163.115
5.5                     -19.5543         -167.35
5.52                    -19.7106        -171.137
5.54                     -19.895        -174.459
5.56                    -20.1142        -177.283
5.58                    -20.3744        -179.554
5.6                     -20.6796         178.818
5.62                    -21.0296         177.963
5.64                    -21.4158         178.061
5.66                    -21.8151         179.333
5.68                    -22.1806        -177.998
5.7                     -22.4341        -173.813
5.72                    -22.4727         -168.28
5.74                    -22.2028        -162.003
5.76                    -21.5935        -155.928
5.78                    -20.6999        -150.949
5.8                     -19.6292        -147.564
5.82                    -18.4881        -145.844
5.84                    -17.3551        -145.608
5.86                    -16.2785        -146.593
5.88                     -15.285        -148.542
5.9                      -14.388        -151.236
5.92                    -13.5934        -154.493
5.94                    -12.9039        -158.167
5.96                      -12.32        -162.133
5.98                    -11.8421        -166.282
6                         -11.47        -170.511
6.02                    -11.2039        -174.721
6.04                    -11.0437          -178.8
6.06                    -10.9883         177.374
6.08                     -11.035         173.947
6.1                     -11.1769         171.094
6.12                    -11.3995         169.025
6.14                    -11.6749         167.974
6.16                    -11.9548         168.166
6.18                    -12.1644         169.724
6.2                     -12.2082         172.519
6.22                    -11.9979         176.047
6.24                    -11.4963         179.492
6.26                    -10.7405        -177.957
6.28                     -9.8184        -176.805
6.3                      -8.8248         -177.18
6.32                    -7.83355        -178.961
6.34                    -6.89217          178.07
6.36                    -6.02753         174.144
6.38                    -5.25315         169.461
6.4                     -4.57483         164.186
6.42                    -3.99412         158.452
6.44                    -3.51043         152.366
6.46                    -3.12212         146.017
6.48                    -2.82705         139.478
6.5                     -2.62283         132.813
