! TOUCHSTONE file generated by CST MICROWAVE STUDIO
! Date and time: Sat Oct 29 18:20:51 2022
! Project name: L.cst
! Parameters = {Di=1.27; Epsilon_r=1.56; InnerDiameter=1.27; Length=2; Lf=10; Lg=60; OuterConductorThickness=0.2921; OuterDiameter=3.6; Wf=3; Wp=41.2; de=1.5; df=6.8; g=0.8; gx=4.38745; gy=3.5856; h=2.34; hf=1.524; px=8.59806; py=13.2996; w=9.7; wx=4.2106; wy=9.71397}
! Header version: 2018
! Port assignment regex: !\s*Touchstone port\s*([0-9]+)\s*=\s*(CST MWS port|CST DS port)\s*([0-9]+|Zmin|Zmax)\s*\(\"(.*)\"\)(\s*mode\s*([0-9]+))?.*
! Touchstone port assignment:
! Touchstone port 1 = CST MWS port 1 ("")
# GHz S DB R 50
4.5                    -0.288593         94.1284
4.52                    -0.29832         92.7334
4.54                   -0.307795         91.3316
4.56                   -0.316986         89.9219
4.58                   -0.325885         88.5037
4.6                    -0.334495         87.0762
4.62                    -0.34284         85.6388
4.64                   -0.350949         84.1909
4.66                    -0.35886          82.732
4.68                   -0.366619         81.2615
4.7                    -0.374274         79.7792
4.72                   -0.381874         78.2848
4.74                   -0.389468          76.778
4.76                   -0.397101         75.2588
4.78                   -0.404816         73.7269
4.8                    -0.412654         72.1824
4.82                   -0.420647         70.6253
4.84                   -0.428825         69.0555
4.86                   -0.437211          67.473
4.88                   -0.445823         65.8781
4.9                    -0.454673         64.2706
4.92                   -0.463769         62.6507
4.94                   -0.473113         61.0186
4.96                   -0.482704         59.3742
4.98                   -0.492535         57.7176
5                      -0.502597          56.049
5.02                   -0.512879         54.3683
5.04                   -0.523364         52.6756
5.06                   -0.534035         50.9709
5.08                   -0.544877         49.2543
5.1                     -0.55587         47.5258
5.12                   -0.566993         45.7853
5.14                   -0.578229         44.0329
5.16                   -0.589556         42.2685
5.18                   -0.600959         40.4921
5.2                     -0.61242         38.7037
5.22                   -0.623921         36.9032
5.24                    -0.63545         35.0907
5.26                   -0.646993          33.266
5.28                   -0.658539         31.4291
5.3                     -0.67008         29.5801
5.32                   -0.681608         27.7187
5.34                   -0.693117         25.8452
5.36                   -0.704605         23.9594
5.38                    -0.71607         22.0614
5.4                    -0.727513         20.1512
5.42                   -0.738933         18.2289
5.44                   -0.750336         16.2944
5.46                   -0.761725          14.348
5.48                   -0.773108         12.3896
5.5                    -0.784488         10.4194
5.52                   -0.795875          8.4376
5.54                   -0.807275         6.44428
5.56                   -0.818698         4.43965
5.58                   -0.830149          2.4239
5.6                    -0.841637        0.397262
5.62                   -0.853167        -1.64003
5.64                   -0.864746        -3.68772
5.66                   -0.876379        -5.74554
5.68                   -0.888069        -7.81321
5.7                    -0.899817        -9.89042
5.72                   -0.911622        -11.9769
5.74                   -0.923482        -14.0723
5.76                   -0.935393        -16.1763
5.78                   -0.947346        -18.2887
5.8                    -0.959331        -20.4091
5.82                   -0.971336        -22.5373
5.84                   -0.983345         -24.673
5.86                   -0.995339        -26.8159
5.88                     -1.0073         -28.966
5.9                      -1.0192        -31.1229
5.92                    -1.03102        -33.2866
5.94                    -1.04272        -35.4571
5.96                    -1.05429        -37.6343
5.98                     -1.0657        -39.8182
6                       -1.07691        -42.0092
6.02                    -1.08791        -44.2073
6.04                    -1.09866        -46.4131
6.06                    -1.10917        -48.6268
6.08                    -1.11941        -50.8491
6.1                     -1.12938        -53.0806
6.12                     -1.1391        -55.3223
6.14                    -1.14859        -57.5749
6.16                     -1.1579        -59.8398
6.18                    -1.16708         -62.118
6.2                     -1.17623         -64.411
6.22                    -1.18545        -66.7204
6.24                     -1.1949        -69.0477
6.26                    -1.20476        -71.3948
6.28                    -1.21524        -73.7637
6.3                     -1.22662        -76.1564
6.32                    -1.23923        -78.5751
6.34                    -1.25342        -81.0219
6.36                    -1.26965        -83.4993
6.38                    -1.28841        -86.0095
6.4                     -1.31029        -88.5549
6.42                    -1.33594        -91.1379
6.44                    -1.36609        -93.7606
6.46                    -1.40159        -96.4253
6.48                    -1.44337         -99.134
6.5                     -1.49248        -101.889
