! TOUCHSTONE file generated by CST MICROWAVE STUDIO
! Date and time: Wed Oct 26 16:21:36 2022
! Project name: L.cst
! Parameters = {Di=1.27; Epsilon_r=1.56; InnerDiameter=1.27; Length=2; Lf=10; Lg=60; OuterConductorThickness=0.2921; OuterDiameter=3.6; Wf=3; Wp=41.2; de=1.5; df=6.8; g=0.8; gx=4.57875; gy=1.08578; h=2.34; hf=1.524; px=12.4573; py=11.4115; w=9.7; wx=7.87857; wy=10.3257}
! Header version: 2018
! Port assignment regex: !\s*Touchstone port\s*([0-9]+)\s*=\s*(CST MWS port|CST DS port)\s*([0-9]+|Zmin|Zmax)\s*\(\"(.*)\"\)(\s*mode\s*([0-9]+))?.*
! Touchstone port assignment:
! Touchstone port 1 = CST MWS port 1 ("")
# GHz S DB R 50
4.5                    -0.732202         77.3825
4.52                   -0.755624         75.5436
4.54                   -0.775493         73.6342
4.56                   -0.794035         71.6459
4.58                   -0.813481         69.5759
4.6                     -0.83578          67.426
4.62                   -0.862404         65.2016
4.64                   -0.894247         62.9099
4.66                   -0.931616         60.5582
4.68                   -0.974296         58.1531
4.7                     -1.02166          55.699
4.72                    -1.07282         53.1979
4.74                    -1.12676         50.6487
4.76                    -1.18254         48.0477
4.78                    -1.23934         45.3888
4.8                     -1.29662         42.6642
4.82                    -1.35412         39.8652
4.84                    -1.41189         36.9826
4.86                    -1.47024         34.0081
4.88                    -1.52969         30.9341
4.9                     -1.59087         27.7543
4.92                    -1.65445         24.4641
4.94                    -1.72104         21.0601
4.96                    -1.79114         17.5401
4.98                    -1.86507         13.9028
5                       -1.94297         10.1473
5.02                     -2.0248          6.2732
5.04                    -2.11029         2.27976
5.06                    -2.19906        -1.83385
5.08                    -2.29059         -6.0688
5.1                     -2.38427        -10.4265
5.12                    -2.47949        -14.9086
5.14                    -2.57561        -19.5164
5.16                    -2.67203        -24.2509
5.18                    -2.76822        -29.1121
5.2                     -2.86369        -34.0988
5.22                    -2.95807        -39.2083
5.24                    -3.05103        -44.4358
5.26                    -3.14231         -49.774
5.28                    -3.23172        -55.2138
5.3                     -3.31909        -60.7431
5.32                    -3.40432        -66.3478
5.34                    -3.48731        -72.0111
5.36                    -3.56797        -77.7147
5.38                    -3.64623        -83.4385
5.4                     -3.72197        -89.1613
5.42                    -3.79509        -94.8618
5.44                     -3.8654        -100.518
5.46                    -3.93265         -106.11
5.48                    -3.99655        -111.618
5.5                     -4.05669        -117.025
5.52                    -4.11259        -122.315
5.54                    -4.16371        -127.479
5.56                    -4.20951        -132.507
5.58                    -4.24946        -137.395
5.6                     -4.28313        -142.143
5.62                    -4.31027        -146.753
5.64                     -4.3309        -151.231
5.66                    -4.34536        -155.585
5.68                    -4.35434        -159.825
5.7                     -4.35891        -163.961
5.72                    -4.36052        -168.001
5.74                    -4.36087        -171.955
5.76                    -4.36186        -175.828
5.78                    -4.36545        -179.623
5.8                     -4.37352         176.661
5.82                    -4.38772         173.026
5.84                    -4.40932         169.478
5.86                    -4.43911         166.026
5.88                    -4.47728         162.679
5.9                     -4.52336         159.446
5.92                    -4.57626         156.337
5.94                    -4.63422         153.358
5.96                    -4.69501         150.512
5.98                    -4.75605         147.797
6                       -4.81468         145.208
6.02                    -4.86839         142.733
6.04                    -4.91519         140.355
6.06                    -4.95379         138.054
6.08                    -4.98377          135.81
6.1                     -5.00564         133.603
6.12                    -5.02064         131.417
6.14                    -5.03055         129.242
6.16                    -5.03719         127.073
6.18                    -5.04205         124.913
6.2                     -5.04577         122.771
6.22                    -5.04774         120.659
6.24                    -5.04587         118.585
6.26                    -5.03649         116.556
6.28                    -5.01458         114.567
6.3                      -4.9744         112.597
6.32                    -4.91036         110.609
6.34                    -4.81823         108.544
6.36                    -4.69639         106.329
6.38                    -4.54669         103.884
6.4                     -4.37495         101.124
6.42                    -4.19072         97.9757
6.44                    -4.00648         94.3815
6.46                    -3.83674         90.3018
6.48                      -3.697          85.716
6.5                     -3.60316         80.6201
