! TOUCHSTONE file generated by CST MICROWAVE STUDIO
! Date and time: Sat Oct 29 22:32:36 2022
! Project name: L.cst
! Parameters = {Di=1.27; Epsilon_r=1.56; InnerDiameter=1.27; Length=2; Lf=10; Lg=60; OuterConductorThickness=0.2921; OuterDiameter=3.6; Wf=3; Wp=41.2; de=1.5; df=6.8; g=0.8; gx=4.72538; gy=2.04695; h=2.34; hf=1.524; px=13.8556; py=12.6943; w=9.7; wx=9.13021; wy=10.6473}
! Header version: 2018
! Port assignment regex: !\s*Touchstone port\s*([0-9]+)\s*=\s*(CST MWS port|CST DS port)\s*([0-9]+|Zmin|Zmax)\s*\(\"(.*)\"\)(\s*mode\s*([0-9]+))?.*
! Touchstone port assignment:
! Touchstone port 1 = CST MWS port 1 ("")
# GHz S DB R 50
4.5                    -0.774463         82.0941
4.52                   -0.807352         80.3116
4.54                    -0.83504         78.4581
4.56                   -0.863846         76.5143
4.58                   -0.899525         74.4958
4.6                    -0.943885          72.437
4.62                   -0.994323         70.3662
4.64                     -1.0461          68.288
4.66                     -1.0956         66.1825
4.68                    -1.14254         64.0188
4.7                     -1.18975          61.775
4.72                    -1.24115         59.4488
4.74                    -1.29928         57.0548
4.76                    -1.36401         54.6123
4.78                    -1.43299          52.131
4.8                     -1.50348         49.6047
4.82                    -1.57413         47.0147
4.84                     -1.6458         44.3408
4.86                    -1.72092         41.5719
4.88                    -1.80194         38.7099
4.9                     -1.88996          35.765
4.92                    -1.98426          32.747
4.94                    -2.08304         29.6566
4.96                    -2.18461         26.4837
4.98                    -2.28859         23.2117
5                       -2.39606         19.8255
5.02                    -2.50891          16.318
5.04                     -2.6287         12.6914
5.06                    -2.75575         8.95244
5.08                    -2.88905         5.10575
5.1                      -3.0269         1.14848
5.12                    -3.16787        -2.93014
5.14                    -3.31158        -7.14442
5.16                    -3.45874        -11.5058
5.18                    -3.61046        -16.0179
5.2                     -3.76738        -20.6765
5.22                    -3.92896        -25.4729
5.24                    -4.09342        -30.3996
5.26                    -4.25836        -35.4548
5.28                    -4.42161        -40.6422
5.3                      -4.5819        -45.9669
5.32                    -4.73891        -51.4292
5.34                    -4.89278        -57.0207
5.36                     -5.0432        -62.7231
5.38                    -5.18885         -68.512
5.4                     -5.32727         -74.363
5.42                    -5.45552        -80.2561
5.44                    -5.57102        -86.1773
5.46                    -5.67245        -92.1158
5.48                    -5.75988        -98.0583
5.5                     -5.83435        -103.985
5.52                    -5.89686        -109.867
5.54                     -5.9476        -115.675
5.56                    -5.98561         -121.38
5.58                    -6.00933        -126.966
5.6                     -6.01765         -132.43
5.62                     -6.0109        -137.775
5.64                    -5.99114        -143.008
5.66                    -5.96158        -148.132
5.68                    -5.92529        -153.136
5.7                     -5.88396         -158.01
5.72                    -5.83755        -162.743
5.74                    -5.78491        -167.338
5.76                    -5.72526         -171.81
5.78                    -5.65953        -176.185
5.8                     -5.59078         179.518
5.82                    -5.52317          175.29
5.84                    -5.46021          171.14
5.86                    -5.40304         167.086
5.88                    -5.35005         163.139
5.9                     -5.29805         159.299
5.92                    -5.24453         155.545
5.94                    -5.18959         151.845
5.96                    -5.13628         148.177
5.98                    -5.08879          144.54
6                       -5.04958         140.955
6.02                    -5.01701          137.45
6.04                    -4.98535         134.041
6.06                    -4.94745         130.707
6.08                    -4.89889           127.4
6.1                     -4.84092         124.059
6.12                    -4.77983         120.649
6.14                    -4.72266         117.173
6.16                    -4.67158         113.674
6.18                    -4.62076         110.189
6.2                     -4.55821         106.711
6.22                    -4.47254         103.165
6.24                    -4.36104         99.4221
6.26                    -4.23286         95.3637
6.28                    -4.10412         90.9309
6.3                     -3.98756         86.1389
6.32                    -3.88363         81.0259
6.34                    -3.77989          75.564
6.36                      -3.662         69.5802
6.38                    -3.53279         62.7509
6.4                     -3.42794         54.6931
6.42                    -3.41735         45.0979
6.44                    -3.59482         33.8112
6.46                    -4.06869          20.829
6.48                    -4.96541         6.24174
6.5                     -6.45525        -9.81917
