! TOUCHSTONE file generated by CST MICROWAVE STUDIO
! Date and time: Fri Oct 28 03:24:14 2022
! Project name: L.cst
! Parameters = {Di=1.27; Epsilon_r=1.56; InnerDiameter=1.27; Length=2; Lf=10; Lg=60; OuterConductorThickness=0.2921; OuterDiameter=3.6; Wf=3; Wp=41.2; de=1.5; df=6.8; g=0.8; gx=3.48362; gy=4.72551; h=2.34; hf=1.524; px=9.67263; py=14.7673; w=9.7; wx=6.18901; wy=10.0418}
! Header version: 2018
! Port assignment regex: !\s*Touchstone port\s*([0-9]+)\s*=\s*(CST MWS port|CST DS port)\s*([0-9]+|Zmin|Zmax)\s*\(\"(.*)\"\)(\s*mode\s*([0-9]+))?.*
! Touchstone port assignment:
! Touchstone port 1 = CST MWS port 1 ("")
# GHz S DB R 50
4.5                    -0.319485         96.6945
4.52                   -0.333374         95.2973
4.54                   -0.345934         93.9125
4.56                    -0.35569         92.5285
4.58                   -0.362592          91.131
4.6                    -0.367847         89.7097
4.62                   -0.373231         88.2615
4.64                   -0.380286         86.7911
4.66                    -0.38971         85.3079
4.68                   -0.401179         83.8211
4.7                    -0.413615         82.3365
4.72                   -0.425715         80.8538
4.74                   -0.436529         79.3678
4.76                   -0.445809         77.8712
4.78                   -0.454048         76.3571
4.8                    -0.462189         74.8228
4.82                   -0.471191         73.2696
4.84                   -0.481625         71.7024
4.86                   -0.493478         70.1271
4.88                   -0.506207         68.5478
4.9                    -0.519013         66.9657
4.92                   -0.531199         65.3784
4.94                    -0.54245         63.7813
4.96                   -0.552938         62.1697
4.98                   -0.563218         60.5409
5                      -0.573965         58.8948
5.02                   -0.585685         57.2341
5.04                   -0.598515          55.563
5.06                   -0.612182         53.8851
5.08                   -0.626147         52.2021
5.1                    -0.639834         50.5132
5.12                   -0.652883         48.8155
5.14                   -0.665282         47.1054
5.16                   -0.677365         45.3801
5.18                    -0.68965         43.6387
5.2                    -0.702614         41.8828
5.22                    -0.71649         40.1155
5.24                    -0.73117         38.3403
5.26                   -0.746258         36.5594
5.28                   -0.761238         34.7729
5.3                    -0.775695         32.9791
5.32                   -0.789488         31.1747
5.34                   -0.802812         29.3568
5.36                   -0.816108          27.524
5.38                   -0.829874         25.6768
5.4                    -0.844451         23.8179
5.42                   -0.859867          21.951
5.44                   -0.875821          20.079
5.46                   -0.891799          18.203
5.48                    -0.90729         16.3221
5.5                    -0.922006         14.4331
5.52                   -0.936012         12.5326
5.54                    -0.94972         10.6181
5.56                   -0.963717         8.68934
5.58                   -0.978522         6.74854
5.6                    -0.994352         4.79982
5.62                    -1.01101         2.84743
5.64                    -1.02794        0.894084
5.66                    -1.04445        -1.06033
5.68                       -1.06        -3.01879
5.7                     -1.07445        -4.98603
5.72                    -1.08818        -6.96646
5.74                    -1.10194        -8.96211
5.76                    -1.11659        -10.9714
5.78                    -1.13269        -12.9895
5.8                     -1.15025        -15.0098
5.82                    -1.16865        -17.0268
5.84                    -1.18682        -19.0386
5.86                    -1.20372        -21.0482
5.88                    -1.21874        -23.0628
5.9                      -1.2321        -25.0911
5.92                    -1.24487        -27.1395
5.94                    -1.25858        -29.2093
5.96                    -1.27465        -31.2946
5.98                    -1.29373        -33.3848
6                       -1.31524        -35.4679
6.02                    -1.33748        -37.5364
6.04                    -1.35814        -39.5919
6.06                    -1.37535        -41.6464
6.08                    -1.38861        -43.7193
6.1                     -1.39943        -45.8307
6.12                    -1.41111        -47.9925
6.14                    -1.42768        -50.2017
6.16                    -1.45235         -52.439
6.18                    -1.48588        -54.6745
6.2                     -1.52572        -56.8799
6.22                    -1.56635        -59.0436
6.24                    -1.60131        -61.1842
6.26                    -1.62633        -63.3542
6.28                    -1.64292        -65.6295
6.3                     -1.66051        -68.0841
6.32                    -1.69619        -70.7583
6.34                    -1.77183        -73.6308
6.36                    -1.90924        -76.6017
6.38                    -2.12454        -79.4881
6.4                      -2.4216        -82.0338
6.42                    -2.78453        -83.9368
6.44                    -3.16973        -84.9152
6.46                    -3.50297        -84.8339
6.48                    -3.69322         -83.873
6.5                     -3.67143        -82.6099
