! TOUCHSTONE file generated by CST MICROWAVE STUDIO
! Date and time: Sat Oct 29 02:00:08 2022
! Project name: L.cst
! Parameters = {Di=1.27; Epsilon_r=1.56; InnerDiameter=1.27; Length=2; Lf=10; Lg=60; OuterConductorThickness=0.2921; OuterDiameter=3.6; Wf=3; Wp=41.2; de=1.5; df=6.8; g=0.8; gx=1.56082; gy=1.02656; h=2.34; hf=1.524; px=11.8444; py=10.4471; w=9.7; wx=10.2836; wy=9.4205}
! Header version: 2018
! Port assignment regex: !\s*Touchstone port\s*([0-9]+)\s*=\s*(CST MWS port|CST DS port)\s*([0-9]+|Zmin|Zmax)\s*\(\"(.*)\"\)(\s*mode\s*([0-9]+))?.*
! Touchstone port assignment:
! Touchstone port 1 = CST MWS port 1 ("")
# GHz S DB R 50
4.5                     -2.70303         50.2886
4.52                    -2.86237         47.7333
4.54                    -3.02896         45.0926
4.56                     -3.2049          42.362
4.58                    -3.39223         39.5401
4.6                     -3.59281         36.6283
4.62                    -3.80822         33.6297
4.64                    -4.03973         30.5487
4.66                    -4.28825         27.3902
4.68                    -4.55435         24.1585
4.7                      -4.8383         20.8572
4.72                    -5.14009         17.4885
4.74                    -5.45951         14.0527
4.76                    -5.79614         10.5481
4.78                    -6.14952         6.97058
4.8                     -6.51906         3.31368
4.82                     -6.9042       -0.431312
4.84                    -7.30433        -4.27535
4.86                    -7.71889        -8.23144
4.88                    -8.14729        -12.3143
4.9                     -8.58886        -16.5403
4.92                    -9.04284        -20.9266
4.94                    -9.50821        -25.4911
4.96                    -9.98358        -30.2521
4.98                    -10.4671        -35.2269
5                       -10.9561         -40.432
5.02                    -11.4474        -45.8808
5.04                    -11.9363        -51.5833
5.06                    -12.4176         -57.543
5.08                    -12.8847        -63.7558
5.1                     -13.3301        -70.2067
5.12                    -13.7461        -76.8679
5.14                    -14.1246        -83.6973
5.16                    -14.4586        -90.6387
5.18                    -14.7424        -97.6235
5.2                     -14.9725        -104.575
5.22                    -15.1482        -111.415
5.24                     -15.271        -118.069
5.26                    -15.3453        -124.473
5.28                    -15.3766        -130.577
5.3                     -15.3719        -136.346
5.32                    -15.3383        -141.762
5.34                    -15.2828        -146.817
5.36                    -15.2121        -151.515
5.38                    -15.1321        -155.867
5.4                     -15.0479        -159.886
5.42                    -14.9642        -163.585
5.44                    -14.8846        -166.976
5.46                    -14.8122        -170.069
5.48                     -14.749        -172.866
5.5                     -14.6962        -175.366
5.52                    -14.6539        -177.563
5.54                    -14.6208        -179.445
5.56                    -14.5937             179
5.58                    -14.5678         177.786
5.6                     -14.5365         176.922
5.62                     -14.491         176.407
5.64                    -14.4213         176.224
5.66                    -14.3166         176.338
5.68                    -14.1669         176.689
5.7                     -13.9643         177.194
5.72                    -13.7048         177.754
5.74                    -13.3888         178.264
5.76                    -13.0216         178.627
5.78                    -12.6122         178.762
5.8                     -12.1723         178.612
5.82                    -11.7144         178.148
5.84                    -11.2507         177.365
5.86                    -10.7918         176.277
5.88                    -10.3469         174.912
5.9                     -9.92294         173.309
5.92                    -9.52484          171.51
5.94                    -9.15585          169.56
5.96                    -8.81753         167.505
5.98                    -8.50993         165.389
6                        -8.2317         163.253
6.02                    -7.98024         161.135
6.04                     -7.7517         159.066
6.06                    -7.54117         157.074
6.08                    -7.34276         155.175
6.1                     -7.14994         153.375
6.12                    -6.95587         151.669
6.14                    -6.75396         150.039
6.16                    -6.53846         148.451
6.18                    -6.30514         146.863
6.2                     -6.05178         145.224
6.22                    -5.77856         143.478
6.24                    -5.48802         141.571
6.26                    -5.18487         139.458
6.28                    -4.87543         137.102
6.3                     -4.56706         134.477
6.32                     -4.2676          131.57
6.34                    -3.98483          128.38
6.36                    -3.72618         124.914
6.38                     -3.4985         121.185
6.4                     -3.30802         117.215
6.42                    -3.16037         113.026
6.44                    -3.06065         108.645
6.46                    -3.01357         104.101
6.48                     -3.0236         99.4228
6.5                     -3.09513          94.642
