! TOUCHSTONE file generated by CST MICROWAVE STUDIO
! Date and time: Sat Oct 29 14:28:47 2022
! Project name: L.cst
! Parameters = {Di=1.27; Epsilon_r=1.56; InnerDiameter=1.27; Length=2; Lf=10; Lg=60; OuterConductorThickness=0.2921; OuterDiameter=3.6; Wf=3; Wp=41.2; de=1.5; df=6.8; g=0.8; gx=2.26198; gy=1.85131; h=2.34; hf=1.524; px=8.10986; py=8.23433; w=9.7; wx=5.84787; wy=6.38302}
! Header version: 2018
! Port assignment regex: !\s*Touchstone port\s*([0-9]+)\s*=\s*(CST MWS port|CST DS port)\s*([0-9]+|Zmin|Zmax)\s*\(\"(.*)\"\)(\s*mode\s*([0-9]+))?.*
! Touchstone port assignment:
! Touchstone port 1 = CST MWS port 1 ("")
# GHz S DB R 50
4.5                    -0.411497         82.8614
4.52                   -0.423079         81.3457
4.54                   -0.435155         79.8147
4.56                   -0.447728         78.2686
4.58                   -0.460798         76.7074
4.6                    -0.474356         75.1311
4.62                   -0.488387         73.5395
4.64                   -0.502875         71.9327
4.66                   -0.517799         70.3104
4.68                    -0.53314         68.6724
4.7                    -0.548878         67.0187
4.72                   -0.564993         65.3489
4.74                   -0.581467         63.6627
4.76                   -0.598285           61.96
4.78                   -0.615434         60.2404
4.8                    -0.632901         58.5036
4.82                   -0.650681         56.7494
4.84                   -0.668767         54.9774
4.86                   -0.687156         53.1874
4.88                   -0.705846         51.3792
4.9                    -0.724839         49.5524
4.92                   -0.744138         47.7068
4.94                   -0.763746         45.8423
4.96                   -0.783667         43.9587
4.98                   -0.803906         42.0558
5                       -0.82447         40.1335
5.02                   -0.845362         38.1918
5.04                   -0.866587         36.2305
5.06                   -0.888146         34.2498
5.08                   -0.910041         32.2495
5.1                    -0.932273         30.2298
5.12                   -0.954839         28.1908
5.14                   -0.977735         26.1326
5.16                    -1.00095         24.0553
5.18                    -1.02449         21.9592
5.2                     -1.04832         19.8445
5.22                    -1.07245         17.7114
5.24                    -1.09684         15.5605
5.26                    -1.12149         13.3918
5.28                    -1.14637         11.2059
5.3                     -1.17146         9.00316
5.32                    -1.19673           6.784
5.34                    -1.22215         4.54894
5.36                    -1.24769         2.29849
5.38                    -1.27333       0.0332186
5.4                     -1.29902        -2.24629
5.42                    -1.32474        -4.53942
5.44                    -1.35044        -6.84551
5.46                    -1.37609        -9.16389
5.48                    -1.40165        -11.4938
5.5                     -1.42709        -13.8346
5.52                    -1.45236        -16.1854
5.54                    -1.47743        -18.5454
5.56                    -1.50227        -20.9139
5.58                    -1.52683          -23.29
5.6                     -1.55107        -25.6727
5.62                    -1.57498        -28.0612
5.64                     -1.5985        -30.4546
5.66                    -1.62161        -32.8519
5.68                    -1.64428        -35.2522
5.7                     -1.66647        -37.6546
5.72                    -1.68817         -40.058
5.74                    -1.70933        -42.4614
5.76                    -1.72995        -44.8638
5.78                    -1.74999        -47.2644
5.8                     -1.76944        -49.6621
5.82                    -1.78827        -52.0558
5.84                    -1.80647        -54.4447
5.86                    -1.82401        -56.8278
5.88                     -1.8409         -59.204
5.9                      -1.8571        -61.5725
5.92                    -1.87261        -63.9324
5.94                    -1.88741        -66.2828
5.96                     -1.9015        -68.6228
5.98                    -1.91486        -70.9516
6                       -1.92749        -73.2685
6.02                    -1.93937        -75.5727
6.04                    -1.95049        -77.8635
6.06                    -1.96086        -80.1402
6.08                    -1.97046        -82.4024
6.1                     -1.97928        -84.6494
6.12                    -1.98733        -86.8807
6.14                     -1.9946        -89.0961
6.16                    -2.00108         -91.295
6.18                    -2.00679        -93.4772
6.2                     -2.01173        -95.6426
6.22                     -2.0159        -97.7908
6.24                    -2.01931        -99.9218
6.26                    -2.02199        -102.035
6.28                    -2.02394        -104.132
6.3                     -2.02521        -106.211
6.32                    -2.02582        -108.273
6.34                    -2.02581        -110.318
6.36                    -2.02524        -112.347
6.38                    -2.02414        -114.358
6.4                      -2.0226        -116.353
6.42                    -2.02066        -118.332
6.44                    -2.01842        -120.294
6.46                    -2.01595        -122.241
6.48                    -2.01334        -124.171
6.5                     -2.01068        -126.085
