! TOUCHSTONE file generated by CST MICROWAVE STUDIO
! Date and time: Thu Oct 27 04:14:16 2022
! Project name: L.cst
! Parameters = {Di=1.27; Epsilon_r=1.56; InnerDiameter=1.27; Length=2; Lf=10; Lg=60; OuterConductorThickness=0.2921; OuterDiameter=3.6; Wf=3; Wp=41.2; de=1.5; df=6.8; g=0.8; gx=3.50397; gy=1.5567; h=2.34; hf=1.524; px=14.1013; py=13.6952; w=9.7; wx=10.5973; wy=12.1385}
! Header version: 2018
! Port assignment regex: !\s*Touchstone port\s*([0-9]+)\s*=\s*(CST MWS port|CST DS port)\s*([0-9]+|Zmin|Zmax)\s*\(\"(.*)\"\)(\s*mode\s*([0-9]+))?.*
! Touchstone port assignment:
! Touchstone port 1 = CST MWS port 1 ("")
# GHz S DB R 50
4.5                     -1.96764         59.8696
4.52                    -2.12536         57.3497
4.54                    -2.23423         54.3057
4.56                    -2.41368         51.5231
4.58                    -2.54354         48.3129
4.6                     -2.74715         45.2409
4.62                    -2.90314          41.821
4.64                    -3.13479         38.4272
4.66                    -3.32202         34.7483
4.68                    -3.58665         30.9854
4.7                     -3.81111         26.9911
4.72                    -4.11387         22.7959
4.74                    -4.38273         18.4144
4.76                    -4.72869         13.7092
4.78                    -5.04877         8.84317
4.8                     -5.44296         3.52388
4.82                    -5.81945        -1.94961
4.84                    -6.26369        -8.02409
4.86                    -6.69787         -14.264
4.88                    -7.18542        -21.2727
4.9                      -7.6683        -28.4843
4.92                    -8.17628        -36.6272
4.94                    -8.67662        -45.0306
4.96                    -9.15432        -54.4656
4.98                    -9.60757        -64.1768
5                       -9.97018        -74.8332
5.02                    -10.2839        -85.6421
5.04                    -10.4429        -96.9766
5.06                    -10.5437        -108.178
5.08                    -10.4756        -119.247
5.1                     -10.3721        -129.898
5.12                    -10.1423        -139.882
5.14                    -9.91554        -149.347
5.16                    -9.62177         -157.91
5.18                    -9.35706        -166.025
5.2                     -9.07147        -173.214
5.22                    -8.82015         179.926
5.24                    -8.57563         173.922
5.26                    -8.35712         168.148
5.28                    -8.15811         163.131
5.3                     -7.97163         158.269
5.32                    -7.80853         154.065
5.34                    -7.64232         149.956
5.36                    -7.49987         146.406
5.38                    -7.33851         142.903
5.4                     -7.19926         139.857
5.42                    -7.02678         136.818
5.44                    -6.87251          134.13
5.46                    -6.67231         131.399
5.48                     -6.4858         128.901
5.5                      -6.2415         126.289
5.52                    -6.00853         123.761
5.54                    -5.71055         121.023
5.56                    -5.42678         118.182
5.58                    -5.08051         115.027
5.6                     -4.75871         111.574
5.62                    -4.38665         107.724
5.64                    -4.05444         103.406
5.66                     -3.6886         98.6361
5.68                    -3.37852         93.2247
5.7                     -3.05483          87.312
5.72                    -2.80167         80.5267
5.74                    -2.56631         73.1269
5.76                    -2.42189           64.52
5.78                    -2.35293         55.0554
5.8                     -2.40361         43.8686
5.82                    -2.62901           31.08
5.84                    -3.03607         14.8602
5.86                    -4.28445        -7.46126
5.88                    -7.83195        -31.1115
5.9                      -12.657          -35.05
5.92                     -14.605        -47.7903
5.94                    -19.6506        -90.3577
5.96                    -17.6861        -168.554
5.98                     -9.6725         119.058
6                       -6.79373         51.8884
6.02                    -8.56386        -12.8601
6.04                    -12.5367        -69.0488
6.06                    -13.1728        -116.015
6.08                    -11.3824        -156.591
6.1                     -9.40765          177.66
6.12                    -7.27975         156.715
6.14                    -5.37438         136.477
6.16                    -3.83638         112.992
6.18                    -2.68532         83.9857
6.2                     -2.71792          38.353
6.22                    -5.74423        -32.9873
6.24                    -7.47079        -130.031
6.26                     -5.5234         171.313
6.28                    -3.32934         140.632
6.3                     -2.08679         115.147
6.32                    -1.28841         93.9992
6.34                    -1.09575         70.0476
6.36                    -2.02084         47.1133
6.38                    -3.82945          23.987
6.4                     -7.36348         3.27748
6.42                    -12.4683        -14.3449
6.44                    -27.5631        -40.7112
6.46                    -18.9872         130.447
6.48                    -12.2358         120.638
6.5                     -9.29894         105.994
