! TOUCHSTONE file generated by CST MICROWAVE STUDIO
! Date and time: Sun Oct 30 00:36:56 2022
! Project name: L.cst
! Parameters = {Di=1.27; Epsilon_r=1.56; InnerDiameter=1.27; Length=2; Lf=10; Lg=60; OuterConductorThickness=0.2921; OuterDiameter=3.6; Wf=3; Wp=41.2; de=1.5; df=6.8; g=0.8; gx=2.66978; gy=3.25836; h=2.34; hf=1.524; px=14.7669; py=12.1642; w=9.7; wx=12.0971; wy=8.90584}
! Header version: 2018
! Port assignment regex: !\s*Touchstone port\s*([0-9]+)\s*=\s*(CST MWS port|CST DS port)\s*([0-9]+|Zmin|Zmax)\s*\(\"(.*)\"\)(\s*mode\s*([0-9]+))?.*
! Touchstone port assignment:
! Touchstone port 1 = CST MWS port 1 ("")
# GHz S DB R 50
4.5                      -1.9219         77.7929
4.52                    -2.04078         75.8784
4.54                    -2.17097         73.9656
4.56                    -2.31481         72.0382
4.58                    -2.47063         70.0785
4.6                     -2.63652         68.0779
4.62                    -2.81048         66.0526
4.64                    -2.99152         64.0204
4.66                    -3.18233         61.9991
4.68                    -3.38559         60.0028
4.7                     -3.60379         58.0229
4.72                    -3.83901         56.0524
4.74                    -4.08975         54.0856
4.76                    -4.35487         52.1197
4.78                     -4.6332         50.1754
4.8                     -4.92383         48.2711
4.82                    -5.22902         46.4267
4.84                    -5.55048         44.6603
4.86                    -5.88978         42.9706
4.88                    -6.24788          41.359
4.9                     -6.62269         39.8278
4.92                    -7.01201         38.3826
4.94                    -7.41353         37.0476
4.96                    -7.82473         35.8477
4.98                    -8.24547         34.8034
5                       -8.67553         33.9344
5.02                    -9.11338         33.2387
5.04                    -9.55762          32.709
5.06                    -10.0031         32.3403
5.08                    -10.4442         32.1155
5.1                     -10.8764         32.0349
5.12                    -11.2947         32.0925
5.14                    -11.6989         32.2679
5.16                    -12.0902          32.541
5.18                    -12.4716         32.8565
5.2                     -12.8496         33.1595
5.22                    -13.2295         33.3985
5.24                    -13.6208         33.5255
5.26                    -14.0375         33.5424
5.28                    -14.4978         33.4855
5.3                     -15.0302         33.4462
5.32                      -15.67         33.6179
5.34                    -16.4561         34.3275
5.36                    -17.4221         36.1804
5.38                    -18.5505         40.2438
5.4                     -19.6708         47.9969
5.42                     -20.308         60.1406
5.44                     -19.909         73.5762
5.46                    -18.6329         82.9436
5.48                    -17.1464          86.597
5.5                     -15.8925         86.0165
5.52                    -15.0218         83.0073
5.54                    -14.5554         78.8096
5.56                    -14.4872         74.2247
5.58                    -14.8213         69.8806
5.6                     -15.5982         66.5019
5.62                    -16.9096         65.4487
5.64                    -18.8378         69.9548
5.66                    -20.8641         87.2576
5.68                    -20.2836         117.453
5.7                     -16.7765         135.553
5.72                    -13.2392         138.694
5.74                    -10.3556         134.502
5.76                    -8.07826         125.401
5.78                    -6.88608         114.594
5.8                     -5.97185         106.425
5.82                    -5.19765         98.0007
5.84                    -4.63965         89.5327
5.86                    -4.26987         81.2164
5.88                    -4.05665         73.0145
5.9                     -3.97813         64.7718
5.92                    -4.02839         56.2431
5.94                    -4.23032         47.0622
5.96                    -4.66904         36.5835
5.98                    -5.59109         23.5267
6                       -7.76065         5.01929
6.02                     -14.562        -29.7513
6.04                    -14.5294          158.51
6.06                     -6.2029         114.895
6.08                    -3.78556         90.1232
6.1                     -2.92412         73.6782
6.12                     -2.5491         61.7105
6.14                    -2.35047         52.2027
6.16                    -2.26353         43.9011
6.18                    -2.45186         34.9038
6.2                     -6.77798         39.8641
6.22                    -1.93606         40.3193
6.24                    -1.86774         31.9616
6.26                    -1.93265         26.1827
6.28                    -1.99839         20.9555
6.3                     -2.03038         15.9353
6.32                    -2.01879          11.152
6.34                    -1.97686         6.70407
6.36                    -1.93234         2.61345
6.38                    -1.91167        -1.21843
6.4                     -1.92661        -4.97409
6.42                    -1.96937         -8.8346
6.44                     -2.0171        -12.8907
6.46                    -2.04501        -17.0966
6.48                    -2.04236        -21.2992
6.5                     -2.02031        -25.3378
