! TOUCHSTONE file generated by CST MICROWAVE STUDIO
! Date and time: Sat Oct 29 00:54:52 2022
! Project name: L.cst
! Parameters = {Di=1.27; Epsilon_r=1.56; InnerDiameter=1.27; Length=2; Lf=10; Lg=60; OuterConductorThickness=0.2921; OuterDiameter=3.6; Wf=3; Wp=41.2; de=1.5; df=6.8; g=0.8; gx=3.49356; gy=3.84923; h=2.34; hf=1.524; px=13.9779; py=10.6755; w=9.7; wx=10.4843; wy=6.82628}
! Header version: 2018
! Port assignment regex: !\s*Touchstone port\s*([0-9]+)\s*=\s*(CST MWS port|CST DS port)\s*([0-9]+|Zmin|Zmax)\s*\(\"(.*)\"\)(\s*mode\s*([0-9]+))?.*
! Touchstone port assignment:
! Touchstone port 1 = CST MWS port 1 ("")
# GHz S DB R 50
4.5                    -0.712362         90.0019
4.52                   -0.733032         88.3755
4.54                   -0.759085         86.6816
4.56                   -0.794189         84.9612
4.58                    -0.83585         83.2545
4.6                    -0.878129         81.5717
4.62                   -0.916495          79.889
4.64                   -0.951029         78.1702
4.66                    -0.98581         76.3949
4.68                    -1.02545         74.5706
4.7                      -1.0717         72.7237
4.72                    -1.12257         70.8772
4.74                    -1.17429          69.034
4.76                    -1.22435         67.1765
4.78                    -1.27332         65.2813
4.8                     -1.32414         63.3372
4.82                     -1.3798         61.3516
4.84                    -1.44122         59.3429
4.86                    -1.50678         57.3258
4.88                    -1.57387         55.3001
4.9                     -1.64097          53.252
4.92                    -1.70879         51.1649
4.94                    -1.77965         49.0319
4.96                    -1.85575         46.8598
4.98                    -1.93761         44.6629
5                       -2.02391         42.4517
5.02                    -2.11265          40.225
5.04                    -2.20279         37.9712
5.06                     -2.2951         35.6774
5.08                    -2.39158         33.3389
5.1                     -2.49404         30.9624
5.12                    -2.60282         28.5603
5.14                    -2.71669         26.1416
5.16                    -2.83391         23.7047
5.18                    -2.95365         21.2388
5.2                      -3.0767         18.7327
5.22                    -3.20496         16.1827
5.24                    -3.34009          13.596
5.26                    -3.48235         10.9849
5.28                    -3.63048         8.35821
5.3                     -3.78271         5.71428
5.32                    -3.93818         3.04249
5.34                    -4.09772        0.331327
5.36                    -4.26331         -2.4225
5.38                    -4.43666        -5.21089
5.4                       -4.618        -8.01974
5.42                    -4.80579        -10.8391
5.44                    -4.99792        -13.6707
5.46                    -5.19332        -16.5269
5.48                    -5.39288        -19.4216
5.5                     -5.59896        -22.3589
5.52                    -5.81366        -25.3287
5.54                    -6.03719        -28.3132
5.56                    -6.26755        -31.2994
5.58                    -6.50185        -34.2895
5.6                     -6.73852        -37.3008
5.62                    -6.97879        -40.3535
5.64                    -7.22603        -43.4544
5.66                    -7.48349        -46.5901
5.68                    -7.75179        -49.7347
5.7                     -8.02818        -52.8681
5.72                    -8.30845         -55.993
5.74                    -8.59036        -59.1367
5.76                    -8.87624         -62.332
5.78                    -9.17239        -65.5913
5.8                     -9.48538        -68.8909
5.82                    -9.81759         -72.181
5.84                    -10.1654        -75.4169
5.86                     -10.522        -78.5915
5.88                    -10.8836        -81.7419
5.9                     -11.2548        -84.9179
5.92                    -11.6485        -88.1274
5.94                    -12.0787        -91.2975
5.96                    -12.5498        -94.2848
5.98                    -13.0503        -96.9405
6                       -13.5558        -99.1986
6.02                     -14.044        -101.123
6.04                    -14.5119        -102.849
6.06                    -14.9795        -104.427
6.08                    -15.4686        -105.693
6.1                     -15.9687        -106.302
6.12                    -16.4134        -105.981
6.14                    -16.7032        -104.906
6.16                    -16.7851          -103.8
6.18                    -16.7165        -103.411
6.2                     -16.6194        -103.832
6.22                     -16.565        -104.406
6.24                    -16.4874        -104.279
6.26                    -16.1893        -103.366
6.28                    -15.5098        -103.057
6.3                      -14.535        -105.321
6.32                    -13.5436        -111.049
6.34                    -12.8007        -119.827
6.36                      -12.48        -130.651
6.38                    -12.6938        -142.332
6.4                     -13.5318        -153.402
6.42                    -15.0535        -161.547
6.44                    -17.0886        -162.557
6.46                    -18.4735        -152.126
6.48                    -17.5216        -139.535
6.5                      -15.398        -138.078
