! TOUCHSTONE file generated by CST MICROWAVE STUDIO
! Date and time: Wed Oct 26 23:44:56 2022
! Project name: L.cst
! Parameters = {Di=1.27; Epsilon_r=1.56; InnerDiameter=1.27; Length=2; Lf=10; Lg=60; OuterConductorThickness=0.2921; OuterDiameter=3.6; Wf=3; Wp=41.2; de=1.5; df=6.8; g=0.8; gx=0.858819; gy=4.44; h=2.34; hf=1.524; px=10.6939; py=9.89131; w=9.7; wx=9.83512; wy=5.45131}
! Header version: 2018
! Port assignment regex: !\s*Touchstone port\s*([0-9]+)\s*=\s*(CST MWS port|CST DS port)\s*([0-9]+|Zmin|Zmax)\s*\(\"(.*)\"\)(\s*mode\s*([0-9]+))?.*
! Touchstone port assignment:
! Touchstone port 1 = CST MWS port 1 ("")
# GHz S DB R 50
4.5                    -0.755886         90.4889
4.52                   -0.781826         88.7971
4.54                   -0.817012         87.0885
4.56                   -0.860419         85.3833
4.58                   -0.910021         83.6957
4.6                    -0.963284         82.0325
4.62                    -1.01766         80.3929
4.64                    -1.07103         78.7696
4.66                    -1.12205         77.1506
4.68                    -1.17027          75.522
4.7                     -1.21616         73.8707
4.72                    -1.26089         72.1866
4.74                    -1.30609         70.4638
4.76                     -1.3535         68.7012
4.78                    -1.40471         66.9022
4.8                     -1.46088         65.0736
4.82                    -1.52267         63.2238
4.84                    -1.59015         61.3618
4.86                     -1.6629         59.4953
4.88                    -1.74013         57.6296
4.9                     -1.82084         55.7672
4.92                    -1.90408         53.9076
4.94                    -1.98907         52.0475
4.96                    -2.07537         50.1817
4.98                    -2.16295         48.3045
5                        -2.2522         46.4105
5.02                    -2.34384         44.4956
5.04                    -2.43883         42.5582
5.06                    -2.53818         40.5989
5.08                    -2.64284         38.6213
5.1                     -2.75354         36.6305
5.12                     -2.8707         34.6333
5.14                    -2.99438         32.6367
5.16                    -3.12431         30.6474
5.18                    -3.25996         28.6708
5.2                      -3.4006         26.7103
5.22                    -3.54551         24.7674
5.24                    -3.69402         22.8418
5.26                    -3.84571         20.9314
5.28                    -4.00043         19.0337
5.3                     -4.15837         17.1464
5.32                    -4.32001         15.2682
5.34                    -4.48601         13.4002
5.36                     -4.6571         11.5457
5.38                    -4.83394         9.71091
5.4                      -5.0169         7.90425
5.42                    -5.20596         6.13608
5.44                    -5.40063         4.41747
5.46                    -5.59988         2.75908
5.48                     -5.8022         1.16991
5.5                     -6.00568       -0.343839
5.52                    -6.20822        -1.77949
5.54                    -6.40776        -3.13816
5.56                    -6.60244        -4.42438
5.58                    -6.79085        -5.64502
5.6                     -6.97207        -6.80778
5.62                    -7.14572        -7.91943
5.64                    -7.31174        -8.98416
5.66                    -7.47019        -10.0026
5.68                    -7.62087        -10.9715
5.7                       -7.763         -11.885
5.72                    -7.89497        -12.7363
5.74                    -8.01417        -13.5208
5.76                    -8.11715        -14.2392
5.78                    -8.19991         -14.901
5.8                     -8.25849         -15.526
5.82                     -8.2897        -16.1449
5.84                    -8.29181        -16.7965
5.86                    -8.26511        -17.5237
5.88                    -8.21199        -18.3677
5.9                      -8.1367        -19.3619
5.92                     -8.0447        -20.5277
5.94                    -7.94175        -21.8728
5.96                    -7.83301        -23.3916
5.98                    -7.72228        -25.0685
6                       -7.61145        -26.8828
6.02                    -7.50028        -28.8147
6.04                    -7.38656        -30.8516
6.06                    -7.26665         -32.994
6.08                    -7.13634          -35.26
6.1                     -6.99201        -37.6873
6.12                    -6.83191        -40.3312
6.14                    -6.65719        -43.2604
6.16                    -6.47257        -46.5484
6.18                    -6.28629        -50.2664
6.2                     -6.10969        -54.4757
6.22                    -5.95633        -59.2243
6.24                    -5.84111        -64.5468
6.26                    -5.77956        -70.4669
6.28                    -5.78746        -77.0031
6.3                     -5.88075        -84.1745
6.32                    -6.07569        -92.0093
6.34                    -6.38931        -100.555
6.36                    -6.83971        -109.891
6.38                    -7.44625        -120.154
6.4                     -8.22855        -131.565
6.42                    -9.20241        -144.491
6.44                    -10.3669        -159.527
6.46                    -11.6692        -177.575
6.48                    -12.9277         160.299
6.5                     -13.7526         133.859
