! TOUCHSTONE file generated by CST MICROWAVE STUDIO
! Date and time: Thu Oct 27 12:05:08 2022
! Project name: L.cst
! Parameters = {Di=1.27; Epsilon_r=1.56; InnerDiameter=1.27; Length=2; Lf=10; Lg=60; OuterConductorThickness=0.2921; OuterDiameter=3.6; Wf=3; Wp=41.2; de=1.5; df=6.8; g=0.8; gx=3.39193; gy=4.78534; h=2.34; hf=1.524; px=10.9956; py=9.88669; w=9.7; wx=7.60366; wy=5.10135}
! Header version: 2018
! Port assignment regex: !\s*Touchstone port\s*([0-9]+)\s*=\s*(CST MWS port|CST DS port)\s*([0-9]+|Zmin|Zmax)\s*\(\"(.*)\"\)(\s*mode\s*([0-9]+))?.*
! Touchstone port assignment:
! Touchstone port 1 = CST MWS port 1 ("")
# GHz S DB R 50
4.5                    -0.344219         97.1107
4.52                   -0.353705         95.6787
4.54                   -0.363446         94.2365
4.56                   -0.373445         92.7842
4.58                   -0.383707         91.3216
4.6                    -0.394232         89.8487
4.62                   -0.405019         88.3655
4.64                   -0.416067         86.8718
4.66                   -0.427373         85.3677
4.68                    -0.43893         83.8531
4.7                    -0.450738         82.3278
4.72                   -0.462792         80.7918
4.74                   -0.475088          79.245
4.76                   -0.487624         77.6873
4.78                   -0.500397         76.1186
4.8                    -0.513406         74.5388
4.82                    -0.52665         72.9478
4.84                   -0.540131         71.3456
4.86                   -0.553847          69.732
4.88                     -0.5678         68.1071
4.9                    -0.581994         66.4706
4.92                    -0.59643         64.8227
4.94                   -0.611112         63.1632
4.96                   -0.626044         61.4922
4.98                   -0.641228         59.8096
5                      -0.656671         58.1154
5.02                   -0.672374         56.4096
5.04                   -0.688341         54.6924
5.06                   -0.704577         52.9637
5.08                   -0.721084         51.2236
5.1                    -0.737864         49.4723
5.12                    -0.75492         47.7097
5.14                   -0.772253         45.9361
5.16                   -0.789863         44.1515
5.18                   -0.807751         42.3561
5.2                    -0.825917         40.5502
5.22                   -0.844357         38.7338
5.24                    -0.86307         36.9072
5.26                   -0.882052         35.0707
5.28                   -0.901301         33.2243
5.3                     -0.92081         31.3684
5.32                   -0.940572         29.5033
5.34                   -0.960582         27.6293
5.36                   -0.980833         25.7466
5.38                    -1.00132         23.8555
5.4                     -1.02202         21.9565
5.42                    -1.04294         20.0498
5.44                    -1.06406         18.1357
5.46                    -1.08538         16.2148
5.48                    -1.10688         14.2873
5.5                     -1.12854         12.3536
5.52                    -1.15036         10.4142
5.54                    -1.17233         8.46953
5.56                    -1.19443         6.51995
5.58                    -1.21664         4.56595
5.6                     -1.23896         2.60798
5.62                    -1.26137        0.646506
5.64                    -1.28385        -1.31798
5.66                     -1.3064        -3.28499
5.68                    -1.32899        -5.25403
5.7                     -1.35161         -7.2246
5.72                    -1.37425        -9.19618
5.74                    -1.39688        -11.1682
5.76                     -1.4195        -13.1402
5.78                    -1.44209        -15.1117
5.8                     -1.46463        -17.0821
5.82                     -1.4871        -19.0509
5.84                    -1.50949        -21.0176
5.86                    -1.53179        -22.9815
5.88                    -1.55396        -24.9423
5.9                       -1.576        -26.8994
5.92                    -1.59789        -28.8522
5.94                    -1.61961        -30.8003
5.96                    -1.64114        -32.7432
5.98                    -1.66247        -34.6804
6                       -1.68356        -36.6114
6.02                    -1.70441        -38.5358
6.04                    -1.72499        -40.4531
6.06                     -1.7453         -42.363
6.08                     -1.7653        -44.2649
6.1                     -1.78497        -46.1587
6.12                    -1.80432        -48.0439
6.14                     -1.8233        -49.9201
6.16                    -1.84192        -51.7872
6.18                    -1.86016        -53.6448
6.2                     -1.87801        -55.4927
6.22                    -1.89545        -57.3307
6.24                    -1.91248        -59.1586
6.26                     -1.9291        -60.9762
6.28                     -1.9453        -62.7834
6.3                     -1.96109        -64.5802
6.32                    -1.97648        -66.3663
6.34                    -1.99148        -68.1418
6.36                     -2.0061        -69.9067
6.38                    -2.02037        -71.6607
6.4                     -2.03431         -73.404
6.42                    -2.04795        -75.1364
6.44                    -2.06132        -76.8579
6.46                    -2.07448        -78.5685
6.48                    -2.08746         -80.268
6.5                      -2.1003        -81.9564
