! TOUCHSTONE file generated by CST MICROWAVE STUDIO
! Date and time: Sat Oct 29 19:37:56 2022
! Project name: L.cst
! Parameters = {Di=1.27; Epsilon_r=1.56; InnerDiameter=1.27; Length=2; Lf=10; Lg=60; OuterConductorThickness=0.2921; OuterDiameter=3.6; Wf=3; Wp=41.2; de=1.5; df=6.8; g=0.8; gx=1.40535; gy=0.725939; h=2.34; hf=1.524; px=12.8156; py=13.6812; w=9.7; wx=11.4102; wy=12.9553}
! Header version: 2018
! Port assignment regex: !\s*Touchstone port\s*([0-9]+)\s*=\s*(CST MWS port|CST DS port)\s*([0-9]+|Zmin|Zmax)\s*\(\"(.*)\"\)(\s*mode\s*([0-9]+))?.*
! Touchstone port assignment:
! Touchstone port 1 = CST MWS port 1 ("")
# GHz S DB R 50
4.5                     -9.30687         21.6273
4.52                    -10.1597         17.4306
4.54                    -11.0732         14.1971
4.56                    -12.2571          9.9429
4.58                     -13.415         5.50728
4.6                     -14.9797          1.2258
4.62                    -16.7447        -5.22199
4.64                    -18.9448        -11.3135
4.66                    -22.0763        -22.3041
4.68                    -25.9662        -40.4721
4.7                     -30.8016        -88.3793
4.72                    -27.6338        -146.077
4.74                    -23.4211        -171.971
4.76                    -20.1135         175.749
4.78                    -17.9861         167.251
4.8                     -16.2565         159.856
4.82                    -15.0119         154.322
4.84                    -14.0625         148.649
4.86                    -13.2748         144.149
4.88                     -12.744         139.944
4.9                     -12.2591         136.083
4.92                    -11.9265         133.016
4.94                    -11.6605         129.852
4.96                    -11.4231         127.393
4.98                    -11.2915         125.023
5                       -11.1409         122.824
5.02                    -11.0673           121.1
5.04                    -11.0215         119.206
5.06                    -10.9837         117.808
5.08                    -11.0329         116.464
5.1                     -11.0739         115.287
5.12                    -11.1975         114.696
5.14                    -11.3768         114.264
5.16                    -11.5776         114.911
5.18                    -11.8483         116.724
5.2                     -11.9822         120.109
5.22                    -11.8508         125.432
5.24                    -11.2803         130.703
5.26                    -10.2569         134.472
5.28                      -9.097         135.722
5.3                     -7.92779          134.46
5.32                    -6.86033         131.798
5.34                    -5.93345         127.833
5.36                    -5.09254         123.121
5.38                    -4.38417         117.816
5.4                     -3.75641         111.827
5.42                    -3.22608         105.513
5.44                    -2.79721         98.5707
5.46                     -2.4398         91.2473
5.48                    -2.20216         83.4221
5.5                     -2.04555         74.9827
5.52                    -2.01978         66.1185
5.54                    -2.12968         56.4631
5.56                    -2.39157         46.3474
5.58                    -2.89102         35.5544
5.6                     -3.62788         24.7103
5.62                     -4.6122         15.6415
5.64                    -4.92733         8.98795
5.66                    -4.02311        -6.59742
5.68                    -3.95426         -36.496
5.7                     -4.95236        -70.6039
5.72                    -6.07841        -106.746
5.74                    -6.52426        -140.599
5.76                    -6.37058        -170.768
5.78                    -5.59543          165.71
5.8                     -4.77679         145.319
5.82                     -3.1874          122.21
5.84                    -4.41683          89.717
5.86                    -7.65581         86.6407
5.88                    -7.48362         85.3922
5.9                      -7.4449         80.8523
5.92                    -7.58241         72.6562
5.94                    -7.81335         65.1279
5.96                    -8.49339         56.7187
5.98                    -9.34865         47.7729
6                       -10.8511         39.5589
6.02                    -13.2449         31.4929
6.04                    -17.4116         32.3293
6.06                    -21.2756         78.9079
6.08                     -13.836         103.892
6.1                      -8.1081         78.9527
6.12                    -4.74845         30.2845
6.14                    -3.19157         -38.632
6.16                    -2.70401        -108.858
6.18                    -2.26403        -156.999
6.2                     -1.47309         169.922
6.22                   -0.902567         146.128
6.24                    -0.46793          125.15
6.26                   -0.508844         104.083
6.28                     -2.9388         86.5721
6.3                     -4.17381         96.9535
6.32                    -2.97435         95.2818
6.34                    -2.18379         88.7834
6.36                    -1.87174         82.1997
6.38                    -1.63085         75.1243
6.4                        -1.46         69.4988
6.42                    -1.44508         63.4299
6.44                    -1.29338         57.8828
6.46                    -1.32307         53.0593
6.48                    -1.27438         47.3126
6.5                      -1.2046         43.0513
