! TOUCHSTONE file generated by CST MICROWAVE STUDIO
! Date and time: Fri Oct 28 20:22:34 2022
! Project name: L.cst
! Parameters = {Di=1.27; Epsilon_r=1.56; InnerDiameter=1.27; Length=2; Lf=10; Lg=60; OuterConductorThickness=0.2921; OuterDiameter=3.6; Wf=3; Wp=41.2; de=1.5; df=6.8; g=0.8; gx=0.893341; gy=1.85927; h=2.34; hf=1.524; px=13.442; py=10.4582; w=9.7; wx=12.5486; wy=8.59889}
! Header version: 2018
! Port assignment regex: !\s*Touchstone port\s*([0-9]+)\s*=\s*(CST MWS port|CST DS port)\s*([0-9]+|Zmin|Zmax)\s*\(\"(.*)\"\)(\s*mode\s*([0-9]+))?.*
! Touchstone port assignment:
! Touchstone port 1 = CST MWS port 1 ("")
# GHz S DB R 50
4.5                     -8.62493         106.326
4.52                    -8.33171          106.81
4.54                    -8.06069         106.827
4.56                    -7.79372         106.415
4.58                    -7.53236         105.767
4.6                     -7.30035         104.917
4.62                     -7.0975         103.782
4.64                    -6.90685         102.398
4.66                    -6.73284         100.886
4.68                    -6.58821         99.2377
4.7                     -6.46819          97.374
4.72                    -6.36267         95.3412
4.74                    -6.27634         93.2033
4.76                    -6.21907         90.9114
4.78                    -6.18501         88.4175
4.8                     -6.16817         85.7482
4.82                    -6.17832         82.9253
4.84                    -6.22131         79.8858
4.86                    -6.29322         76.5726
4.88                    -6.39585         73.0045
4.9                     -6.54069         69.1491
4.92                    -6.73601          64.899
4.94                     -6.9832         60.1841
4.96                    -7.29325         54.9494
4.98                    -7.68777         49.0478
5                       -8.18118           42.25
5.02                    -8.78689         34.3005
5.04                    -9.53209         24.8255
5.06                    -10.4341         13.1466
5.08                    -11.4576        -1.74593
5.1                     -12.4612        -21.0569
5.12                    -13.0886        -45.5571
5.14                    -12.8303        -73.4047
5.16                    -11.6161        -99.8353
5.18                    -9.94398        -121.979
5.2                     -8.25675        -140.088
5.22                    -6.75056        -155.235
5.24                    -5.47767        -168.363
5.26                    -4.43077         179.763
5.28                    -3.61025         168.815
5.3                     -3.04408         158.655
5.32                     -2.7049         149.702
5.34                    -2.49019         142.061
5.36                    -2.32717         135.438
5.38                     -2.1954         129.508
5.4                     -2.09078         124.056
5.42                    -2.00881         118.976
5.44                    -1.94823         114.211
5.46                    -1.91038         109.702
5.48                    -1.89178         105.391
5.5                     -1.89006         101.255
5.52                    -1.90835         97.2895
5.54                    -1.95013         93.4788
5.56                    -2.01612         89.8528
5.58                    -2.09962          86.553
5.6                     -2.16571          83.749
5.62                    -2.13313         81.1954
5.64                    -2.00327         78.0229
5.66                    -1.89982         74.0655
5.68                    -1.86958         69.7984
5.7                     -1.89208         65.4267
5.72                    -1.94482         60.9475
5.74                    -2.01873         56.3217
5.76                     -2.1174         51.4582
5.78                    -2.24978         46.1961
5.8                     -2.42886         40.3245
5.82                    -2.72444         33.6694
5.84                     -3.1772         28.6849
5.86                     -3.1389         20.8305
5.88                    -3.50031         9.99179
5.9                     -4.08238        -3.62684
5.92                    -4.90314        -21.9312
5.94                    -6.00276        -48.1609
5.96                    -7.00448        -87.1201
5.98                    -6.62086        -136.714
6                       -4.88792         178.523
6.02                    -3.30741         145.276
6.04                    -2.32117         121.376
6.06                    -1.79265         103.861
6.08                    -1.52678         90.3848
6.1                     -1.38191         79.5899
6.12                    -1.30849         70.7381
6.14                    -1.29672         63.1342
6.16                    -1.30644         56.2683
6.18                    -1.30813         50.0791
6.2                     -1.33271          44.508
6.22                      -1.392         39.1483
6.24                    -1.43185         33.8284
6.26                    -1.44534         28.9035
6.28                    -1.51069         24.3153
6.3                     -1.61999         19.3619
6.32                     -1.6473         14.1213
6.34                     -1.6343         9.62894
6.36                    -1.85835         5.29345
6.38                    -2.75974        -4.97145
6.4                     -2.13586         5.58307
6.42                    -2.08312        -6.33662
6.44                    -1.93872        -11.4597
6.46                    -2.07403        -15.2296
6.48                    -2.32492        -20.2655
6.5                     -2.39145         -25.809
