! TOUCHSTONE file generated by CST MICROWAVE STUDIO
! Date and time: Fri Oct 28 00:45:36 2022
! Project name: L.cst
! Parameters = {Di=1.27; Epsilon_r=1.56; InnerDiameter=1.27; Length=2; Lf=10; Lg=60; OuterConductorThickness=0.2921; OuterDiameter=3.6; Wf=3; Wp=41.2; de=1.5; df=6.8; g=0.8; gx=4.4939; gy=4.37094; h=2.34; hf=1.524; px=13.2286; py=9.4735; w=9.7; wx=8.73472; wy=5.10255}
! Header version: 2018
! Port assignment regex: !\s*Touchstone port\s*([0-9]+)\s*=\s*(CST MWS port|CST DS port)\s*([0-9]+|Zmin|Zmax)\s*\(\"(.*)\"\)(\s*mode\s*([0-9]+))?.*
! Touchstone port assignment:
! Touchstone port 1 = CST MWS port 1 ("")
# GHz S DB R 50
4.5                    -0.400563         96.2049
4.52                   -0.412715         94.7212
4.54                   -0.425349         93.2246
4.56                   -0.438475         91.7152
4.58                   -0.452098          90.193
4.6                    -0.466216          88.658
4.62                   -0.480825         87.1101
4.64                   -0.495918         85.5493
4.66                    -0.51149         83.9754
4.68                   -0.527529         82.3883
4.7                    -0.544028         80.7879
4.72                   -0.560978         79.1741
4.74                   -0.578373         77.5465
4.76                   -0.596208         75.9051
4.78                    -0.61448         74.2496
4.8                    -0.633189         72.5799
4.82                   -0.652335         70.8956
4.84                   -0.671922         69.1967
4.86                   -0.691956         67.4828
4.88                   -0.712446         65.7539
4.9                    -0.733398         64.0098
4.92                   -0.754827         62.2502
4.94                   -0.776742          60.475
4.96                   -0.799159         58.6842
4.98                    -0.82209         56.8776
5                      -0.845549         55.0551
5.02                   -0.869553         53.2167
5.04                   -0.894114         51.3624
5.06                   -0.919248         49.4921
5.08                   -0.944967         47.6059
5.1                    -0.971285         45.7038
5.12                   -0.998212         43.7859
5.14                    -1.02576         41.8524
5.16                    -1.05393         39.9032
5.18                    -1.08275         37.9386
5.2                      -1.1122         35.9588
5.22                     -1.1423         33.9639
5.24                    -1.17304         31.9542
5.26                    -1.20444           29.93
5.28                    -1.23648         27.8915
5.3                     -1.26916          25.839
5.32                    -1.30248         23.7729
5.34                    -1.33644         21.6935
5.36                    -1.37102         19.6012
5.38                    -1.40621         17.4964
5.4                       -1.442         15.3796
5.42                    -1.47838         13.2511
5.44                    -1.51533         11.1114
5.46                    -1.55284         8.96113
5.48                     -1.5909          6.8007
5.5                     -1.62947         4.63067
5.52                    -1.66855         2.45162
5.54                    -1.70812         0.26412
5.56                    -1.74815        -1.93122
5.58                    -1.78863        -4.13376
5.6                     -1.82952        -6.34287
5.62                    -1.87082        -8.55786
5.64                     -1.9125        -10.7781
5.66                    -1.95453        -13.0028
5.68                    -1.99689        -15.2312
5.7                     -2.03956        -17.4627
5.72                    -2.08252        -19.6965
5.74                    -2.12574        -21.9318
5.76                     -2.1692        -24.1678
5.78                    -2.21287        -26.4038
5.8                     -2.25674         -28.639
5.82                    -2.30077        -30.8725
5.84                    -2.34495        -33.1035
5.86                    -2.38924        -35.3313
5.88                    -2.43363         -37.555
5.9                     -2.47809        -39.7738
5.92                    -2.52259        -41.9869
5.94                    -2.56711        -44.1936
5.96                    -2.61163        -46.3931
5.98                    -2.65611        -48.5846
6                       -2.70053        -50.7674
6.02                    -2.74487        -52.9408
6.04                    -2.78909         -55.104
6.06                    -2.83318        -57.2566
6.08                    -2.87711        -59.3977
6.1                     -2.92086         -61.527
6.12                     -2.9644        -63.6437
6.14                    -3.00771        -65.7475
6.16                    -3.05077        -67.8379
6.18                    -3.09358        -69.9144
6.2                     -3.13611        -71.9768
6.22                    -3.17835        -74.0248
6.24                    -3.22032         -76.058
6.26                      -3.262        -78.0763
6.28                    -3.30342        -80.0795
6.3                     -3.34458        -82.0676
6.32                    -3.38551        -84.0402
6.34                    -3.42626        -85.9976
6.36                    -3.46686        -87.9395
6.38                    -3.50738         -89.866
6.4                     -3.54787        -91.7769
6.42                    -3.58842        -93.6723
6.44                    -3.62911        -95.5519
6.46                    -3.67004        -97.4157
6.48                    -3.71133        -99.2634
6.5                     -3.75308        -101.095
