! TOUCHSTONE file generated by CST MICROWAVE STUDIO
! Date and time: Fri Oct 28 07:03:18 2022
! Project name: L.cst
! Parameters = {Di=1.27; Epsilon_r=1.56; InnerDiameter=1.27; Length=2; Lf=10; Lg=60; OuterConductorThickness=0.2921; OuterDiameter=3.6; Wf=3; Wp=41.2; de=1.5; df=6.8; g=0.8; gx=1.61363; gy=3.95759; h=2.34; hf=1.524; px=12.4381; py=11.1903; w=9.7; wx=10.8244; wy=7.23272}
! Header version: 2018
! Port assignment regex: !\s*Touchstone port\s*([0-9]+)\s*=\s*(CST MWS port|CST DS port)\s*([0-9]+|Zmin|Zmax)\s*\(\"(.*)\"\)(\s*mode\s*([0-9]+))?.*
! Touchstone port assignment:
! Touchstone port 1 = CST MWS port 1 ("")
# GHz S DB R 50
4.5                     -1.02001         86.8664
4.52                    -1.07914          85.299
4.54                    -1.12993         83.7312
4.56                    -1.17415         82.1158
4.58                    -1.21735         80.4261
4.6                     -1.26593         78.6644
4.62                    -1.32424         76.8569
4.64                    -1.39306         75.0391
4.66                    -1.46981         73.2391
4.68                    -1.55009         71.4665
4.7                     -1.62988         69.7102
4.72                    -1.70736         67.9453
4.74                    -1.78354         66.1461
4.76                    -1.86161         64.2976
4.78                    -1.94536         62.4007
4.8                     -2.03756         60.4711
4.82                    -2.13889         58.5306
4.84                    -2.24795         56.5978
4.86                    -2.36208         54.6803
4.88                    -2.47875         52.7723
4.9                     -2.59671         50.8591
4.92                    -2.71662          48.924
4.94                    -2.84064         46.9571
4.96                    -2.97154         44.9596
4.98                    -3.11143         42.9435
5                       -3.26098         40.9265
5.02                    -3.41923         38.9249
5.04                    -3.58411         36.9473
5.06                    -3.75343         34.9918
5.08                    -3.92593         33.0484
5.1                     -4.10186         31.1048
5.12                    -4.28282         29.1533
5.14                    -4.47105         27.1959
5.16                    -4.66832         25.2446
5.18                    -4.87506          23.318
5.2                     -5.09006          21.434
5.22                    -5.31078         19.6035
5.24                    -5.53439         17.8266
5.26                    -5.75879          16.094
5.28                    -5.98342         14.3921
5.3                     -6.20924         12.7114
5.32                    -6.43796         11.0524
5.34                    -6.67082         9.42683
5.36                    -6.90742         7.85403
5.38                    -7.14524         6.35194
5.4                     -7.38001          4.9282
5.42                      -7.607         3.57442
5.44                    -7.82265         2.26718
5.46                    -8.02566         0.97585
5.48                    -8.21715       -0.326065
5.5                     -8.39952        -1.65182
5.52                    -8.57463        -2.99961
5.54                    -8.74225        -4.35944
5.56                    -8.89945        -5.72611
5.58                    -9.04162        -7.11217
5.6                     -9.16461        -8.55417
5.62                    -9.26714        -10.1078
5.64                    -9.35227        -11.8329
5.66                    -9.42693        -13.7757
5.68                    -9.49991        -15.9567
5.7                     -9.57902        -18.3707
5.72                    -9.66908        -20.9982
5.74                    -9.77139        -23.8234
5.76                    -9.88517        -26.8498
5.78                    -10.0102        -30.1069
5.8                       -10.15        -33.6425
5.82                    -10.3129        -37.5033
5.84                    -10.5116        -41.7112
5.86                      -10.76        -46.2453
5.88                    -11.0681        -51.0386
5.9                     -11.4368         -55.994
5.92                    -11.8534        -61.0205
5.94                     -12.289        -66.0941
5.96                    -12.7026        -71.3324
5.98                    -13.0509        -77.0547
6                       -13.3052        -83.7746
6.02                    -13.4603        -92.0988
6.04                    -13.5277        -102.576
6.06                    -13.5138         -115.57
6.08                    -13.3983        -131.162
6.1                     -13.1326        -149.059
6.12                    -12.6661        -168.539
6.14                    -11.9904         171.417
6.16                    -11.1599         151.796
6.18                    -10.2679         133.259
6.2                     -9.40621         116.103
6.22                    -8.63986         100.391
6.24                    -8.00291         86.0876
6.26                    -7.50303          73.142
6.28                    -7.12739         61.5011
6.3                     -6.84802         51.0931
6.32                    -6.62806         41.7883
6.34                    -6.43086         33.3666
6.36                     -6.2316         25.5187
6.38                    -6.02695         17.8975
6.4                     -5.83702         10.2033
6.42                    -5.69849         2.25336
6.44                    -5.65349        -5.99352
6.46                    -5.74027        -14.4569
6.48                    -5.98789        -22.9744
6.5                     -6.41452        -31.3442
