! TOUCHSTONE file generated by CST MICROWAVE STUDIO
! Date and time: Fri Oct 28 18:21:14 2022
! Project name: L.cst
! Parameters = {Di=1.27; Epsilon_r=1.56; InnerDiameter=1.27; Length=2; Lf=10; Lg=60; OuterConductorThickness=0.2921; OuterDiameter=3.6; Wf=3; Wp=41.2; de=1.5; df=6.8; g=0.8; gx=1.26505; gy=1.69426; h=2.34; hf=1.524; px=13.0665; py=13.0961; w=9.7; wx=11.8015; wy=11.4019}
! Header version: 2018
! Port assignment regex: !\s*Touchstone port\s*([0-9]+)\s*=\s*(CST MWS port|CST DS port)\s*([0-9]+|Zmin|Zmax)\s*\(\"(.*)\"\)(\s*mode\s*([0-9]+))?.*
! Touchstone port assignment:
! Touchstone port 1 = CST MWS port 1 ("")
# GHz S DB R 50
4.5                     -7.57152         53.2187
4.52                    -8.07149         53.0883
4.54                    -8.55944         52.4688
4.56                    -9.16801         52.4349
4.58                    -9.68495         53.2757
4.6                     -10.1717         53.7267
4.62                    -10.7446         54.8496
4.64                    -11.1889         56.7933
4.66                    -11.5787         58.3107
4.68                     -12.008         60.4535
4.7                     -12.2711         63.1113
4.72                    -12.4718         65.1247
4.74                    -12.6812         67.5142
4.76                    -12.7287         69.9464
4.78                     -12.744         71.5213
4.8                     -12.7748          73.219
4.82                    -12.6899         74.6526
4.84                     -12.617         75.2186
4.86                    -12.5824         75.8076
4.88                    -12.4812         76.0675
4.9                     -12.4234         75.5758
4.92                    -12.4233         75.1026
4.94                     -12.392         74.3415
4.96                    -12.4235         72.9369
4.98                    -12.5317         71.5553
5                        -12.638         69.9345
5.02                    -12.8283         67.7185
5.04                    -13.1264         65.5078
5.06                    -13.4621         63.0808
5.08                    -13.9257         60.0176
5.1                     -14.5703         56.8881
5.12                     -15.345         53.5098
5.14                    -16.3817         49.2734
5.16                    -17.8439         44.6884
5.18                    -19.8175         39.4668
5.2                     -22.8175          31.712
5.22                    -28.4025         17.4088
5.24                    -37.9165        -71.3184
5.26                    -26.4446        -137.448
5.28                    -20.4821        -150.966
5.3                     -16.7912        -160.015
5.32                    -14.1034        -167.514
5.34                    -11.9657        -174.759
5.36                    -10.2633         177.956
5.38                     -8.8835          170.97
5.4                     -7.71789         164.128
5.42                    -6.75395         157.278
5.44                    -5.96663         150.681
5.46                    -5.29512         144.304
5.48                    -4.73828         137.963
5.5                     -4.29982         131.844
5.52                    -3.93593         126.007
5.54                    -3.63949         120.269
5.56                    -3.42154         114.743
5.58                    -3.24479         109.505
5.6                     -3.09898         104.327
5.62                    -3.00634         99.2554
5.64                     -2.9386         94.3994
5.66                    -2.88265         89.5176
5.68                    -2.87016          84.608
5.7                      -2.8803         79.8284
5.72                    -2.89467         74.9277
5.74                    -2.95431         69.8456
5.76                    -3.04741         64.7985
5.78                    -3.14765         59.5284
5.8                     -3.30689         53.8825
5.82                    -3.52904         48.1359
5.84                    -3.78009          42.021
5.86                    -4.13264         35.2061
5.88                    -4.63727         28.0105
5.9                     -5.28191         20.2133
5.92                    -6.22692          11.237
5.94                    -7.76761         1.78395
5.96                    -10.2855        -6.08553
5.98                    -14.5612        -3.27467
6                       -16.1785         38.7706
6.02                     -10.642         48.5591
6.04                    -7.28058         28.7525
6.06                    -5.83687        0.367905
6.08                    -5.48515        -33.0227
6.1                     -5.59975        -71.1185
6.12                     -5.6545        -111.637
6.14                    -5.37102        -148.782
6.16                    -4.69604        -178.365
6.18                    -3.68875         157.536
6.2                     -2.81218         135.525
6.22                    -2.39607         115.925
6.24                    -2.17316         98.3474
6.26                     -2.3513         78.0442
6.28                     -4.4517         54.2646
6.3                     -11.8741         46.3735
6.32                     -9.5001         122.934
6.34                     -3.1761         107.129
6.36                    -1.52284          85.046
6.38                    -1.49225         71.3844
6.4                     -1.16067         62.9549
6.42                   -0.803618         51.9633
6.44                    -1.02822          41.908
6.46                    -1.13893         34.9232
6.48                    -1.04067         26.4647
6.5                     -1.22791         17.8128
