! TOUCHSTONE file generated by CST MICROWAVE STUDIO
! Date and time: Sat Oct 29 01:20:44 2022
! Project name: L.cst
! Parameters = {Di=1.27; Epsilon_r=1.56; InnerDiameter=1.27; Length=2; Lf=10; Lg=60; OuterConductorThickness=0.2921; OuterDiameter=3.6; Wf=3; Wp=41.2; de=1.5; df=6.8; g=0.8; gx=3.14153; gy=3.79529; h=2.34; hf=1.524; px=11.4801; py=10.1708; w=9.7; wx=8.33857; wy=6.37551}
! Header version: 2018
! Port assignment regex: !\s*Touchstone port\s*([0-9]+)\s*=\s*(CST MWS port|CST DS port)\s*([0-9]+|Zmin|Zmax)\s*\(\"(.*)\"\)(\s*mode\s*([0-9]+))?.*
! Touchstone port assignment:
! Touchstone port 1 = CST MWS port 1 ("")
# GHz S DB R 50
4.5                    -0.450955          92.625
4.52                   -0.464823         91.1324
4.54                   -0.479267         89.6261
4.56                   -0.494296         88.1062
4.58                   -0.509913         86.5726
4.6                    -0.526117         85.0254
4.62                   -0.542899         83.4645
4.64                    -0.56025         81.8897
4.66                   -0.578158         80.3011
4.68                   -0.596613         78.6983
4.7                    -0.615603         77.0813
4.72                   -0.635118         75.4498
4.74                    -0.65515         73.8036
4.76                   -0.675693         72.1425
4.78                   -0.696743         70.4661
4.8                    -0.718301         68.7743
4.82                   -0.740368         67.0667
4.84                   -0.762949         65.3431
4.86                    -0.78605         63.6033
4.88                    -0.80968         61.8469
4.9                    -0.833852         60.0739
4.92                   -0.858578         58.2839
4.94                   -0.883873         56.4769
4.96                   -0.909752         54.6525
4.98                   -0.936232         52.8107
5                      -0.963328         50.9515
5.02                   -0.991056         49.0745
5.04                    -1.01943           47.18
5.06                    -1.04847         45.2677
5.08                    -1.07819         43.3377
5.1                     -1.10859           41.39
5.12                    -1.13969         39.4247
5.14                    -1.17151         37.4419
5.16                    -1.20403         35.4418
5.18                    -1.23728         33.4243
5.2                     -1.27124         31.3898
5.22                    -1.30593         29.3384
5.24                    -1.34134         27.2704
5.26                    -1.37745          25.186
5.28                    -1.41427         23.0856
5.3                     -1.45179         20.9693
5.32                    -1.48998         18.8377
5.34                    -1.52885         16.6911
5.36                    -1.56835         14.5298
5.38                    -1.60849         12.3544
5.4                     -1.64922         10.1652
5.42                    -1.69054         7.96279
5.44                    -1.73241         5.74766
5.46                    -1.77481         3.52035
5.48                     -1.8177         1.28144
5.5                     -1.86106       -0.968494
5.52                    -1.90485        -3.22881
5.54                    -1.94903        -5.49887
5.56                    -1.99358        -7.77798
5.58                    -2.03846        -10.0655
5.6                     -2.08363        -12.3606
5.62                    -2.12905        -14.6625
5.64                    -2.17469        -16.9706
5.66                    -2.22051         -19.284
5.68                    -2.26647        -21.6019
5.7                     -2.31254        -23.9235
5.72                    -2.35867        -26.2478
5.74                    -2.40483        -28.5741
5.76                    -2.45098        -30.9013
5.78                    -2.49709        -33.2287
5.8                     -2.54311        -35.5553
5.82                    -2.58901        -37.8803
5.84                    -2.63475        -40.2026
5.86                    -2.68029        -42.5214
5.88                    -2.72561        -44.8358
5.9                     -2.77065        -47.1448
5.92                     -2.8154        -49.4475
5.94                     -2.8598        -51.7431
5.96                    -2.90383        -54.0306
5.98                    -2.94745        -56.3092
6                       -2.99063        -58.5782
6.02                    -3.03332        -60.8366
6.04                    -3.07551        -63.0838
6.06                    -3.11715        -65.3191
6.08                    -3.15821        -67.5416
6.1                     -3.19867        -69.7509
6.12                    -3.23849        -71.9464
6.14                    -3.27766        -74.1274
6.16                    -3.31614        -76.2936
6.18                    -3.35392        -78.4445
6.2                     -3.39099        -80.5798
6.22                    -3.42732        -82.6992
6.24                    -3.46293        -84.8025
6.26                    -3.49781        -86.8894
6.28                    -3.53196        -88.9599
6.3                     -3.56542        -91.0139
6.32                     -3.5982        -93.0513
6.34                    -3.63034        -95.0721
6.36                    -3.66189        -97.0765
6.38                    -3.69291        -99.0643
6.4                     -3.72346        -101.036
6.42                    -3.75363        -102.991
6.44                    -3.78349        -104.929
6.46                    -3.81316        -106.851
6.48                    -3.84274        -108.757
6.5                     -3.87235        -110.645
