! TOUCHSTONE file generated by CST MICROWAVE STUDIO
! Date and time: Thu Oct 27 16:37:36 2022
! Project name: L.cst
! Parameters = {Di=1.27; Epsilon_r=1.56; InnerDiameter=1.27; Length=2; Lf=10; Lg=60; OuterConductorThickness=0.2921; OuterDiameter=3.6; Wf=3; Wp=41.2; de=1.5; df=6.8; g=0.8; gx=3.48083; gy=1.70486; h=2.34; hf=1.524; px=14.3082; py=14.037; w=9.7; wx=10.8274; wy=12.3321}
! Header version: 2018
! Port assignment regex: !\s*Touchstone port\s*([0-9]+)\s*=\s*(CST MWS port|CST DS port)\s*([0-9]+|Zmin|Zmax)\s*\(\"(.*)\"\)(\s*mode\s*([0-9]+))?.*
! Touchstone port assignment:
! Touchstone port 1 = CST MWS port 1 ("")
# GHz S DB R 50
4.5                     -2.06896         60.8716
4.52                     -2.2804          58.168
4.54                    -2.38248         55.0682
4.56                    -2.56629         52.5163
4.58                    -2.76309          49.097
4.6                     -2.91314         46.1416
4.62                    -3.17605         42.8092
4.64                    -3.36002         39.1793
4.66                    -3.62779         35.8508
4.68                    -3.90369         31.7514
4.7                     -4.16438          27.988
4.72                    -4.52554         23.7195
4.74                    -4.82984         19.1908
4.76                    -5.23215         14.7207
4.78                    -5.63816         9.44503
4.8                     -6.06264         4.36784
4.82                    -6.58221        -1.48716
4.84                     -7.0597         -7.6477
4.86                    -7.65667        -14.1478
4.88                    -8.23263        -21.6722
4.9                     -8.85652        -29.2992
4.92                    -9.52891        -38.2972
4.94                    -10.1294         -47.755
4.96                    -10.7983        -58.3384
4.98                    -11.2933        -70.0392
5                       -11.7579        -82.1449
5.02                    -12.0137        -95.4887
5.04                    -12.0888        -108.265
5.06                    -12.0273        -121.444
5.08                    -11.7379        -133.471
5.1                     -11.4427        -144.801
5.12                    -10.9952         -155.23
5.14                    -10.6024        -164.315
5.16                    -10.1797        -172.997
5.18                     -9.7771          179.68
5.2                     -9.44922         172.672
5.22                    -9.09151         166.522
5.24                    -8.83901         161.001
5.26                    -8.56514         155.723
5.28                    -8.34104         151.319
5.3                     -8.15496         146.924
5.32                    -7.93839         143.195
5.34                    -7.79387         139.744
5.36                    -7.59531          136.43
5.38                    -7.42193         133.742
5.4                     -7.23915         130.866
5.42                    -6.99253         128.474
5.44                    -6.77427         126.052
5.46                    -6.45919          123.47
5.48                    -6.14025         121.097
5.5                     -5.78465         118.045
5.52                    -5.36296         114.978
5.54                    -4.98247         111.301
5.56                    -4.53156         106.986
5.58                    -4.13045         102.393
5.6                     -3.73329         96.6847
5.62                    -3.33552          90.647
5.64                    -3.03568         83.4431
5.66                     -2.7122         75.2004
5.68                    -2.54398         65.8341
5.7                     -2.44221          54.142
5.72                    -2.55233         40.5336
5.74                    -3.07632         21.8957
5.76                    -4.42924         -3.7845
5.78                    -9.54746        -45.3426
5.8                      -31.467         136.447
5.82                     -14.331          61.792
5.84                     -14.798         39.6868
5.86                    -17.9969         39.2018
5.88                    -14.6893         92.0935
5.9                     -7.94739         46.2233
5.92                    -10.0015         -14.328
5.94                    -15.2793        -59.4098
5.96                    -16.1239        -117.976
5.98                       -14.1        -161.368
6                       -10.8069         171.601
6.02                    -8.41031         151.776
6.04                    -6.03646         131.847
6.06                     -4.2114         107.415
6.08                    -3.13477         74.0377
6.1                     -4.12099         22.1864
6.12                    -8.56595        -60.6496
6.14                    -8.63723        -153.968
6.16                     -5.4613         161.307
6.18                    -3.44697         132.961
6.2                     -1.93797         110.006
6.22                     -1.2726         85.8749
6.24                    -1.50776         60.2963
6.26                    -3.29965         35.1237
6.28                    -6.41495         12.2774
6.3                     -12.0535        -8.00576
6.32                      -27.07        -40.3947
6.34                     -16.701         140.234
6.36                    -10.6786         124.577
6.38                    -7.96045         109.643
6.4                     -6.41907          98.753
6.42                    -5.56013         88.0683
6.44                    -4.87183         79.7065
6.46                    -4.59344         70.8155
6.48                    -4.08782         62.7801
6.5                      -4.2832         53.6454
