! TOUCHSTONE file generated by CST MICROWAVE STUDIO
! Date and time: Sat Oct 29 19:31:50 2022
! Project name: L.cst
! Parameters = {Di=1.27; Epsilon_r=1.56; InnerDiameter=1.27; Length=2; Lf=10; Lg=60; OuterConductorThickness=0.2921; OuterDiameter=3.6; Wf=3; Wp=41.2; de=1.5; df=6.8; g=0.8; gx=4.07375; gy=1.97367; h=2.34; hf=1.524; px=14.4622; py=12.3014; w=9.7; wx=10.3884; wy=10.3278}
! Header version: 2018
! Port assignment regex: !\s*Touchstone port\s*([0-9]+)\s*=\s*(CST MWS port|CST DS port)\s*([0-9]+|Zmin|Zmax)\s*\(\"(.*)\"\)(\s*mode\s*([0-9]+))?.*
! Touchstone port assignment:
! Touchstone port 1 = CST MWS port 1 ("")
# GHz S DB R 50
4.5                     -1.30682         72.9726
4.52                    -1.38287         70.7644
4.54                    -1.46439         68.5104
4.56                    -1.55062         66.2093
4.58                    -1.64111         63.8543
4.6                     -1.73607         61.4368
4.62                    -1.83641         58.9493
4.64                    -1.94329         56.3879
4.66                    -2.05776         53.7527
4.68                    -2.18033         51.0449
4.7                     -2.31104         48.2646
4.72                    -2.44972         45.4088
4.74                    -2.59632         42.4711
4.76                    -2.75122         39.4437
4.78                    -2.91523         36.3191
4.8                     -3.08934         33.0918
4.82                    -3.27445         29.7587
4.84                    -3.47111         26.3178
4.86                    -3.67946         22.7662
4.88                     -3.8994         19.0985
4.9                     -4.13078         15.3068
4.92                    -4.37361         11.3814
4.94                    -4.62811         7.31217
4.96                    -4.89453         3.08991
4.98                    -5.17291        -1.29286
5                       -5.46283        -5.84261
5.02                    -5.76324         -10.566
5.04                    -6.07248        -15.4708
5.06                     -6.3884        -20.5669
5.08                    -6.70849        -25.8649
5.1                     -7.02999        -31.3744
5.12                    -7.34977        -37.1023
5.14                    -7.66423          -43.05
5.16                    -7.96912        -49.2128
5.18                    -8.25944         -55.579
5.2                     -8.52965        -62.1299
5.22                    -8.77401        -68.8408
5.24                    -8.98721        -75.6804
5.26                    -9.16491        -82.6108
5.28                    -9.30422        -89.5883
5.3                     -9.40394        -96.5631
5.32                    -9.46449        -103.482
5.34                    -9.48766        -110.294
5.36                    -9.47623        -116.948
5.38                    -9.43365        -123.406
5.4                      -9.3638        -129.638
5.42                    -9.27094        -135.625
5.44                    -9.15952        -141.358
5.46                    -9.03405        -146.836
5.48                    -8.89882         -152.06
5.5                     -8.75751        -157.035
5.52                     -8.6129        -161.766
5.54                    -8.46675        -166.262
5.56                    -8.31997        -170.534
5.58                    -8.17302        -174.599
5.6                     -8.02637        -178.478
5.62                    -7.88081         177.808
5.64                    -7.73752         174.239
5.66                    -7.59778           170.8
5.68                    -7.46258          167.48
5.7                     -7.33234         164.271
5.72                    -7.20691         161.162
5.74                    -7.08602         158.142
5.76                    -6.96982         155.194
5.78                    -6.85937         152.302
5.8                     -6.75665         149.456
5.82                    -6.66404         146.654
5.84                    -6.58341         143.904
5.86                    -6.51533         141.221
5.88                    -6.45868         138.619
5.9                     -6.41106         136.106
5.92                    -6.36984          133.68
5.94                    -6.33337         131.331
5.96                    -6.30165         129.048
5.98                    -6.27579          126.83
6                       -6.25645         124.694
6.02                    -6.24159         122.666
6.04                    -6.22514         120.768
6.06                    -6.19749         118.998
6.08                     -6.1486         117.309
6.1                     -6.07301         115.611
6.12                    -5.97419         113.796
6.14                    -5.86554         111.781
6.16                    -5.76666         109.549
6.18                     -5.6963         107.166
6.2                     -5.66443         104.772
6.22                    -5.66617         102.535
6.24                     -5.6794         100.593
6.26                    -5.66894         98.9737
6.28                    -5.59874         97.5455
6.3                      -5.4494         96.0292
6.32                    -5.23068         94.1018
6.34                    -4.97913         91.5314
6.36                    -4.74264         88.2599
6.38                    -4.56269         84.3958
6.4                     -4.46274         80.1478
6.42                    -4.44438         75.7376
6.44                    -4.49004         71.3137
6.46                    -4.57292         66.8772
6.48                    -4.67361         62.2496
6.5                     -4.79918         57.1175
