! TOUCHSTONE file generated by CST MICROWAVE STUDIO
! Date and time: Thu Oct 27 01:47:39 2022
! Project name: L.cst
! Parameters = {Di=1.27; Epsilon_r=1.56; InnerDiameter=1.27; Length=2; Lf=10; Lg=60; OuterConductorThickness=0.2921; OuterDiameter=3.6; Wf=3; Wp=41.2; de=1.5; df=6.8; g=0.8; gx=1.48104; gy=1.87884; h=2.34; hf=1.524; px=10.7545; py=10.5753; w=9.7; wx=9.27342; wy=8.69649}
! Header version: 2018
! Port assignment regex: !\s*Touchstone port\s*([0-9]+)\s*=\s*(CST MWS port|CST DS port)\s*([0-9]+|Zmin|Zmax)\s*\(\"(.*)\"\)(\s*mode\s*([0-9]+))?.*
! Touchstone port assignment:
! Touchstone port 1 = CST MWS port 1 ("")
# GHz S DB R 50
4.5                     -1.23289         69.0254
4.52                    -1.29879         67.1371
4.54                    -1.36556         65.2218
4.56                    -1.43339          63.276
4.58                    -1.50252         61.2967
4.6                     -1.57325         59.2809
4.62                    -1.64593         57.2261
4.64                    -1.72093         55.1303
4.66                    -1.79861         52.9917
4.68                    -1.87938         50.8088
4.7                     -1.96361         48.5805
4.72                    -2.05168          46.306
4.74                    -2.14394         43.9847
4.76                    -2.24071         41.6162
4.78                    -2.34232         39.2002
4.8                     -2.44904         36.7367
4.82                    -2.56111         34.2257
4.84                    -2.67874         31.6673
4.86                    -2.80212         29.0615
4.88                    -2.93139         26.4085
4.9                     -3.06667         23.7085
4.92                    -3.20803         20.9616
4.94                    -3.35554         18.1677
4.96                    -3.50919          15.327
4.98                    -3.66897         12.4395
5                       -3.83481         9.50495
5.02                    -4.00664         6.52337
5.04                    -4.18433         3.49452
5.06                    -4.36771        0.418199
5.08                    -4.55659        -2.70587
5.1                     -4.75073        -5.87796
5.12                    -4.94985        -9.09835
5.14                    -5.15363        -12.3673
5.16                    -5.36172         -15.685
5.18                    -5.57372        -19.0516
5.2                     -5.78916         -22.467
5.22                    -6.00757        -25.9312
5.24                     -6.2284        -29.4437
5.26                    -6.45106         -33.004
5.28                    -6.67495        -36.6111
5.3                     -6.89938        -40.2637
5.32                    -7.12366        -43.9602
5.34                    -7.34706        -47.6983
5.36                    -7.56882        -51.4752
5.38                    -7.78817        -55.2878
5.4                     -8.00433        -59.1319
5.42                    -8.21654        -63.0031
5.44                    -8.42404         -66.896
5.46                    -8.62612        -70.8046
5.48                     -8.8221        -74.7224
5.5                     -9.01137        -78.6419
5.52                    -9.19339        -82.5554
5.54                     -9.3677        -86.4545
5.56                    -9.53392        -90.3304
5.58                    -9.69178         -94.174
5.6                     -9.84108        -97.9762
5.62                    -9.98174        -101.728
5.64                    -10.1137        -105.419
5.66                    -10.2371        -109.041
5.68                     -10.352        -112.585
5.7                     -10.4586        -116.043
5.72                     -10.557        -119.407
5.74                    -10.6473         -122.67
5.76                    -10.7298        -125.824
5.78                    -10.8045        -128.864
5.8                     -10.8715        -131.786
5.82                    -10.9306        -134.583
5.84                    -10.9817        -137.254
5.86                    -11.0246        -139.795
5.88                    -11.0589        -142.205
5.9                      -11.084        -144.483
5.92                    -11.0992        -146.631
5.94                     -11.104         -148.65
5.96                    -11.0973        -150.545
5.98                    -11.0784         -152.32
6                       -11.0463        -153.981
6.02                    -11.0001        -155.538
6.04                    -10.9388        -156.999
6.06                    -10.8617        -158.377
6.08                    -10.7682        -159.683
6.1                     -10.6577        -160.932
6.12                    -10.5301        -162.139
6.14                    -10.3853        -163.318
6.16                    -10.2235        -164.485
6.18                    -10.0453        -165.656
6.2                     -9.85156        -166.846
6.22                    -9.64316        -168.067
6.24                    -9.42136        -169.335
6.26                    -9.18754        -170.659
6.28                     -8.9432         -172.05
6.3                     -8.68994        -173.518
6.32                     -8.4294        -175.069
6.34                    -8.16322         -176.71
6.36                    -7.89305        -178.446
6.38                    -7.62046         179.721
6.4                     -7.34701         177.787
6.42                    -7.07417         175.749
6.44                    -6.80333         173.608
6.46                    -6.53584         171.362
6.48                    -6.27295         169.011
6.5                     -6.01588         166.554
