! TOUCHSTONE file generated by CST MICROWAVE STUDIO
! Date and time: Fri Oct 28 00:34:03 2022
! Project name: L.cst
! Parameters = {Di=1.27; Epsilon_r=1.56; InnerDiameter=1.27; Length=2; Lf=10; Lg=60; OuterConductorThickness=0.2921; OuterDiameter=3.6; Wf=3; Wp=41.2; de=1.5; df=6.8; g=0.8; gx=2.12472; gy=1.76132; h=2.34; hf=1.524; px=14.4931; py=8.49634; w=9.7; wx=12.3684; wy=6.73502}
! Header version: 2018
! Port assignment regex: !\s*Touchstone port\s*([0-9]+)\s*=\s*(CST MWS port|CST DS port)\s*([0-9]+|Zmin|Zmax)\s*\(\"(.*)\"\)(\s*mode\s*([0-9]+))?.*
! Touchstone port assignment:
! Touchstone port 1 = CST MWS port 1 ("")
# GHz S DB R 50
4.5                      -8.6742         32.6388
4.52                    -9.54374         29.3403
4.54                    -10.5193         26.0637
4.56                    -11.6213         22.7847
4.58                    -12.8723         19.5277
4.6                     -14.3133         16.3379
4.62                     -16.017         13.2445
4.64                    -18.0911         10.2529
4.66                     -20.731         7.41236
4.68                    -24.3882         5.03653
4.7                     -30.4902         4.39253
4.72                    -51.9571         76.7646
4.74                    -31.1459         168.434
4.76                    -25.3119         167.954
4.78                    -21.9969         165.816
4.8                     -19.7205         163.321
4.82                    -18.0219         160.749
4.84                    -16.6913         158.126
4.86                    -15.6169         155.481
4.88                      -14.73         152.862
4.9                     -13.9911         150.275
4.92                    -13.3745         147.717
4.94                    -12.8568         145.185
4.96                    -12.4231         142.685
4.98                    -12.0652         140.236
5                       -11.7759         137.833
5.02                    -11.5502         135.466
5.04                    -11.3839          133.16
5.06                    -11.2756         130.933
5.08                    -11.2283         128.797
5.1                     -11.2425         126.781
5.12                    -11.3204         124.926
5.14                    -11.4686         123.322
5.16                    -11.6925         122.077
5.18                    -11.9973         121.343
5.2                     -12.3792         121.392
5.22                    -12.8183         122.603
5.24                    -13.2596          125.45
5.26                    -13.5736         130.312
5.28                    -13.5513         136.957
5.3                     -13.0085             144
5.32                    -11.9675         149.306
5.34                    -10.6688          151.47
5.36                    -9.37837         150.459
5.38                    -8.26521          147.04
5.4                     -7.40106         142.137
5.42                    -6.79167         136.498
5.44                    -6.40771         130.614
5.46                    -6.20866         124.793
5.48                    -6.15938         119.204
5.5                     -6.23803         113.891
5.52                    -6.42868         108.831
5.54                    -6.71966             104
5.56                    -7.11453         99.4158
5.58                    -7.63377         95.0937
5.6                     -8.30712         91.0152
5.62                    -9.16943         87.2837
5.64                    -10.2825          84.342
5.66                    -11.7706         83.2684
5.68                    -13.7416         86.9585
5.7                     -15.1252         102.122
5.72                     -13.435         99.9402
5.74                    -19.2887         94.8191
5.76                    -20.1935         157.266
5.78                    -14.3278         176.674
5.8                     -10.4358         176.175
5.82                    -7.76881         170.671
5.84                    -5.81933         163.178
5.86                    -4.35511         154.955
5.88                    -3.26988          146.64
5.9                     -2.48916         138.448
5.92                    -1.93376         130.464
5.94                    -1.53889         122.829
5.96                    -1.27269         115.623
5.98                    -1.11769         108.744
6                       -1.04566         102.031
6.02                    -1.03074          95.427
6.04                    -1.07629         88.9112
6.06                    -1.20032         82.3503
6.08                    -1.37536         75.5218
6.1                     -1.58151         67.5804
6.12                     -1.9893         58.0476
6.14                    -2.77515         46.0988
6.16                    -4.34838         29.1293
6.18                    -8.03943        0.363392
6.2                     -16.1771        -94.6747
6.22                    -7.12774         165.087
6.24                    -3.11174         131.855
6.26                    -1.70617         111.664
6.28                    -1.12217         97.7432
6.3                    -0.829161         87.6722
6.32                   -0.734989         79.9424
6.34                   -0.782387         72.9533
6.36                   -0.795879         65.7937
6.38                   -0.646471         58.7399
6.4                     -2.17978         61.9065
6.42                   -0.497339           54.37
6.44                   -0.656187         50.2253
6.46                   -0.855921         45.2581
6.48                   -0.889426         40.0152
6.5                    -0.831506         35.7124
