! TOUCHSTONE file generated by CST MICROWAVE STUDIO
! Date and time: Thu Oct 27 19:37:09 2022
! Project name: L.cst
! Parameters = {Di=1.27; Epsilon_r=1.56; InnerDiameter=1.27; Length=2; Lf=10; Lg=60; OuterConductorThickness=0.2921; OuterDiameter=3.6; Wf=3; Wp=41.2; de=1.5; df=6.8; g=0.8; gx=4.68885; gy=2.17261; h=2.34; hf=1.524; px=13.4149; py=9.33814; w=9.7; wx=8.72603; wy=7.16553}
! Header version: 2018
! Port assignment regex: !\s*Touchstone port\s*([0-9]+)\s*=\s*(CST MWS port|CST DS port)\s*([0-9]+|Zmin|Zmax)\s*\(\"(.*)\"\)(\s*mode\s*([0-9]+))?.*
! Touchstone port assignment:
! Touchstone port 1 = CST MWS port 1 ("")
# GHz S DB R 50
4.5                     -0.58911         84.8882
4.52                   -0.624223         83.0856
4.54                   -0.660791         81.2696
4.56                   -0.698455         79.4384
4.58                   -0.736918           77.59
4.6                    -0.775945         75.7221
4.62                   -0.815365          73.832
4.64                   -0.855068         71.9172
4.66                   -0.895003          69.975
4.68                   -0.935171         68.0027
4.7                    -0.975619          65.998
4.72                    -1.01644         63.9582
4.74                    -1.05774         61.8813
4.76                    -1.09969         59.7651
4.78                    -1.14244         57.6078
4.8                     -1.18618         55.4077
4.82                    -1.23108         53.1635
4.84                    -1.27734         50.8739
4.86                    -1.32513         48.5379
4.88                    -1.37462         46.1547
4.9                     -1.42597         43.7236
4.92                    -1.47929         41.2441
4.94                    -1.53473          38.716
4.96                    -1.59235          36.139
4.98                    -1.65223         33.5131
5                       -1.71441         30.8383
5.02                    -1.77891         28.1147
5.04                     -1.8457         25.3426
5.06                    -1.91475         22.5223
5.08                    -1.98597         19.6543
5.1                     -2.05929          16.739
5.12                    -2.13456         13.7771
5.14                    -2.21165         10.7692
5.16                    -2.29036         7.71626
5.18                    -2.37051         4.61903
5.2                     -2.45187         1.47859
5.22                     -2.5342        -1.70391
5.24                    -2.61723        -4.92719
5.26                    -2.70069        -8.18975
5.28                     -2.7843        -11.4901
5.3                     -2.86774        -14.8265
5.32                    -2.95071        -18.1969
5.34                    -3.03289        -21.5992
5.36                    -3.11398        -25.0311
5.38                    -3.19367        -28.4901
5.4                     -3.27165        -31.9734
5.42                    -3.34764         -35.478
5.44                    -3.42136         -39.001
5.46                    -3.49255         -42.539
5.48                    -3.56099        -46.0885
5.5                     -3.62646         -49.646
5.52                     -3.6888        -53.2077
5.54                    -3.74785        -56.7697
5.56                     -3.8035        -60.3283
5.58                    -3.85567        -63.8794
5.6                     -3.90432         -67.419
5.62                    -3.94944        -70.9434
5.64                    -3.99104        -74.4485
5.66                    -4.02918        -77.9305
5.68                    -4.06393        -81.3859
5.7                     -4.09539        -84.8111
5.72                     -4.1237        -88.2026
5.74                    -4.14899        -91.5574
5.76                    -4.17141        -94.8724
5.78                    -4.19112         -98.145
5.8                     -4.20829        -101.373
5.82                     -4.2231        -104.553
5.84                    -4.23569        -107.684
5.86                    -4.24623        -110.765
5.88                    -4.25486        -113.793
5.9                     -4.26172        -116.768
5.92                    -4.26694        -119.688
5.94                    -4.27061        -122.553
5.96                    -4.27283        -125.364
5.98                    -4.27369        -128.119
6                       -4.27323        -130.819
6.02                    -4.27152        -133.464
6.04                     -4.2686        -136.056
6.06                    -4.26451        -138.595
6.08                    -4.25927        -141.083
6.1                     -4.25294         -143.52
6.12                    -4.24555         -145.91
6.14                    -4.23715        -148.254
6.16                    -4.22783        -150.553
6.18                    -4.21766         -152.81
6.2                     -4.20678        -155.028
6.22                    -4.19533        -157.209
6.24                    -4.18348        -159.355
6.26                    -4.17147        -161.469
6.28                    -4.15954        -163.553
6.3                       -4.148        -165.608
6.32                    -4.13716        -167.637
6.34                    -4.12741        -169.641
6.36                    -4.11914        -171.622
6.38                    -4.11276         -173.58
6.4                     -4.10872        -175.515
6.42                    -4.10744        -177.426
6.44                    -4.10938        -179.314
6.46                    -4.11492         178.824
6.48                    -4.12445         176.991
6.5                     -4.13825         175.188
