! TOUCHSTONE file generated by CST MICROWAVE STUDIO
! Date and time: Sat Oct 29 02:03:46 2022
! Project name: L.cst
! Parameters = {Di=1.27; Epsilon_r=1.56; InnerDiameter=1.27; Length=2; Lf=10; Lg=60; OuterConductorThickness=0.2921; OuterDiameter=3.6; Wf=3; Wp=41.2; de=1.5; df=6.8; g=0.8; gx=4.48553; gy=2.58165; h=2.34; hf=1.524; px=12.7552; py=11.9156; w=9.7; wx=8.2697; wy=9.33393}
! Header version: 2018
! Port assignment regex: !\s*Touchstone port\s*([0-9]+)\s*=\s*(CST MWS port|CST DS port)\s*([0-9]+|Zmin|Zmax)\s*\(\"(.*)\"\)(\s*mode\s*([0-9]+))?.*
! Touchstone port assignment:
! Touchstone port 1 = CST MWS port 1 ("")
# GHz S DB R 50
4.5                    -0.514178         88.8193
4.52                   -0.527804         87.1594
4.54                   -0.544276         85.4749
4.56                   -0.563482         83.7678
4.58                   -0.585253         82.0397
4.6                    -0.609387         80.2916
4.62                   -0.635655         78.5243
4.64                   -0.663818          76.738
4.66                    -0.69364         74.9324
4.68                   -0.724891         73.1071
4.7                    -0.757359         71.2611
4.72                   -0.790855         69.3933
4.74                   -0.825217         67.5023
4.76                   -0.860312         65.5864
4.78                   -0.896044         63.6438
4.8                    -0.932346         61.6727
4.82                   -0.969182         59.6712
4.84                    -1.00655         57.6373
4.86                    -1.04448         55.5689
4.88                    -1.08302         53.4644
4.9                     -1.12224         51.3216
4.92                    -1.16223          49.139
4.94                    -1.20311         46.9148
4.96                    -1.24499         44.6475
4.98                      -1.288         42.3357
5                       -1.33226         39.9781
5.02                    -1.37789         37.5735
5.04                    -1.42503         35.1208
5.06                    -1.47378         32.6193
5.08                    -1.52425          30.068
5.1                     -1.57652         27.4664
5.12                    -1.63067         24.8139
5.14                    -1.68676           22.11
5.16                    -1.74482         19.3544
5.18                    -1.80487         16.5469
5.2                      -1.8669         13.6874
5.22                    -1.93089         10.7757
5.24                    -1.99678         7.81197
5.26                    -2.06449         4.79643
5.28                    -2.13394         1.72918
5.3                     -2.20499        -1.38933
5.32                     -2.2775        -4.55864
5.34                    -2.35131        -7.77815
5.36                    -2.42623        -11.0471
5.38                    -2.50205        -14.3647
5.4                     -2.57853        -17.7299
5.42                    -2.65545        -21.1415
5.44                    -2.73254        -24.5982
5.46                    -2.80953        -28.0985
5.48                    -2.88614        -31.6406
5.5                      -2.9621        -35.2226
5.52                    -3.03711        -38.8425
5.54                    -3.11088        -42.4979
5.56                    -3.18315        -46.1863
5.58                    -3.25362        -49.9048
5.6                     -3.32206        -53.6507
5.62                     -3.3882        -57.4208
5.64                    -3.45184        -61.2117
5.66                    -3.51276          -65.02
5.68                    -3.57079         -68.842
5.7                     -3.62579        -72.6741
5.72                    -3.67764        -76.5124
5.74                    -3.72626        -80.3532
5.76                    -3.77158        -84.1923
5.78                    -3.81361        -88.0261
5.8                     -3.85233        -91.8508
5.82                    -3.88779        -95.6625
5.84                    -3.92006        -99.4577
5.86                    -3.94921        -103.233
5.88                    -3.97537        -106.985
5.9                     -3.99865         -110.71
5.92                    -4.01919        -114.407
5.94                    -4.03713        -118.071
5.96                    -4.05262        -121.702
5.98                    -4.06582        -125.296
6                       -4.07686        -128.852
6.02                     -4.0859         -132.37
6.04                    -4.09305        -135.847
6.06                    -4.09844        -139.283
6.08                    -4.10218        -142.678
6.1                     -4.10436        -146.031
6.12                    -4.10509        -149.344
6.14                    -4.10443        -152.616
6.16                    -4.10245         -155.85
6.18                    -4.09924        -159.045
6.2                     -4.09484        -162.205
6.22                    -4.08934        -165.331
6.24                    -4.08282        -168.425
6.26                    -4.07538        -171.491
6.28                    -4.06714        -174.532
6.3                     -4.05825         -177.55
6.32                    -4.04889          179.45
6.34                     -4.0393         176.466
6.36                    -4.02974         173.492
6.38                    -4.02053         170.526
6.4                     -4.01203         167.563
6.42                     -4.0047         164.601
6.44                    -3.99899         161.634
6.46                    -3.99547         158.659
6.48                    -3.99472         155.674
6.5                     -3.99739         152.676
