! TOUCHSTONE file generated by CST MICROWAVE STUDIO
! Date and time: Sat Oct 29 13:42:23 2022
! Project name: L.cst
! Parameters = {Di=1.27; Epsilon_r=1.56; InnerDiameter=1.27; Length=2; Lf=10; Lg=60; OuterConductorThickness=0.2921; OuterDiameter=3.6; Wf=3; Wp=41.2; de=1.5; df=6.8; g=0.8; gx=3.45846; gy=2.7876; h=2.34; hf=1.524; px=13.2871; py=13.5952; w=9.7; wx=9.82864; wy=10.8076}
! Header version: 2018
! Port assignment regex: !\s*Touchstone port\s*([0-9]+)\s*=\s*(CST MWS port|CST DS port)\s*([0-9]+|Zmin|Zmax)\s*\(\"(.*)\"\)(\s*mode\s*([0-9]+))?.*
! Touchstone port assignment:
! Touchstone port 1 = CST MWS port 1 ("")
# GHz S DB R 50
4.5                    -0.849756         82.6298
4.52                   -0.855642         81.1253
4.54                   -0.858241         79.2103
4.56                   -0.915706         77.2108
4.58                   -0.987323          75.506
4.6                     -1.01624         73.8753
4.62                    -1.02936         71.9521
4.64                    -1.08003         69.8716
4.66                    -1.15368         67.9697
4.68                     -1.2013         66.1832
4.7                     -1.22806         64.2022
4.72                    -1.27821         62.0326
4.74                     -1.3546         59.9464
4.76                    -1.41854         57.9832
4.78                    -1.46112         55.9029
4.8                     -1.51591         53.6284
4.82                     -1.5968         51.3602
4.84                    -1.67609         49.2014
4.86                    -1.73641         46.9844
4.88                    -1.80044         44.5835
4.9                     -1.88832         42.1278
4.92                    -1.98308         39.7544
4.94                     -2.0631         37.3656
4.96                    -2.14063         34.8128
4.98                     -2.2384         32.1575
5                       -2.34953          29.548
5.02                    -2.45141         26.9518
5.04                    -2.54658         24.2181
5.06                    -2.65742         21.3457
5.08                    -2.78623         18.4756
5.1                     -2.91215          15.634
5.12                    -3.02902         12.6854
5.14                    -3.15628         9.57301
5.16                    -3.30426         6.41391
5.18                    -3.45629         3.28511
5.2                     -3.59879       0.0826088
5.22                    -3.74572          -3.297
5.24                    -3.91397        -6.77633
5.26                    -4.09345        -10.2381
5.28                    -4.26481        -13.7386
5.3                     -4.43403        -17.4147
5.32                    -4.62228         -21.245
5.34                    -4.82834        -25.0876
5.36                     -5.0297        -28.9344
5.38                    -5.22173        -32.9361
5.4                     -5.42638        -37.1422
5.42                    -5.65325        -41.4106
5.44                    -5.88056        -45.6558
5.46                    -6.09106        -50.0119
5.48                    -6.30221        -54.6095
5.5                      -6.5353        -59.3428
5.52                    -6.77521        -64.0458
5.54                    -6.99204        -68.7918
5.56                    -7.19145         -73.788
5.58                    -7.40495        -79.0154
5.6                     -7.63237        -84.2451
5.62                    -7.83562        -89.4332
5.64                    -8.00049        -94.8246
5.66                    -8.16224        -100.541
5.68                     -8.3442        -106.344
5.7                      -8.5117        -112.024
5.72                    -8.62514        -117.776
5.74                    -8.70981         -123.89
5.76                    -8.81638        -130.226
5.78                    -8.93211        -136.401
5.8                     -8.99475        -142.431
5.82                    -8.99905        -148.747
5.84                    -9.01484        -155.446
5.86                    -9.07189        -162.062
5.88                    -9.10204        -168.303
5.9                     -9.04848        -174.605
5.92                    -8.97369         178.561
5.94                    -8.96335         171.542
5.96                    -8.97564         164.991
5.98                     -8.8932         158.705
6                       -8.72631          151.79
6.02                    -8.61274         144.147
6.04                    -8.58176         136.676
6.06                    -8.47307         129.683
6.08                    -8.18764         121.937
6.1                     -7.88093         112.384
6.12                    -7.70594         101.654
6.14                    -7.53406         90.5185
6.16                    -7.13905           77.44
6.18                    -6.65825         59.3482
6.2                     -6.53093         34.7614
6.22                    -7.07874          3.8927
6.24                     -8.3229        -32.8029
6.26                    -9.88828        -74.3782
6.28                    -11.0383        -116.779
6.3                     -11.2142        -153.139
6.32                    -10.3378         177.752
6.34                    -8.89213         149.768
6.36                    -7.80733         118.161
6.38                    -7.80376         82.0614
6.4                     -9.33038          40.394
6.42                    -12.6267        -12.7986
6.44                    -15.4565        -91.0598
6.46                    -13.6509        -164.011
6.48                    -12.1227         151.078
6.5                     -12.3297         122.632
