! TOUCHSTONE file generated by CST MICROWAVE STUDIO
! Date and time: Fri Oct 28 21:47:34 2022
! Project name: L.cst
! Parameters = {Di=1.27; Epsilon_r=1.56; InnerDiameter=1.27; Length=2; Lf=10; Lg=60; OuterConductorThickness=0.2921; OuterDiameter=3.6; Wf=3; Wp=41.2; de=1.5; df=6.8; g=0.8; gx=0.665978; gy=2.03871; h=2.34; hf=1.524; px=9.23913; py=9.24022; w=9.7; wx=8.57315; wy=7.20151}
! Header version: 2018
! Port assignment regex: !\s*Touchstone port\s*([0-9]+)\s*=\s*(CST MWS port|CST DS port)\s*([0-9]+|Zmin|Zmax)\s*\(\"(.*)\"\)(\s*mode\s*([0-9]+))?.*
! Touchstone port assignment:
! Touchstone port 1 = CST MWS port 1 ("")
# GHz S DB R 50
4.5                     -1.17495         72.2394
4.52                    -1.23941         70.4555
4.54                    -1.30512         68.6566
4.56                    -1.37209         66.8398
4.58                    -1.44043         65.0024
4.6                     -1.51029         63.1421
4.62                    -1.58188         61.2565
4.64                    -1.65545         59.3439
4.66                     -1.7313         57.4025
4.68                    -1.80972         55.4309
4.7                     -1.89106         53.4281
4.72                    -1.97563         51.3934
4.74                    -2.06378         49.3262
4.76                    -2.15583         47.2263
4.78                     -2.2521         45.0935
4.8                     -2.35291         42.9281
4.82                    -2.45854         40.7304
4.84                    -2.56926         38.5008
4.86                    -2.68535         36.2399
4.88                    -2.80702         33.9485
4.9                      -2.9345         31.6272
4.92                    -3.06799          29.277
4.94                    -3.20767         26.8986
4.96                     -3.3537          24.493
4.98                    -3.50623         22.0611
5                       -3.66539         19.6039
5.02                     -3.8313         17.1224
5.04                    -4.00404         14.6174
5.06                    -4.18373         12.0899
5.08                    -4.37042         9.54099
5.1                     -4.56419         6.97156
5.12                    -4.76509         4.38262
5.14                    -4.97317         1.77518
5.16                    -5.18847       -0.849729
5.18                    -5.41102        -3.49105
5.2                     -5.64084        -6.14767
5.22                    -5.87795        -8.81842
5.24                    -6.12236        -11.5021
5.26                    -6.37407        -14.1972
5.28                    -6.63309        -16.9025
5.3                     -6.89941        -19.6164
5.32                      -7.173        -22.3371
5.34                    -7.45387        -25.0627
5.36                    -7.74197         -27.791
5.38                    -8.03728        -30.5197
5.4                     -8.33976        -33.2461
5.42                    -8.64936        -35.9671
5.44                    -8.96602        -38.6793
5.46                    -9.28967        -41.3789
5.48                    -9.62024        -44.0613
5.5                      -9.9576        -46.7218
5.52                    -10.3016        -49.3545
5.54                    -10.6522        -51.9532
5.56                    -11.0091        -54.5105
5.58                     -11.372        -57.0184
5.6                     -11.7407        -59.4674
5.62                    -12.1147        -61.8473
5.64                    -12.4935        -64.1464
5.66                    -12.8764        -66.3515
5.68                    -13.2625        -68.4483
5.7                     -13.6506        -70.4207
5.72                    -14.0393        -72.2514
5.74                    -14.4267        -73.9216
5.76                    -14.8103        -75.4116
5.78                    -15.1871        -76.7016
5.8                     -15.5532        -77.7717
5.82                    -15.9039         -78.604
5.84                    -16.2336        -79.1841
5.86                    -16.5356        -79.5033
5.88                    -16.8026         -79.561
5.9                     -17.0266         -79.368
5.92                    -17.1994        -78.9482
5.94                    -17.3136        -78.3403
5.96                     -17.363        -77.5972
5.98                    -17.3435        -76.7833
6                       -17.2536        -75.9698
6.02                    -17.0949        -75.2282
6.04                    -16.8715        -74.6248
6.06                    -16.5898        -74.2149
6.08                    -16.2575        -74.0404
6.1                     -15.8829        -74.1288
6.12                    -15.4746        -74.4942
6.14                    -15.0403        -75.1396
6.16                    -14.5871        -76.0597
6.18                    -14.1211        -77.2433
6.2                     -13.6472        -78.6758
6.22                    -13.1698        -80.3407
6.24                    -12.6923        -82.2213
6.26                    -12.2174        -84.3011
6.28                    -11.7472        -86.5648
6.3                     -11.2837        -88.9983
6.32                    -10.8281        -91.5891
6.34                    -10.3816         -94.326
6.36                    -9.94529        -97.1997
6.38                    -9.51985        -100.202
6.4                     -9.10601        -103.326
6.42                    -8.70443        -106.566
6.44                    -8.31569        -109.918
6.46                    -7.94039        -113.377
6.48                     -7.5791        -116.943
6.5                     -7.23242        -120.612
