! TOUCHSTONE file generated by CST MICROWAVE STUDIO
! Date and time: Sat Oct 29 07:55:44 2022
! Project name: L.cst
! Parameters = {Di=1.27; Epsilon_r=1.56; InnerDiameter=1.27; Length=2; Lf=10; Lg=60; OuterConductorThickness=0.2921; OuterDiameter=3.6; Wf=3; Wp=41.2; de=1.5; df=6.8; g=0.8; gx=4.52858; gy=1.4062; h=2.34; hf=1.524; px=9.28916; py=12.1464; w=9.7; wx=4.76057; wy=10.7402}
! Header version: 2018
! Port assignment regex: !\s*Touchstone port\s*([0-9]+)\s*=\s*(CST MWS port|CST DS port)\s*([0-9]+|Zmin|Zmax)\s*\(\"(.*)\"\)(\s*mode\s*([0-9]+))?.*
! Touchstone port assignment:
! Touchstone port 1 = CST MWS port 1 ("")
# GHz S DB R 50
4.5                    -0.388972         83.0296
4.52                   -0.391685          81.444
4.54                   -0.396597         79.8196
4.56                   -0.404443         78.1634
4.58                   -0.415436         76.4827
4.6                    -0.429307         74.7843
4.62                   -0.445424         73.0731
4.64                   -0.462927         71.3517
4.66                   -0.480894         69.6199
4.68                   -0.498486         67.8755
4.7                    -0.515064          66.114
4.72                   -0.530267         64.3302
4.74                   -0.544035         62.5181
4.76                   -0.556584         60.6725
4.78                   -0.568348         58.7891
4.8                    -0.579883         56.8649
4.82                   -0.591775         54.8986
4.84                   -0.604554         52.8902
4.86                   -0.618611         50.8409
4.88                   -0.634165         48.7522
4.9                    -0.651241          46.626
4.92                   -0.669686         44.4638
4.94                   -0.689205          42.266
4.96                    -0.70942         40.0325
4.98                   -0.729923         37.7617
5                      -0.750349         35.4509
5.02                   -0.770416         33.0968
5.04                   -0.789971         30.6952
5.06                   -0.808996          28.242
5.08                   -0.827609         25.7327
5.1                    -0.846035         23.1638
5.12                   -0.864576          20.532
5.14                   -0.883556         17.8347
5.16                   -0.903279         15.0703
5.18                   -0.923992         12.2374
5.2                    -0.945849         9.33507
5.22                   -0.968905         6.36251
5.24                   -0.993114          3.3186
5.26                    -1.01835        0.201874
5.28                    -1.04443        -2.99002
5.3                     -1.07116        -6.25997
5.32                     -1.0984        -9.61166
5.34                    -1.12605        -13.0494
5.36                    -1.15414         -16.578
5.38                    -1.18284        -20.2023
5.4                     -1.21244         -23.927
5.42                    -1.24338        -27.7562
5.44                    -1.27621        -31.6934
5.46                    -1.31155        -35.7408
5.48                    -1.35003        -39.8994
5.5                     -1.39229        -44.1689
5.52                    -1.43889        -48.5477
5.54                    -1.49026         -53.033
5.56                     -1.5467        -57.6211
5.58                    -1.60833        -62.3074
5.6                     -1.67509        -67.0872
5.62                     -1.7467        -71.9553
5.64                    -1.82276        -76.9071
5.66                    -1.90271        -81.9382
5.68                    -1.98591        -87.0451
5.7                      -2.0717        -92.2254
5.72                    -2.15947        -97.4775
5.74                    -2.24871        -102.801
5.76                    -2.33912        -108.196
5.78                    -2.43069        -113.664
5.8                     -2.52371        -119.206
5.82                    -2.61887        -124.822
5.84                    -2.71726        -130.514
5.86                     -2.8204        -136.279
5.88                    -2.93021        -142.115
5.9                     -3.04898        -148.016
5.92                    -3.17935        -153.972
5.94                    -3.32423        -159.972
5.96                     -3.4867        -165.997
5.98                    -3.66998        -172.028
6                       -3.87727        -178.036
6.02                    -4.11166         176.011
6.04                    -4.37591         170.154
6.06                    -4.67223         164.442
6.08                    -5.00189         158.932
6.1                     -5.36472         153.693
6.12                    -5.75829         148.804
6.14                    -6.17685         144.356
6.16                    -6.60985         140.444
6.18                    -7.04032          137.16
6.2                     -7.44347         134.573
6.22                    -7.78665         132.699
6.24                    -8.03234         131.464
6.26                    -8.14539         130.681
6.28                    -8.10318         130.053
6.3                     -7.90399         129.234
6.32                    -7.56823         127.906
6.34                    -7.13155         125.849
6.36                    -6.63457         122.959
6.38                    -6.11467          119.23
6.4                     -5.60202         114.717
6.42                    -5.11901         109.506
6.44                    -4.68149          103.69
6.46                    -4.30051         97.3563
6.48                    -3.98394         90.5856
6.5                     -3.73777         83.4469
