! TOUCHSTONE file generated by CST MICROWAVE STUDIO
! Date and time: Sat Oct 29 09:46:52 2022
! Project name: L.cst
! Parameters = {Di=1.27; Epsilon_r=1.56; InnerDiameter=1.27; Length=2; Lf=10; Lg=60; OuterConductorThickness=0.2921; OuterDiameter=3.6; Wf=3; Wp=41.2; de=1.5; df=6.8; g=0.8; gx=0.648253; gy=4.45055; h=2.34; hf=1.524; px=9.82774; py=9.64397; w=9.7; wx=9.17949; wy=5.19342}
! Header version: 2018
! Port assignment regex: !\s*Touchstone port\s*([0-9]+)\s*=\s*(CST MWS port|CST DS port)\s*([0-9]+|Zmin|Zmax)\s*\(\"(.*)\"\)(\s*mode\s*([0-9]+))?.*
! Touchstone port assignment:
! Touchstone port 1 = CST MWS port 1 ("")
# GHz S DB R 50
4.5                    -0.679893         91.3744
4.52                   -0.702564         89.7455
4.54                   -0.729955         88.1012
4.56                   -0.761779         86.4474
4.58                   -0.797571         84.7888
4.6                    -0.836741         83.1289
4.62                   -0.878643         81.4696
4.64                   -0.922624         79.8115
4.66                   -0.968083         78.1543
4.68                     -1.0145         76.4961
4.7                     -1.06146         74.8347
4.72                    -1.10871         73.1673
4.74                    -1.15609         71.4907
4.76                    -1.20362         69.8017
4.78                    -1.25143         68.0973
4.8                     -1.29974          66.375
4.82                    -1.34889         64.6328
4.84                    -1.39924         62.8692
4.86                    -1.45121         61.0833
4.88                    -1.50521         59.2751
4.9                     -1.56165         57.4449
4.92                     -1.6209         55.5937
4.94                    -1.68327          53.723
4.96                    -1.74903         51.8344
4.98                    -1.81838         49.9298
5                       -1.89146         48.0114
5.02                    -1.96833          46.081
5.04                    -2.04901         44.1408
5.06                    -2.13348         42.1924
5.08                    -2.22166         40.2375
5.1                     -2.31346         38.2774
5.12                    -2.40878         36.3132
5.14                    -2.50752         34.3455
5.16                    -2.60958          32.375
5.18                     -2.7149         30.4021
5.2                     -2.82343         28.4268
5.22                    -2.93519         26.4495
5.24                    -3.05022         24.4702
5.26                     -3.1686         22.4892
5.28                    -3.29047         20.5069
5.3                       -3.416         18.5241
5.32                    -3.54539         16.5418
5.34                    -3.67884         14.5614
5.36                    -3.81657         12.5851
5.38                    -3.95882          10.615
5.4                     -4.10575         8.65438
5.42                    -4.25753         6.70657
5.44                    -4.41424         4.77561
5.46                    -4.57592         2.86597
5.48                    -4.74248        0.982511
5.5                     -4.91375       -0.869581
5.52                    -5.08945         -2.6849
5.54                    -5.26915        -4.45797
5.56                    -5.45231        -6.18334
5.58                    -5.63823        -7.85579
5.6                     -5.82608        -9.47046
5.62                    -6.01489        -11.0231
5.64                    -6.20358        -12.5101
5.66                    -6.39095        -13.9288
5.68                    -6.57576        -15.2775
5.7                     -6.75667        -16.5559
5.72                    -6.93237        -17.7644
5.74                    -7.10155        -18.9049
5.76                    -7.26295        -19.9804
5.78                     -7.4154        -20.9945
5.8                     -7.55783         -21.952
5.82                    -7.68927        -22.8578
5.84                    -7.80887        -23.7175
5.86                    -7.91585        -24.5363
5.88                    -8.00947        -25.3199
5.9                     -8.08901        -26.0735
5.92                     -8.1537        -26.8028
5.94                    -8.20271        -27.5136
5.96                    -8.23511        -28.2125
5.98                    -8.24984        -28.9073
6                       -8.24579        -29.6078
6.02                    -8.22184         -30.326
6.04                    -8.17694        -31.0769
6.06                    -8.11028        -31.8782
6.08                    -8.02141         -32.751
6.1                     -7.91037        -33.7188
6.12                    -7.77786        -34.8071
6.14                    -7.62533        -36.0421
6.16                    -7.45498        -37.4501
6.18                    -7.26978        -39.0558
6.2                     -7.07337        -40.8817
6.22                       -6.87        -42.9469
6.24                    -6.66434        -45.2672
6.26                    -6.46139        -47.8546
6.28                    -6.26633        -50.7179
6.3                     -6.08448        -53.8625
6.32                    -5.92119        -57.2917
6.34                    -5.78187        -61.0073
6.36                    -5.67202          -65.01
6.38                    -5.59724        -69.3009
6.4                      -5.5634        -73.8818
6.42                    -5.57676        -78.7569
6.44                    -5.64415        -83.9333
6.46                    -5.77324        -89.4233
6.48                    -5.97285        -95.2461
6.5                     -6.25342        -101.431
