! TOUCHSTONE file generated by CST MICROWAVE STUDIO
! Date and time: Wed Oct 26 15:51:42 2022
! Project name: L.cst
! Parameters = {Di=1.27; Epsilon_r=1.56; InnerDiameter=1.27; Length=2; Lf=10; Lg=60; OuterConductorThickness=0.2921; OuterDiameter=3.6; Wf=3; Wp=41.2; de=1.5; df=6.8; g=0.8; gx=1.68192; gy=1.31927; h=2.34; hf=1.524; px=11.962; py=13.6431; w=9.7; wx=10.2801; wy=12.3238}
! Header version: 2018
! Port assignment regex: !\s*Touchstone port\s*([0-9]+)\s*=\s*(CST MWS port|CST DS port)\s*([0-9]+|Zmin|Zmax)\s*\(\"(.*)\"\)(\s*mode\s*([0-9]+))?.*
! Touchstone port assignment:
! Touchstone port 1 = CST MWS port 1 ("")
# GHz S DB R 50
4.5                     -2.69351         47.4295
4.52                    -2.85272         44.7227
4.54                    -3.03921         41.7291
4.56                    -3.22181         38.8274
4.58                    -3.43257          35.653
4.6                     -3.64158         32.5338
4.62                    -3.88046         29.1449
4.64                    -4.11988         25.7808
4.66                    -4.39061         22.1376
4.68                    -4.66511         18.4882
4.7                     -4.97212         14.5454
4.72                    -5.28591         10.5574
4.74                     -5.6341         6.25163
4.76                    -5.99113         1.85808
4.78                    -6.38423        -2.89813
4.8                     -6.78799        -7.79077
4.82                    -7.22719        -13.1114
4.84                    -7.67749        -18.6373
4.86                    -8.15959        -24.6776
4.88                    -8.64846        -31.0155
4.9                     -9.15982        -37.9844
4.92                    -9.66563        -45.3528
4.94                    -10.1724        -53.4864
4.96                    -10.6502         -62.102
4.98                    -11.0902        -71.5573
5                       -11.4651        -81.4783
5.02                    -11.7552        -92.1288
5.04                    -11.9474        -102.999
5.06                    -12.0254        -114.239
5.08                    -12.0108        -125.259
5.1                     -11.8976        -136.168
5.12                    -11.7402        -146.471
5.14                    -11.5323        -156.292
5.16                    -11.3331        -165.305
5.18                    -11.1235        -173.661
5.2                     -10.9503         178.854
5.22                    -10.7764         172.066
5.24                    -10.6382           166.1
5.26                    -10.4871         160.765
5.28                    -10.3551         156.108
5.3                     -10.1942         151.919
5.32                    -10.0379         148.216
5.34                    -9.84334         144.778
5.36                    -9.64845          141.64
5.38                    -9.41423         138.589
5.4                     -9.18209         135.683
5.42                    -8.91574         132.734
5.44                    -8.65585         129.827
5.46                    -8.36867          126.78
5.48                    -8.09271         123.709
5.5                     -7.79484         120.424
5.52                    -7.51329         117.067
5.54                    -7.21272         113.441
5.56                    -6.93057         109.705
5.58                    -6.62674          105.66
5.6                     -6.33144         101.458
5.62                    -5.99206         96.8387
5.64                    -5.62565         91.8308
5.66                    -5.17019         85.8812
5.68                    -4.66655         78.6305
5.7                     -4.10609         69.1583
5.72                    -3.61573         56.8634
5.74                    -3.25076         40.7326
5.76                    -3.20752         19.6754
5.78                    -3.59334        -7.98639
5.8                     -4.57716         -44.575
5.82                    -5.71754        -90.7104
5.84                    -5.95089        -141.684
5.86                    -5.20431         174.139
5.88                     -4.2083         139.705
5.9                     -3.58299         111.579
5.92                    -3.26388         87.7959
5.94                    -3.33191         64.7677
5.96                    -3.72984         43.1287
5.98                     -4.5052         16.0458
6                       -7.82225        -11.6664
6.02                    -11.1278        -15.1767
6.04                    -11.1259        -34.7733
6.06                    -12.9444        -66.5577
6.08                    -13.5075          -99.99
6.1                      -13.199         -138.25
6.12                    -11.9662        -165.632
6.14                    -10.3716         169.494
6.16                    -9.20437          151.62
6.18                    -7.88321         133.869
6.2                     -7.02117         118.318
6.22                    -5.83516         100.098
6.24                    -4.98868         78.4644
6.26                    -3.74975          44.015
6.28                    -4.45489        -13.6246
6.3                     -7.07233        -86.0524
6.32                    -8.32586        -145.793
6.34                    -7.13541        -178.623
6.36                    -5.53671         159.246
6.38                    -3.75562         142.597
6.4                     -2.15382         124.449
6.42                    -1.04857         105.346
6.44                   -0.679903         85.4709
6.46                   -0.956839         67.8964
6.48                    -1.60063         52.3015
6.5                     -2.47261         39.2079
