! TOUCHSTONE file generated by CST MICROWAVE STUDIO
! Date and time: Sat Oct 29 22:54:02 2022
! Project name: L.cst
! Parameters = {Di=1.27; Epsilon_r=1.56; InnerDiameter=1.27; Length=2; Lf=10; Lg=60; OuterConductorThickness=0.2921; OuterDiameter=3.6; Wf=3; Wp=41.2; de=1.5; df=6.8; g=0.8; gx=4.35712; gy=3.70937; h=2.34; hf=1.524; px=10.9575; py=8.4603; w=9.7; wx=6.60039; wy=4.75094}
! Header version: 2018
! Port assignment regex: !\s*Touchstone port\s*([0-9]+)\s*=\s*(CST MWS port|CST DS port)\s*([0-9]+|Zmin|Zmax)\s*\(\"(.*)\"\)(\s*mode\s*([0-9]+))?.*
! Touchstone port assignment:
! Touchstone port 1 = CST MWS port 1 ("")
# GHz S DB R 50
4.5                     -0.33609         95.7291
4.52                   -0.345177         94.2813
4.54                   -0.354544         92.8218
4.56                   -0.364195         91.3504
4.58                   -0.374136         89.8671
4.6                    -0.384364          88.372
4.62                   -0.394877         86.8648
4.64                   -0.405668         85.3456
4.66                    -0.41673         83.8142
4.68                   -0.428056         82.2706
4.7                    -0.439638         80.7145
4.72                   -0.451467          79.146
4.74                   -0.463537         77.5648
4.76                   -0.475839         75.9708
4.78                    -0.48837         74.3638
4.8                    -0.501123         72.7437
4.82                   -0.514096         71.1104
4.84                   -0.527285         69.4637
4.86                    -0.54069         67.8035
4.88                    -0.55431         66.1296
4.9                    -0.568144          64.442
4.92                   -0.582196         62.7405
4.94                   -0.596467         61.0251
4.96                   -0.610958         59.2957
4.98                   -0.625675         57.5522
5                      -0.640618         55.7946
5.02                   -0.655791         54.0229
5.04                   -0.671195         52.2371
5.06                   -0.686835         50.4373
5.08                   -0.702709         48.6234
5.1                    -0.718821         46.7956
5.12                   -0.735169         44.9539
5.14                   -0.751753         43.0985
5.16                    -0.76857         41.2296
5.18                   -0.785619         39.3472
5.2                    -0.802894         37.4515
5.22                    -0.82039         35.5429
5.24                   -0.838102         33.6214
5.26                   -0.856019         31.6874
5.28                   -0.874134         29.7411
5.3                    -0.892438         27.7828
5.32                   -0.910917         25.8129
5.34                   -0.929562         23.8316
5.36                   -0.948356         21.8393
5.38                   -0.967285         19.8365
5.4                    -0.986336         17.8235
5.42                    -1.00549         15.8006
5.44                    -1.02473         13.7685
5.46                    -1.04405         11.7275
5.48                    -1.06341         9.67802
5.5                     -1.08281         7.62067
5.52                    -1.10222         5.55593
5.54                    -1.12163         3.48432
5.56                    -1.14101         1.40639
5.58                    -1.16035       -0.677302
5.6                     -1.17962        -2.76617
5.62                    -1.19881        -4.85963
5.64                     -1.2179        -6.95708
5.66                    -1.23687        -9.05789
5.68                    -1.25569        -11.1614
5.7                     -1.27436        -13.2671
5.72                    -1.29285        -15.3742
5.74                    -1.31113        -17.4821
5.76                    -1.32921          -19.59
5.78                    -1.34705        -21.6975
5.8                     -1.36464        -23.8038
5.82                    -1.38196        -25.9081
5.84                    -1.39899          -28.01
5.86                    -1.41573        -30.1086
5.88                    -1.43214        -32.2033
5.9                     -1.44821        -34.2935
5.92                    -1.46394        -36.3785
5.94                    -1.47929        -38.4577
5.96                    -1.49425        -40.5304
5.98                    -1.50882        -42.5961
6                       -1.52296        -44.6542
6.02                    -1.53667         -46.704
6.04                    -1.54992        -48.7451
6.06                    -1.56272        -50.7769
6.08                    -1.57502        -52.7989
6.1                     -1.58684        -54.8108
6.12                    -1.59814        -56.8119
6.14                    -1.60892        -58.8021
6.16                    -1.61916        -60.7808
6.18                    -1.62887        -62.7478
6.2                     -1.63802        -64.7028
6.22                    -1.64661        -66.6455
6.24                    -1.65464        -68.5757
6.26                    -1.66211        -70.4932
6.28                    -1.66903         -72.398
6.3                      -1.6754        -74.2898
6.32                    -1.68123        -76.1686
6.34                    -1.68655        -78.0344
6.36                    -1.69136         -79.887
6.38                    -1.69571        -81.7265
6.4                     -1.69961        -83.5529
6.42                    -1.70312        -85.3661
6.44                    -1.70626        -87.1661
6.46                    -1.70909        -88.9529
6.48                    -1.71166        -90.7264
6.5                     -1.71403        -92.4866
