! TOUCHSTONE file generated by CST MICROWAVE STUDIO
! Date and time: Fri Oct 28 19:03:22 2022
! Project name: L.cst
! Parameters = {Di=1.27; Epsilon_r=1.56; InnerDiameter=1.27; Length=2; Lf=10; Lg=60; OuterConductorThickness=0.2921; OuterDiameter=3.6; Wf=3; Wp=41.2; de=1.5; df=6.8; g=0.8; gx=1.57622; gy=4.46367; h=2.34; hf=1.524; px=9.07795; py=10.0625; w=9.7; wx=7.50174; wy=5.59881}
! Header version: 2018
! Port assignment regex: !\s*Touchstone port\s*([0-9]+)\s*=\s*(CST MWS port|CST DS port)\s*([0-9]+|Zmin|Zmax)\s*\(\"(.*)\"\)(\s*mode\s*([0-9]+))?.*
! Touchstone port assignment:
! Touchstone port 1 = CST MWS port 1 ("")
# GHz S DB R 50
4.5                    -0.389598          95.433
4.52                   -0.400877         94.0045
4.54                   -0.412482         92.5658
4.56                   -0.424423         91.1169
4.58                   -0.436704         89.6577
4.6                    -0.449328         88.1884
4.62                   -0.462296         86.7087
4.64                   -0.475607         85.2187
4.66                   -0.489259         83.7182
4.68                   -0.503248         82.2073
4.7                    -0.517574         80.6859
4.72                   -0.532234         79.1537
4.74                   -0.547224         77.6109
4.76                   -0.562545         76.0572
4.78                   -0.578196         74.4925
4.8                    -0.594177         72.9168
4.82                    -0.61049           71.33
4.84                   -0.627137         69.7319
4.86                   -0.644122         68.1225
4.88                   -0.661449         66.5018
4.9                    -0.679123         64.8696
4.92                    -0.69715         63.2258
4.94                   -0.715537         61.5706
4.96                   -0.734291         59.9037
4.98                   -0.753418         58.2252
5                      -0.772927         56.5352
5.02                   -0.792825         54.8335
5.04                   -0.813118         53.1203
5.06                   -0.833815         51.3957
5.08                   -0.854922         49.6595
5.1                    -0.876444         47.9121
5.12                   -0.898388         46.1533
5.14                   -0.920758         44.3835
5.16                   -0.943559         42.6027
5.18                   -0.966793          40.811
5.2                    -0.990463         39.0087
5.22                    -1.01457         37.1959
5.24                    -1.03911         35.3728
5.26                     -1.0641         33.5397
5.28                    -1.08951         31.6967
5.3                     -1.11536         29.8442
5.32                    -1.14163         27.9824
5.34                    -1.16833         26.1116
5.36                    -1.19545         24.2321
5.38                    -1.22297         22.3442
5.4                      -1.2509         20.4483
5.42                    -1.27921         18.5447
5.44                    -1.30791         16.6338
5.46                    -1.33699         14.7159
5.48                    -1.36642         12.7915
5.5                      -1.3962         10.8609
5.52                    -1.42632         8.92456
5.54                    -1.45675         6.98293
5.56                    -1.48749         5.03644
5.58                    -1.51853         3.08555
5.6                     -1.54983         1.13073
5.62                     -1.5814       -0.827541
5.64                    -1.61321        -2.78877
5.66                    -1.64524        -4.75246
5.68                    -1.67748         -6.7181
5.7                      -1.7099        -8.68517
5.72                    -1.74249        -10.6531
5.74                    -1.77523        -12.6215
5.76                     -1.8081        -14.5896
5.78                    -1.84108        -16.5571
5.8                     -1.87414        -18.5233
5.82                    -1.90726        -20.4878
5.84                    -1.94043        -22.4498
5.86                    -1.97362         -24.409
5.88                     -2.0068        -26.3648
5.9                     -2.03995        -28.3166
5.92                    -2.07306        -30.2639
5.94                    -2.10609        -32.2061
5.96                    -2.13901        -34.1429
5.98                    -2.17181        -36.0736
6                       -2.20447        -37.9977
6.02                    -2.23694        -39.9149
6.04                    -2.26922        -41.8246
6.06                    -2.30127        -43.7265
6.08                    -2.33307          -45.62
6.1                      -2.3646        -47.5049
6.12                    -2.39583        -49.3808
6.14                    -2.42676        -51.2472
6.16                    -2.45735         -53.104
6.18                    -2.48758        -54.9508
6.2                     -2.51746        -56.7873
6.22                    -2.54696        -58.6134
6.24                    -2.57607        -60.4288
6.26                     -2.6048        -62.2333
6.28                    -2.63314        -64.0268
6.3                      -2.6611        -65.8092
6.32                    -2.68868        -67.5802
6.34                    -2.71591        -69.3399
6.36                    -2.74279        -71.0881
6.38                    -2.76936        -72.8246
6.4                     -2.79564        -74.5494
6.42                    -2.82168        -76.2623
6.44                    -2.84751        -77.9632
6.46                    -2.87318         -79.652
6.48                    -2.89874        -81.3283
6.5                     -2.92424         -82.992
