! TOUCHSTONE file generated by CST MICROWAVE STUDIO
! Date and time: Sun Oct 30 00:51:39 2022
! Project name: L.cst
! Parameters = {Di=1.27; Epsilon_r=1.56; InnerDiameter=1.27; Length=2; Lf=10; Lg=60; OuterConductorThickness=0.2921; OuterDiameter=3.6; Wf=3; Wp=41.2; de=1.5; df=6.8; g=0.8; gx=3.39766; gy=2.18354; h=2.34; hf=1.524; px=12.4476; py=9.25704; w=9.7; wx=9.04996; wy=7.0735}
! Header version: 2018
! Port assignment regex: !\s*Touchstone port\s*([0-9]+)\s*=\s*(CST MWS port|CST DS port)\s*([0-9]+|Zmin|Zmax)\s*\(\"(.*)\"\)(\s*mode\s*([0-9]+))?.*
! Touchstone port assignment:
! Touchstone port 1 = CST MWS port 1 ("")
# GHz S DB R 50
4.5                    -0.743324         78.7348
4.52                   -0.785243         76.8798
4.54                   -0.828173         75.0081
4.56                   -0.871883         73.1175
4.58                   -0.916208         71.2055
4.6                    -0.961048         69.2695
4.62                    -1.00636         67.3069
4.64                    -1.05216         65.3153
4.66                    -1.09849         63.2921
4.68                    -1.14547         61.2351
4.7                      -1.1932         59.1422
4.72                    -1.24186         57.0115
4.74                    -1.29161         54.8413
4.76                    -1.34262         52.6301
4.78                    -1.39509         50.3766
4.8                     -1.44919         48.0798
4.82                    -1.50511         45.7388
4.84                      -1.563         43.3529
4.86                    -1.62301         40.9215
4.88                    -1.68528         38.4444
4.9                      -1.7499         35.9213
4.92                    -1.81697         33.3521
4.94                    -1.88654         30.7367
4.96                    -1.95866         28.0754
4.98                    -2.03331         25.3684
5                       -2.11049         22.6158
5.02                    -2.19016         19.8182
5.04                    -2.27222         16.9758
5.06                    -2.35658         14.0893
5.08                    -2.44312         11.1592
5.1                     -2.53169         8.18614
5.12                     -2.6221         5.17095
5.14                    -2.71415         2.11443
5.16                    -2.80762       -0.982466
5.18                    -2.90228         -4.1187
5.2                     -2.99786        -7.29309
5.22                    -3.09407        -10.5043
5.24                    -3.19064         -13.751
5.26                    -3.28726        -17.0315
5.28                    -3.38361         -20.344
5.3                     -3.47939        -23.6867
5.32                    -3.57427        -27.0575
5.34                    -3.66794         -30.454
5.36                    -3.76008        -33.8737
5.38                    -3.85039        -37.3141
5.4                     -3.93858        -40.7722
5.42                    -4.02438        -44.2451
5.44                    -4.10753        -47.7295
5.46                    -4.18779        -51.2221
5.48                    -4.26498        -54.7196
5.5                      -4.3389        -58.2182
5.52                    -4.40942        -61.7143
5.54                    -4.47643        -65.2043
5.56                    -4.53983        -68.6844
5.58                    -4.59959        -72.1508
5.6                     -4.65569           -75.6
5.62                    -4.70815        -79.0282
5.64                    -4.75702        -82.4319
5.66                    -4.80237        -85.8077
5.68                     -4.8443        -89.1524
5.7                     -4.88293        -92.4629
5.72                     -4.9184        -95.7363
5.74                    -4.95085        -98.9699
5.76                    -4.98046        -102.161
5.78                    -5.00738        -105.308
5.8                      -5.0318        -108.409
5.82                    -5.05387        -111.461
5.84                    -5.07378        -114.465
5.86                    -5.09167        -117.417
5.88                    -5.10771        -120.318
5.9                     -5.12205        -123.166
5.92                    -5.13481        -125.962
5.94                    -5.14613        -128.705
5.96                    -5.15613        -131.396
5.98                    -5.16492        -134.034
6                        -5.1726        -136.621
6.02                    -5.17927        -139.156
6.04                    -5.18502        -141.642
6.06                    -5.18997        -144.078
6.08                     -5.1942        -146.468
6.1                     -5.19783        -148.811
6.12                    -5.20099        -151.111
6.14                     -5.2038        -153.368
6.16                    -5.20643        -155.584
6.18                    -5.20904        -157.761
6.2                     -5.21185        -159.902
6.22                    -5.21507        -162.007
6.24                    -5.21896        -164.079
6.26                     -5.2238        -166.118
6.28                     -5.2299        -168.127
6.3                      -5.2376        -170.107
6.32                    -5.24725        -172.058
6.34                    -5.25925         -173.98
6.36                    -5.27397        -175.874
6.38                    -5.29182        -177.739
6.4                     -5.31319        -179.574
6.42                    -5.33845         178.622
6.44                    -5.36797         176.853
6.46                    -5.40203          175.12
6.48                    -5.44089         173.428
6.5                     -5.48469          171.78
