! TOUCHSTONE file generated by CST MICROWAVE STUDIO
! Date and time: Sat Oct 29 20:41:12 2022
! Project name: L.cst
! Parameters = {Di=1.27; Epsilon_r=1.56; InnerDiameter=1.27; Length=2; Lf=10; Lg=60; OuterConductorThickness=0.2921; OuterDiameter=3.6; Wf=3; Wp=41.2; de=1.5; df=6.8; g=0.8; gx=2.10494; gy=3.48625; h=2.34; hf=1.524; px=11.7003; py=9.86294; w=9.7; wx=9.5954; wy=6.37669}
! Header version: 2018
! Port assignment regex: !\s*Touchstone port\s*([0-9]+)\s*=\s*(CST MWS port|CST DS port)\s*([0-9]+|Zmin|Zmax)\s*\(\"(.*)\"\)(\s*mode\s*([0-9]+))?.*
! Touchstone port assignment:
! Touchstone port 1 = CST MWS port 1 ("")
# GHz S DB R 50
4.5                    -0.676941         87.3628
4.52                   -0.703628         85.7424
4.54                   -0.731815         84.1061
4.56                   -0.761462         82.4543
4.58                   -0.792528         80.7868
4.6                    -0.824972         79.1036
4.62                   -0.858754         77.4044
4.64                   -0.893844          75.689
4.66                   -0.930214          73.957
4.68                   -0.967851         72.2079
4.7                     -1.00675         70.4411
4.72                    -1.04692         68.6563
4.74                    -1.08837         66.8527
4.76                    -1.13113         65.0298
4.78                    -1.17525          63.187
4.8                     -1.22076         61.3239
4.82                    -1.26773         59.4398
4.84                    -1.31621         57.5344
4.86                    -1.36628         55.6071
4.88                      -1.418         53.6577
4.9                     -1.47147         51.6857
4.92                    -1.52674         49.6909
4.94                    -1.58392         47.6732
4.96                    -1.64307         45.6322
4.98                    -1.70429          43.568
5                       -1.76764         41.4805
5.02                     -1.8332         39.3697
5.04                    -1.90104         37.2357
5.06                    -1.97124         35.0786
5.08                    -2.04386         32.8985
5.1                     -2.11894         30.6958
5.12                    -2.19656         28.4706
5.14                    -2.27674         26.2233
5.16                    -2.35954         23.9542
5.18                    -2.44499         21.6638
5.2                      -2.5331         19.3525
5.22                    -2.62391         17.0208
5.24                    -2.71742         14.6692
5.26                    -2.81365         12.2984
5.28                    -2.91259         9.90874
5.3                     -3.01424         7.50107
5.32                    -3.11858         5.07604
5.34                     -3.2256          2.6344
5.36                    -3.33527        0.176929
5.38                    -3.44755        -2.29553
5.4                     -3.56241         -4.7821
5.42                    -3.67979        -7.28184
5.44                    -3.79966        -9.79376
5.46                    -3.92195        -12.3168
5.48                     -4.0466        -14.8499
5.5                     -4.17354        -17.3919
5.52                    -4.30268        -19.9414
5.54                    -4.43396        -22.4974
5.56                    -4.56728        -25.0583
5.58                    -4.70255        -27.6227
5.6                     -4.83967        -30.1892
5.62                    -4.97852        -32.7561
5.64                    -5.11899        -35.3219
5.66                    -5.26097        -37.8848
5.68                    -5.40432         -40.443
5.7                      -5.5489        -42.9947
5.72                    -5.69458        -45.5379
5.74                    -5.84119        -48.0707
5.76                    -5.98856         -50.591
5.78                    -6.13654        -53.0969
5.8                     -6.28493        -55.5861
5.82                    -6.43354        -58.0565
5.84                    -6.58215         -60.506
5.86                    -6.73055        -62.9324
5.88                     -6.8785        -65.3335
5.9                     -7.02575        -67.7073
5.92                    -7.17203        -70.0515
5.94                    -7.31707        -72.3643
5.96                    -7.46057        -74.6437
5.98                    -7.60222        -76.8878
6                       -7.74169        -79.0951
6.02                    -7.87865         -81.264
6.04                    -8.01273        -83.3932
6.06                    -8.14358        -85.4817
6.08                    -8.27081        -87.5285
6.1                     -8.39406        -89.5331
6.12                    -8.51292        -91.4953
6.14                    -8.62702         -93.415
6.16                    -8.73598        -95.2926
6.18                    -8.83941        -97.1289
6.2                     -8.93697        -98.9248
6.22                     -9.0283        -100.682
6.24                    -9.11308        -102.401
6.26                    -9.19101        -104.086
6.28                    -9.26183        -105.738
6.3                     -9.32528        -107.359
6.32                    -9.38117        -108.953
6.34                    -9.42932        -110.524
6.36                    -9.46959        -112.073
6.38                    -9.50185        -113.606
6.4                     -9.52602        -115.125
6.42                    -9.54205        -116.636
6.44                    -9.54989        -118.142
6.46                    -9.54952        -119.648
6.48                    -9.54095        -121.159
6.5                     -9.52419         -122.68
