! TOUCHSTONE file generated by CST MICROWAVE STUDIO
! Date and time: Fri Oct 28 04:07:16 2022
! Project name: L.cst
! Parameters = {Di=1.27; Epsilon_r=1.56; InnerDiameter=1.27; Length=2; Lf=10; Lg=60; OuterConductorThickness=0.2921; OuterDiameter=3.6; Wf=3; Wp=41.2; de=1.5; df=6.8; g=0.8; gx=2.93414; gy=4.77942; h=2.34; hf=1.524; px=8.12324; py=14.7572; w=9.7; wx=5.1891; wy=9.97779}
! Header version: 2018
! Port assignment regex: !\s*Touchstone port\s*([0-9]+)\s*=\s*(CST MWS port|CST DS port)\s*([0-9]+|Zmin|Zmax)\s*\(\"(.*)\"\)(\s*mode\s*([0-9]+))?.*
! Touchstone port assignment:
! Touchstone port 1 = CST MWS port 1 ("")
# GHz S DB R 50
4.5                    -0.301947         96.2248
4.52                   -0.308722         94.8171
4.54                   -0.316697          93.401
4.56                   -0.325667         91.9794
4.58                   -0.335253         90.5544
4.6                    -0.345021         89.1264
4.62                   -0.354574         87.6943
4.64                   -0.363642         86.2564
4.66                   -0.372122         84.8102
4.68                   -0.380083         83.3536
4.7                    -0.387724         81.8846
4.72                    -0.39532         80.4027
4.74                   -0.403148         78.9077
4.76                   -0.411428         77.4007
4.78                   -0.420284         75.8829
4.8                    -0.429723         74.3558
4.82                   -0.439651         72.8206
4.84                   -0.449903         71.2782
4.86                   -0.460282         69.7286
4.88                   -0.470618         68.1715
4.9                    -0.480786         66.6059
4.92                   -0.490745         65.0308
4.94                   -0.500532         63.4451
4.96                   -0.510248          61.848
4.98                   -0.520034         60.2391
5                      -0.530035         58.6187
5.02                   -0.540365         56.9872
5.04                   -0.551088         55.3455
5.06                   -0.562203         53.6945
5.08                   -0.573649         52.0349
5.1                    -0.585321         50.3675
5.12                   -0.597093         48.6922
5.14                    -0.60885         47.0091
5.16                   -0.620505         45.3175
5.18                   -0.632025         43.6168
5.2                    -0.643428         41.9065
5.22                   -0.654778          40.186
5.24                   -0.666172         38.4552
5.26                   -0.677713         36.7143
5.28                   -0.689485         34.9638
5.3                    -0.701534         33.2045
5.32                   -0.713858         31.4371
5.34                   -0.726404         29.6626
5.36                    -0.73908         27.8815
5.38                   -0.751772          26.094
5.4                    -0.764369         24.3002
5.42                   -0.776785         22.4997
5.44                   -0.788983          20.692
5.46                   -0.800976         18.8766
5.48                   -0.812825         17.0531
5.5                    -0.824629         15.2213
5.52                   -0.836504         13.3815
5.54                   -0.848548         11.5343
5.56                   -0.860824         9.68066
5.58                   -0.873339         7.82162
5.6                    -0.886041         5.95824
5.62                   -0.898824         4.09134
5.64                   -0.911547         2.22138
5.66                   -0.924064        0.348404
5.68                   -0.936257        -1.52801
5.7                    -0.948067        -3.40856
5.72                   -0.959504        -5.29409
5.74                   -0.970663         -7.1853
5.76                   -0.981698        -9.08249
5.78                   -0.992801        -10.9855
5.8                     -1.00415        -12.8936
5.82                    -1.01589        -14.8054
5.84                    -1.02804        -16.7191
5.86                    -1.04055         -18.633
5.88                    -1.05322        -20.5456
5.9                     -1.06579        -22.4561
5.92                    -1.07796        -24.3648
5.94                    -1.08946        -26.2726
5.96                    -1.10013        -28.1816
5.98                    -1.10995        -30.0943
6                       -1.11911        -32.0132
6.02                    -1.12801        -33.9401
6.04                    -1.13713        -35.8758
6.06                    -1.14703        -37.8195
6.08                    -1.15819        -39.7685
6.1                     -1.17085         -41.719
6.12                    -1.18497        -43.6664
6.14                    -1.20011        -45.6066
6.16                     -1.2155        -47.5373
6.18                    -1.23014        -49.4589
6.2                       -1.243        -51.3758
6.22                    -1.25329        -53.2967
6.24                    -1.26084        -55.2338
6.26                    -1.26631        -57.2014
6.28                    -1.27148        -59.2134
6.3                     -1.27919        -61.2804
6.32                    -1.29324         -63.406
6.34                    -1.31799        -65.5843
6.36                    -1.35787        -67.7977
6.38                    -1.41665         -70.016
6.4                     -1.49673        -72.1968
6.42                    -1.59825        -74.2879
6.44                    -1.71832        -76.2319
6.46                    -1.85033        -77.9735
6.48                    -1.98361        -79.4702
6.5                     -2.10382        -80.7058
