! TOUCHSTONE file generated by CST MICROWAVE STUDIO
! Date and time: Sat Oct 29 09:57:20 2022
! Project name: L.cst
! Parameters = {Di=1.27; Epsilon_r=1.56; InnerDiameter=1.27; Length=2; Lf=10; Lg=60; OuterConductorThickness=0.2921; OuterDiameter=3.6; Wf=3; Wp=41.2; de=1.5; df=6.8; g=0.8; gx=3.71894; gy=1.20603; h=2.34; hf=1.524; px=11.8757; py=14.2786; w=9.7; wx=8.1568; wy=13.0725}
! Header version: 2018
! Port assignment regex: !\s*Touchstone port\s*([0-9]+)\s*=\s*(CST MWS port|CST DS port)\s*([0-9]+|Zmin|Zmax)\s*\(\"(.*)\"\)(\s*mode\s*([0-9]+))?.*
! Touchstone port assignment:
! Touchstone port 1 = CST MWS port 1 ("")
# GHz S DB R 50
4.5                    -0.983977         66.5575
4.52                    -1.06104         63.6896
4.54                    -1.04007         61.6881
4.56                    -1.15606         58.9895
4.58                    -1.12336         56.4134
4.6                     -1.23454         53.8592
4.62                    -1.22947         50.7373
4.64                    -1.30719         48.1202
4.66                    -1.34894         44.5808
4.68                    -1.38953         41.6125
4.7                     -1.47576         37.7635
4.72                    -1.49704         34.1732
4.74                    -1.61387         30.0023
4.76                    -1.64634         25.5857
4.78                    -1.78281         20.9223
4.8                     -1.86217         15.5246
4.82                    -2.02397         10.0641
4.84                    -2.18994         3.52185
4.86                    -2.41142        -3.11909
4.88                    -2.71619        -11.0102
4.9                     -3.06845        -19.2088
4.92                    -3.59104         -28.634
4.94                    -4.17996        -38.5952
4.96                    -5.02159        -49.5099
4.98                    -5.94872        -61.0289
5                       -7.16385        -72.9265
5.02                     -8.4188        -85.3758
5.04                    -9.88021        -97.4467
5.06                    -11.2178        -110.191
5.08                     -12.525        -121.728
5.1                     -13.4756         -134.15
5.12                    -14.0887        -144.428
5.14                     -14.274         -155.51
5.16                    -13.9878        -164.102
5.18                     -13.499        -173.368
5.2                     -12.6291         179.016
5.22                    -11.8288         170.972
5.24                    -10.7976         163.385
5.26                    -9.96956         155.843
5.28                    -9.04671         147.888
5.3                      -8.3526         140.423
5.32                    -7.69753         132.121
5.34                    -7.27145         124.702
5.36                    -7.05737         116.679
5.38                    -7.10506         110.732
5.4                     -7.47277         106.992
5.42                    -7.42466         109.217
5.44                    -6.36316         112.045
5.46                    -4.55639         107.886
5.48                    -3.27624         99.0352
5.5                     -2.39998         87.9963
5.52                    -1.92704         77.6605
5.54                    -1.62276         66.4667
5.56                    -1.46364         56.2312
5.58                    -1.47209         44.2939
5.6                     -1.51585         32.4855
5.62                    -2.01755         16.8574
5.64                    -2.93902        -2.99318
5.66                    -9.15718        -35.0459
5.68                    -9.56193         58.4535
5.7                      -3.6583         23.1583
5.72                    -3.45933        -6.86415
5.74                    -4.17888        -40.9919
5.76                      -6.423        -101.741
5.78                    -6.06281         152.343
5.8                     -2.79216         75.6219
5.82                    -2.20586         34.1159
5.84                    -2.05894         6.59311
5.86                    -2.45363        -16.1416
5.88                    -2.66908        -37.6806
5.9                     -3.16136        -60.2196
5.92                    -3.37419        -85.7202
5.94                    -3.66633        -115.762
5.96                    -3.41667        -151.812
5.98                    -2.94254         164.437
6                        -2.0785         113.016
6.02                    -1.63377         48.9333
6.04                    -1.96996        -28.2518
6.06                    -1.82585        -109.612
6.08                     -1.2002        -173.903
6.1                    -0.635068          142.49
6.12                   -0.457708         110.581
6.14                   -0.463226         87.5799
6.16                   -0.610569         68.5208
6.18                   -0.771843         53.8327
6.2                     -1.02415         40.5042
6.22                    -1.19209         29.7999
6.24                    -1.48697         19.5929
6.26                    -1.62115         10.9672
6.28                    -1.93232         2.80411
6.3                     -2.03631        -4.74526
6.32                    -2.33392        -11.3695
6.34                    -2.43694        -18.3826
6.36                    -2.68101        -23.8101
6.38                    -2.82423        -30.4841
6.4                     -2.97533        -35.0998
6.42                    -3.19267        -41.3299
6.44                    -3.23108        -45.6277
6.46                    -3.52625        -51.0965
6.48                    -3.47213        -55.6132
6.5                     -3.80168        -59.9734
