! TOUCHSTONE file generated by CST MICROWAVE STUDIO
! Date and time: Thu Oct 27 02:20:18 2022
! Project name: L.cst
! Parameters = {Di=1.27; Epsilon_r=1.56; InnerDiameter=1.27; Length=2; Lf=10; Lg=60; OuterConductorThickness=0.2921; OuterDiameter=3.6; Wf=3; Wp=41.2; de=1.5; df=6.8; g=0.8; gx=2.6854; gy=4.00083; h=2.34; hf=1.524; px=8.79904; py=11.3899; w=9.7; wx=6.11364; wy=7.38911}
! Header version: 2018
! Port assignment regex: !\s*Touchstone port\s*([0-9]+)\s*=\s*(CST MWS port|CST DS port)\s*([0-9]+|Zmin|Zmax)\s*\(\"(.*)\"\)(\s*mode\s*([0-9]+))?.*
! Touchstone port assignment:
! Touchstone port 1 = CST MWS port 1 ("")
# GHz S DB R 50
4.5                    -0.330503         94.9103
4.52                   -0.339093         93.5085
4.54                   -0.347875          92.097
4.56                   -0.356855         90.6756
4.58                    -0.36604         89.2443
4.6                    -0.375434          87.803
4.62                   -0.385038         86.3517
4.64                   -0.394853         84.8902
4.66                   -0.404879         83.4186
4.68                   -0.415113         81.9366
4.7                    -0.425554         80.4443
4.72                     -0.4362         78.9415
4.74                   -0.447047         77.4282
4.76                   -0.458094         75.9043
4.78                   -0.469338         74.3696
4.8                    -0.480778          72.824
4.82                   -0.492412         71.2676
4.84                   -0.504239         69.7001
4.86                   -0.516258         68.1216
4.88                    -0.52847         66.5318
4.9                    -0.540874         64.9308
4.92                   -0.553472         63.3186
4.94                   -0.566265         61.6949
4.96                   -0.579254         60.0598
4.98                   -0.592439         58.4133
5                      -0.605825         56.7553
5.02                   -0.619411         55.0859
5.04                     -0.6332         53.4049
5.06                   -0.647192         51.7125
5.08                   -0.661389         50.0086
5.1                    -0.675793         48.2934
5.12                   -0.690403         46.5668
5.14                    -0.70522         44.8289
5.16                   -0.720242         43.0798
5.18                    -0.73547         41.3197
5.2                    -0.750903         39.5486
5.22                   -0.766535         37.7666
5.24                   -0.782367         35.9739
5.26                   -0.798393         34.1707
5.28                    -0.81461         32.3571
5.3                    -0.831013         30.5333
5.32                   -0.847597         28.6995
5.34                   -0.864354         26.8559
5.36                   -0.881278         25.0028
5.38                   -0.898363         23.1404
5.4                    -0.915598         21.2689
5.42                   -0.932976         19.3887
5.44                   -0.950487            17.5
5.46                   -0.968122         15.6031
5.48                   -0.985869         13.6983
5.5                     -1.00372          11.786
5.52                    -1.02166         9.86644
5.54                    -1.03968         7.94003
5.56                    -1.05777         6.00713
5.58                    -1.07591          4.0681
5.6                      -1.0941         2.12333
5.62                    -1.11231        0.173228
5.64                    -1.13054        -1.78181
5.66                    -1.14878        -3.74136
5.68                      -1.167          -5.705
5.7                      -1.1852        -7.67228
5.72                    -1.20337        -9.64278
5.74                    -1.22148         -11.616
5.76                    -1.23952        -13.5915
5.78                    -1.25749        -15.5689
5.8                     -1.27536        -17.5477
5.82                    -1.29312        -19.5273
5.84                    -1.31075        -21.5074
5.86                    -1.32825        -23.4874
5.88                    -1.34559        -25.4669
5.9                     -1.36276        -27.4454
5.92                    -1.37974        -29.4224
5.94                    -1.39652        -31.3975
5.96                    -1.41308        -33.3703
5.98                    -1.42941        -35.3402
6                       -1.44548        -37.3068
6.02                    -1.46129        -39.2698
6.04                    -1.47681        -41.2287
6.06                    -1.49203         -43.183
6.08                    -1.50693        -45.1325
6.1                      -1.5215        -47.0768
6.12                    -1.53573        -49.0155
6.14                    -1.54959        -50.9483
6.16                    -1.56307        -52.8749
6.18                    -1.57617        -54.7951
6.2                     -1.58887        -56.7086
6.22                    -1.60117        -58.6152
6.24                    -1.61304        -60.5146
6.26                     -1.6245        -62.4067
6.28                    -1.63554        -64.2915
6.3                     -1.64616        -66.1687
6.32                    -1.65637        -68.0383
6.34                    -1.66617        -69.9002
6.36                    -1.67557        -71.7543
6.38                     -1.6846        -73.6006
6.4                     -1.69327         -75.439
6.42                    -1.70161        -77.2696
6.44                    -1.70965        -79.0923
6.46                    -1.71742         -80.907
6.48                    -1.72497        -82.7138
6.5                     -1.73232        -84.5126
