! TOUCHSTONE file generated by CST MICROWAVE STUDIO
! Date and time: Wed Oct 26 22:11:28 2022
! Project name: L.cst
! Parameters = {Di=1.27; Epsilon_r=1.56; InnerDiameter=1.27; Length=2; Lf=10; Lg=60; OuterConductorThickness=0.2921; OuterDiameter=3.6; Wf=3; Wp=41.2; de=1.5; df=6.8; g=0.8; gx=3.55313; gy=1.82666; h=2.34; hf=1.524; px=13.0325; py=12.3819; w=9.7; wx=9.47935; wy=10.5553}
! Header version: 2018
! Port assignment regex: !\s*Touchstone port\s*([0-9]+)\s*=\s*(CST MWS port|CST DS port)\s*([0-9]+|Zmin|Zmax)\s*\(\"(.*)\"\)(\s*mode\s*([0-9]+))?.*
! Touchstone port assignment:
! Touchstone port 1 = CST MWS port 1 ("")
# GHz S DB R 50
4.5                     -1.02516         72.9374
4.52                    -1.08583         70.8032
4.54                    -1.15226         68.6787
4.56                    -1.21829         66.5564
4.58                     -1.2802         64.4045
4.6                     -1.33832         62.1843
4.62                    -1.39641          59.869
4.64                    -1.45939         57.4539
4.66                    -1.53093         54.9546
4.68                    -1.61192          52.395
4.7                     -1.70053         49.7938
4.72                    -1.79346         47.1545
4.74                     -1.8878         44.4642
4.76                    -1.98252         41.6995
4.78                    -2.07884         38.8376
4.8                     -2.17952         35.8654
4.82                    -2.28747         32.7827
4.84                    -2.40446         29.5996
4.86                    -2.53045         26.3285
4.88                    -2.66386         22.9764
4.9                     -2.80248         19.5398
4.92                    -2.94458         16.0052
4.94                    -3.08972         12.3542
4.96                    -3.23885         8.57015
4.98                    -3.39372         4.64376
5                       -3.55594        0.575039
5.02                    -3.72611        -3.62933
5.04                    -3.90341        -7.96125
5.06                    -4.08581        -12.4166
5.08                    -4.27076        -16.9983
5.1                     -4.45595         -21.716
5.12                    -4.63996         -26.582
5.14                    -4.82235        -31.6058
5.16                    -5.00323        -36.7893
5.18                    -5.18257        -42.1251
5.2                     -5.35951        -47.5973
5.22                    -5.53202        -53.1863
5.24                    -5.69701        -58.8723
5.26                    -5.85098        -64.6397
5.28                    -5.99076        -70.4773
5.3                      -6.1143        -76.3754
5.32                     -6.2209        -82.3221
5.34                    -6.31105         -88.299
5.36                    -6.38586        -94.2792
5.38                    -6.44624        -100.229
5.4                     -6.49242        -106.113
5.42                    -6.52377        -111.897
5.44                    -6.53922        -117.559
5.46                    -6.53791        -123.085
5.48                    -6.51998        -128.474
5.5                     -6.48695        -133.728
5.52                    -6.44157        -138.849
5.54                     -6.3871        -143.834
5.56                    -6.32637        -148.675
5.58                    -6.26096         -153.36
5.6                     -6.19095        -157.884
5.62                    -6.11538        -162.248
5.64                     -6.0332        -166.466
5.66                    -5.94444        -170.562
5.68                    -5.85086        -174.563
5.7                     -5.75582        -178.488
5.72                    -5.66335         177.655
5.74                    -5.57682         173.871
5.76                    -5.49782         170.172
5.78                    -5.42576         166.572
5.8                     -5.35853         163.073
5.82                    -5.29383         159.663
5.84                     -5.2308         156.321
5.86                    -5.17084         153.023
5.88                     -5.1174         149.757
5.9                     -5.07439         146.528
5.92                    -5.04416         143.361
5.94                    -5.02574         140.288
5.96                    -5.01444         137.334
5.98                    -5.00321         134.501
6                       -4.98544          131.76
6.02                    -4.95803         129.061
6.04                    -4.92312         126.351
6.06                    -4.88706         123.599
6.08                    -4.85697         120.816
6.1                     -4.83636         118.041
6.12                    -4.82197         115.328
6.14                    -4.80376         112.701
6.16                    -4.76882         110.131
6.18                    -4.70828         107.526
6.2                     -4.62358         104.762
6.22                    -4.52809         101.741
6.24                     -4.4419         98.4418
6.26                    -4.38201         94.9382
6.28                    -4.35207         91.3706
6.3                     -4.33581         87.8737
6.32                    -4.29855         84.4736
6.34                    -4.20062         80.9961
6.36                    -4.02113         77.0536
6.38                    -3.77875         72.1613
6.4                     -3.53347         65.9203
6.42                    -3.36956         58.1382
6.44                    -3.37622         48.8291
6.46                    -3.63925         38.1465
6.48                    -4.24552          26.319
6.5                     -5.29878         13.6308
