! TOUCHSTONE file generated by CST MICROWAVE STUDIO
! Date and time: Sat Oct 29 02:50:48 2022
! Project name: L.cst
! Parameters = {Di=1.27; Epsilon_r=1.56; InnerDiameter=1.27; Length=2; Lf=10; Lg=60; OuterConductorThickness=0.2921; OuterDiameter=3.6; Wf=3; Wp=41.2; de=1.5; df=6.8; g=0.8; gx=4.7407; gy=4.50296; h=2.34; hf=1.524; px=13.4941; py=12.5017; w=9.7; wx=8.75339; wy=7.99873}
! Header version: 2018
! Port assignment regex: !\s*Touchstone port\s*([0-9]+)\s*=\s*(CST MWS port|CST DS port)\s*([0-9]+|Zmin|Zmax)\s*\(\"(.*)\"\)(\s*mode\s*([0-9]+))?.*
! Touchstone port assignment:
! Touchstone port 1 = CST MWS port 1 ("")
# GHz S DB R 50
4.5                    -0.403208         96.9433
4.52                   -0.414909         95.4894
4.54                   -0.427066         94.0227
4.56                   -0.439706          92.543
4.58                    -0.45285         91.0505
4.6                    -0.466509         89.5453
4.62                   -0.480687         88.0272
4.64                   -0.495386         86.4963
4.66                   -0.510602         84.9526
4.68                   -0.526331         83.3959
4.7                    -0.542566         81.8262
4.72                   -0.559296         80.2433
4.74                   -0.576517         78.6471
4.76                   -0.594219         77.0374
4.78                   -0.612399         75.4141
4.8                    -0.631051         73.7768
4.82                   -0.650173         72.1254
4.84                   -0.669766         70.4596
4.86                   -0.689832         68.7793
4.88                   -0.710375         67.0842
4.9                    -0.731405         65.3741
4.92                   -0.752928         63.6487
4.94                   -0.774957         61.9079
4.96                   -0.797506         60.1514
4.98                    -0.82059         58.3791
5                      -0.844224         56.5908
5.02                   -0.868427         54.7864
5.04                   -0.893217         52.9658
5.06                   -0.918613         51.1288
5.08                   -0.944635         49.2753
5.1                      -0.9713         47.4054
5.12                    -0.99863          45.519
5.14                    -1.02664         43.6161
5.16                    -1.05535         41.6967
5.18                    -1.08478         39.7608
5.2                     -1.11495         37.8086
5.22                    -1.14586         35.8401
5.24                    -1.17753         33.8555
5.26                    -1.20998          31.855
5.28                    -1.24321         29.8386
5.3                     -1.27723         27.8065
5.32                    -1.31206         25.7591
5.34                    -1.34769         23.6966
5.36                    -1.38413         21.6192
5.38                    -1.42138         19.5273
5.4                     -1.45945         17.4212
5.42                    -1.49832         15.3012
5.44                    -1.53801         13.1678
5.46                    -1.57849         11.0212
5.48                    -1.61978         8.86206
5.5                     -1.66186         6.69068
5.52                    -1.70471         4.50759
5.54                    -1.74834         2.31328
5.56                    -1.79273        0.108293
5.58                    -1.83786        -2.10683
5.6                     -1.88373        -4.33151
5.62                    -1.93032        -6.56515
5.64                     -1.9776        -8.80712
5.66                    -2.02557        -11.0568
5.68                     -2.0742        -13.3134
5.7                     -2.12348        -15.5764
5.72                    -2.17339        -17.8451
5.74                    -2.22389        -20.1185
5.76                    -2.27497        -22.3961
5.78                    -2.32662        -24.6771
5.8                     -2.37879        -26.9606
5.82                    -2.43146        -29.2459
5.84                     -2.4846        -31.5322
5.86                     -2.5382        -33.8186
5.88                     -2.5922        -36.1043
5.9                     -2.64658        -38.3885
5.92                    -2.70131        -40.6703
5.94                    -2.75634        -42.9489
5.96                    -2.81165        -45.2234
5.98                    -2.86718        -47.4932
6                       -2.92289        -49.7572
6.02                    -2.97874        -52.0149
6.04                    -3.03468        -54.2653
6.06                    -3.09065        -56.5079
6.08                    -3.14661        -58.7418
6.1                     -3.20251        -60.9664
6.12                    -3.25828        -63.1812
6.14                    -3.31387        -65.3855
6.16                    -3.36923        -67.5789
6.18                    -3.42429        -69.7609
6.2                     -3.47899        -71.9312
6.22                    -3.53329        -74.0895
6.24                    -3.58713        -76.2356
6.26                    -3.64046        -78.3692
6.28                    -3.69324        -80.4905
6.3                     -3.74543        -82.5994
6.32                    -3.79699         -84.696
6.34                     -3.8479        -86.7806
6.36                    -3.89817        -88.8533
6.38                    -3.94777        -90.9146
6.4                     -3.99673        -92.9649
6.42                    -4.04507        -95.0045
6.44                    -4.09284        -97.0341
6.46                     -4.1401         -99.054
6.48                    -4.18692        -101.065
6.5                     -4.23339        -103.067
