! TOUCHSTONE file generated by CST MICROWAVE STUDIO
! Date and time: Sat Oct 29 14:15:59 2022
! Project name: L.cst
! Parameters = {Di=1.27; Epsilon_r=1.56; InnerDiameter=1.27; Length=2; Lf=10; Lg=60; OuterConductorThickness=0.2921; OuterDiameter=3.6; Wf=3; Wp=41.2; de=1.5; df=6.8; g=0.8; gx=3.97721; gy=1.90244; h=2.34; hf=1.524; px=12.3363; py=13.295; w=9.7; wx=8.35904; wy=11.3926}
! Header version: 2018
! Port assignment regex: !\s*Touchstone port\s*([0-9]+)\s*=\s*(CST MWS port|CST DS port)\s*([0-9]+|Zmin|Zmax)\s*\(\"(.*)\"\)(\s*mode\s*([0-9]+))?.*
! Touchstone port assignment:
! Touchstone port 1 = CST MWS port 1 ("")
# GHz S DB R 50
4.5                    -0.753476         78.1075
4.52                   -0.768467         76.5347
4.54                   -0.758903         74.5584
4.56                   -0.800957         72.3753
4.58                    -0.86955         70.4533
4.6                    -0.897481         68.6517
4.62                   -0.902643         66.5504
4.64                   -0.944404         64.2442
4.66                    -1.01129         62.0978
4.68                    -1.05069         60.0506
4.7                     -1.06932         57.7707
4.72                    -1.11423         55.2854
4.74                    -1.18305         52.8831
4.76                    -1.23403         50.5568
4.78                    -1.26624         48.0407
4.8                     -1.31736         45.3146
4.82                    -1.39147          42.608
4.84                    -1.45513         39.9518
4.86                    -1.50194         37.1311
4.88                    -1.56219         34.0899
4.9                     -1.64482         31.0103
4.92                     -1.7232         27.9515
4.94                    -1.78664         24.7397
4.96                    -1.85927         21.2907
4.98                    -1.95397          17.745
5                       -2.05006         14.1848
5.02                     -2.1333         10.4732
5.04                    -2.22209         6.50133
5.06                     -2.3327         2.37034
5.08                     -2.4503         -1.8178
5.1                     -2.55763        -6.16196
5.12                    -2.66711        -10.7909
5.14                    -2.79781        -15.6436
5.16                    -2.94113        -20.5998
5.18                    -3.07732        -25.7127
5.2                     -3.21173        -31.1218
5.22                    -3.36495        -36.8077
5.24                    -3.53533        -42.6332
5.26                    -3.70131        -48.5908
5.28                    -3.85911        -54.8136
5.3                     -4.02823        -61.3259
5.32                     -4.2145        -67.9809
5.34                    -4.39635        -74.6963
5.36                    -4.55907        -81.5748
5.38                    -4.71756        -88.6899
5.4                     -4.88621        -95.9111
5.42                     -5.0485        -103.083
5.44                    -5.18081        -110.257
5.46                    -5.29124        -117.559
5.48                    -5.40424        -124.915
5.5                     -5.51609         -132.12
5.52                    -5.59971         -139.15
5.54                    -5.65372        -146.167
5.56                    -5.70944        -153.186
5.58                    -5.77921        -159.988
5.6                     -5.83564        -166.451
5.62                    -5.86178        -172.741
5.64                    -5.88605        -178.984
5.66                    -5.93402         175.013
5.68                    -5.97897         169.459
5.7                     -5.98371         164.203
5.72                    -5.96639          158.98
5.74                    -5.96582         153.896
5.76                    -5.96218         149.227
5.78                    -5.90207         144.842
5.8                     -5.79464         140.331
5.82                    -5.69778         135.691
5.84                    -5.60913         131.276
5.86                    -5.46527         127.038
5.88                    -5.26418          122.47
5.9                      -5.0826         117.456
5.92                    -4.94185         112.455
5.94                    -4.76774         107.588
5.96                    -4.53217          102.28
5.98                    -4.32284         96.2253
6                       -4.19195         89.9461
6.02                    -4.04951         83.7959
6.04                    -3.81049         77.0423
6.06                    -3.56186          68.798
6.08                    -3.42655         59.2033
6.1                     -3.36834         48.5311
6.12                    -3.31548         35.5482
6.14                     -3.4658         17.9155
6.16                    -4.29031        -6.20274
6.18                    -6.30755        -39.1409
6.2                     -9.57143        -89.0567
6.22                    -10.4818        -163.358
6.24                    -7.42934          138.53
6.26                    -5.10417         101.633
6.28                    -3.99011         74.7178
6.3                     -3.55546         53.8499
6.32                    -3.33732         36.4145
6.34                     -3.1648         19.7643
6.36                    -3.11481         2.30307
6.38                    -3.29089        -16.3546
6.4                     -3.73929        -36.1441
6.42                    -4.45651        -56.7285
6.44                    -5.29167        -77.4271
6.46                    -5.80615        -98.5254
6.48                    -5.56772        -123.434
6.5                      -4.7496        -156.184
