! TOUCHSTONE file generated by CST MICROWAVE STUDIO
! Date and time: Fri Oct 28 10:11:46 2022
! Project name: L.cst
! Parameters = {Di=1.27; Epsilon_r=1.56; InnerDiameter=1.27; Length=2; Lf=10; Lg=60; OuterConductorThickness=0.2921; OuterDiameter=3.6; Wf=3; Wp=41.2; de=1.5; df=6.8; g=0.8; gx=4.04378; gy=1.46744; h=2.34; hf=1.524; px=12.1351; py=11.7876; w=9.7; wx=8.09131; wy=10.3202}
! Header version: 2018
! Port assignment regex: !\s*Touchstone port\s*([0-9]+)\s*=\s*(CST MWS port|CST DS port)\s*([0-9]+|Zmin|Zmax)\s*\(\"(.*)\"\)(\s*mode\s*([0-9]+))?.*
! Touchstone port assignment:
! Touchstone port 1 = CST MWS port 1 ("")
# GHz S DB R 50
4.5                    -0.770322         75.5071
4.52                   -0.803845         73.6616
4.54                    -0.83431         71.7705
4.56                   -0.862479         69.8251
4.58                   -0.889327         67.8182
4.6                    -0.915927         65.7452
4.62                   -0.943363         63.6031
4.64                   -0.972643         61.3907
4.66                    -1.00463         59.1083
4.68                    -1.04003         56.7572
4.7                     -1.07932         54.3393
4.72                    -1.12279         51.8565
4.74                    -1.17053         49.3106
4.76                    -1.22245          46.703
4.78                    -1.27835         44.0344
4.8                     -1.33788         41.3042
4.82                    -1.40064         38.5114
4.84                     -1.4662         35.6536
4.86                    -1.53413         32.7275
4.88                    -1.60403         29.7288
4.9                     -1.67556         26.6527
4.92                    -1.74847         23.4937
4.94                    -1.82257          20.246
4.96                    -1.89779         16.9036
4.98                    -1.97414         13.4607
5                       -2.05166         9.91183
5.02                     -2.1305         6.25195
5.04                    -2.21081         2.47671
5.06                    -2.29273         -1.4174
5.08                     -2.3764        -5.43298
5.1                     -2.46193        -9.57163
5.12                    -2.54933        -13.8339
5.14                    -2.63854        -18.2191
5.16                    -2.72943        -22.7256
5.18                    -2.82173        -27.3504
5.2                     -2.91507        -32.0894
5.22                      -3.009         -36.937
5.24                    -3.10296        -41.8869
5.26                     -3.1963         -46.931
5.28                    -3.28835        -52.0605
5.3                     -3.37836         -57.265
5.32                     -3.4656        -62.5335
5.34                    -3.54935        -67.8535
5.36                    -3.62893        -73.2121
5.38                    -3.70374        -78.5956
5.4                     -3.77326        -83.9899
5.42                     -3.8371        -89.3807
5.44                    -3.89497         -94.754
5.46                     -3.9467        -100.096
5.48                    -3.99226        -105.393
5.5                     -4.03171        -110.634
5.52                    -4.06524        -115.806
5.54                     -4.0931        -120.901
5.56                    -4.11561         -125.91
5.58                    -4.13317        -130.825
5.6                     -4.14618        -135.642
5.62                    -4.15511        -140.356
5.64                    -4.16043        -144.966
5.66                    -4.16262        -149.469
5.68                    -4.16218        -153.868
5.7                     -4.15965        -158.162
5.72                    -4.15557        -162.355
5.74                     -4.1505        -166.449
5.76                    -4.14505        -170.447
5.78                    -4.13984        -174.355
5.8                     -4.13552        -178.175
5.82                    -4.13276          178.09
5.84                    -4.13226         174.434
5.86                     -4.1347         170.857
5.88                    -4.14072         167.355
5.9                     -4.15094         163.928
5.92                    -4.16589         160.576
5.94                    -4.18601         157.298
5.96                    -4.21157         154.097
5.98                    -4.24269         150.975
6                       -4.27928         147.936
6.02                    -4.32097         144.982
6.04                    -4.36712         142.118
6.06                     -4.4168         139.347
6.08                    -4.46872         136.673
6.1                     -4.52125         134.098
6.12                    -4.57245         131.621
6.14                    -4.62008         129.242
6.16                    -4.66168         126.953
6.18                    -4.69466         124.747
6.2                     -4.71646         122.611
6.22                    -4.72469         120.526
6.24                    -4.71732         118.472
6.26                    -4.69285         116.422
6.28                    -4.65048         114.348
6.3                     -4.59022         112.221
6.32                    -4.51295         110.009
6.34                    -4.42038         107.682
6.36                    -4.31499         105.215
6.38                    -4.19988         102.582
6.4                     -4.07864         99.7639
6.42                    -3.95514         96.7439
6.44                    -3.83342           93.51
6.46                    -3.71751         90.0536
6.48                    -3.61135         86.3691
6.5                     -3.51874         82.4531
