! TOUCHSTONE file generated by CST MICROWAVE STUDIO
! Date and time: Thu Oct 27 20:44:33 2022
! Project name: L.cst
! Parameters = {Di=1.27; Epsilon_r=1.56; InnerDiameter=1.27; Length=2; Lf=10; Lg=60; OuterConductorThickness=0.2921; OuterDiameter=3.6; Wf=3; Wp=41.2; de=1.5; df=6.8; g=0.8; gx=2.99737; gy=1.64448; h=2.34; hf=1.524; px=10.7374; py=12.9106; w=9.7; wx=7.74; wy=11.2661}
! Header version: 2018
! Port assignment regex: !\s*Touchstone port\s*([0-9]+)\s*=\s*(CST MWS port|CST DS port)\s*([0-9]+|Zmin|Zmax)\s*\(\"(.*)\"\)(\s*mode\s*([0-9]+))?.*
! Touchstone port assignment:
! Touchstone port 1 = CST MWS port 1 ("")
# GHz S DB R 50
4.5                    -0.708899         73.2356
4.52                   -0.740801         71.4817
4.54                   -0.754347          69.629
4.56                   -0.776634         67.6187
4.58                   -0.817256           65.61
4.6                    -0.854274          63.669
4.62                   -0.876881         61.6632
4.64                    -0.90287         59.5168
4.66                   -0.943766         57.3316
4.68                   -0.985623         55.1826
4.7                     -1.01668         52.9858
4.72                    -1.04785         50.6606
4.74                    -1.09095         48.2664
4.76                    -1.13802         45.8773
4.78                    -1.17759         43.4456
4.8                     -1.21532         40.8934
4.82                    -1.26236         38.2471
4.84                    -1.31528         35.5742
4.86                    -1.36365         32.8541
4.88                    -1.40921         30.0158
4.9                     -1.46181         27.0604
4.92                     -1.5215         24.0451
4.94                    -1.57936         20.9699
4.96                     -1.6341          17.773
4.98                    -1.69389         14.4357
5                       -1.76145         11.0025
5.02                     -1.8298         7.48825
5.04                    -1.89536          3.8433
5.06                    -1.96434       0.0339056
5.08                    -2.04149        -3.91024
5.1                      -2.1221        -7.96282
5.12                    -2.20108        -12.1582
5.14                    -2.28228        -16.5392
5.16                     -2.3718        -21.0916
5.18                    -2.46758        -25.7801
5.2                     -2.56369        -30.6183
5.22                    -2.66115        -35.6493
5.24                    -2.76626        -40.8723
5.26                    -2.87958        -46.2448
5.28                    -2.99481         -51.754
5.3                     -3.10935        -57.4323
5.32                    -3.22791        -63.2905
5.34                    -3.35298        -69.2857
5.36                    -3.47865        -75.3797
5.38                     -3.5986        -81.5882
5.4                     -3.71477        -87.9359
5.42                    -3.83172        -94.3942
5.44                    -3.94659         -100.91
5.46                    -4.05211        -107.479
5.48                    -4.14826        -114.135
5.5                     -4.24278        -120.872
5.52                    -4.33938         -127.63
5.54                    -4.43376        -134.372
5.56                     -4.5247        -141.118
5.58                    -4.62147        -147.876
5.6                     -4.73415         -154.58
5.62                    -4.86207        -161.145
5.64                    -4.99999        -167.545
5.66                    -5.15156        -173.786
5.68                    -5.32608        -179.775
5.7                     -5.52117          174.52
5.72                     -5.7201          169.26
5.74                    -5.91008         164.379
5.76                    -6.09073         159.861
5.78                    -6.25559         155.774
5.8                      -6.3793         152.131
5.82                    -6.43959         148.779
5.84                    -6.44037         145.533
5.86                    -6.39299         142.352
5.88                    -6.28939         139.222
5.9                     -6.11921          135.98
5.92                    -5.90067         132.422
5.94                    -5.66398         128.538
5.96                    -5.41411         124.425
5.98                    -5.13902          120.03
6                       -4.84814         115.187
6.02                    -4.57132         109.864
6.04                    -4.31939         104.187
6.06                    -4.07566         98.1751
6.08                    -3.83383         91.6434
6.1                     -3.61881         84.4263
6.12                    -3.45551          76.543
6.14                    -3.33754         68.0151
6.16                    -3.24403         58.6011
6.18                    -3.17842         47.7735
6.2                     -3.18278         34.8349
6.22                     -3.3353         18.9091
6.24                    -3.75254        -1.16084
6.26                    -4.55783        -26.9315
6.28                    -5.72279          -60.54
6.3                     -6.69876        -103.499
6.32                    -6.52804        -150.856
6.34                    -5.40287         167.751
6.36                    -4.29072         135.793
6.38                    -3.48086         111.603
6.4                     -2.77478         92.2747
6.42                     -2.0923         74.1867
6.44                    -1.71348         55.0856
6.46                    -2.01825         35.5555
6.48                    -3.20955         18.7244
6.5                     -4.94195         10.0181
