! TOUCHSTONE file generated by CST MICROWAVE STUDIO
! Date and time: Sat Oct 29 12:11:33 2022
! Project name: L.cst
! Parameters = {Di=1.27; Epsilon_r=1.56; InnerDiameter=1.27; Length=2; Lf=10; Lg=60; OuterConductorThickness=0.2921; OuterDiameter=3.6; Wf=3; Wp=41.2; de=1.5; df=6.8; g=0.8; gx=3.09477; gy=1.72745; h=2.34; hf=1.524; px=10.4287; py=10.1548; w=9.7; wx=7.33395; wy=8.42738}
! Header version: 2018
! Port assignment regex: !\s*Touchstone port\s*([0-9]+)\s*=\s*(CST MWS port|CST DS port)\s*([0-9]+|Zmin|Zmax)\s*\(\"(.*)\"\)(\s*mode\s*([0-9]+))?.*
! Touchstone port assignment:
! Touchstone port 1 = CST MWS port 1 ("")
# GHz S DB R 50
4.5                    -0.533134          79.439
4.52                   -0.552617         77.7046
4.54                   -0.574014         75.9498
4.56                   -0.597133         74.1749
4.58                   -0.621772         72.3801
4.6                    -0.647731         70.5652
4.62                   -0.674819         68.7295
4.64                   -0.702862         66.8723
4.66                   -0.731704         64.9925
4.68                   -0.761209         63.0889
4.7                    -0.791267         61.1603
4.72                   -0.821796         59.2051
4.74                   -0.852731         57.2219
4.76                   -0.884039         55.2091
4.78                   -0.915706         53.1652
4.8                     -0.94774         51.0887
4.82                   -0.980164          48.978
4.84                    -1.01302         46.8319
4.86                    -1.04635          44.649
4.88                    -1.08023         42.4281
4.9                     -1.11472         40.1681
4.92                    -1.14988          37.868
4.94                    -1.18579          35.527
4.96                    -1.22251         33.1443
4.98                    -1.26009         30.7193
5                        -1.2986         28.2515
5.02                    -1.33806         25.7405
5.04                    -1.37852         23.1861
5.06                    -1.41998          20.588
5.08                    -1.46246         17.9462
5.1                     -1.50593         15.2609
5.12                    -1.55037         12.5322
5.14                    -1.59573         9.76041
5.16                    -1.64196         6.94587
5.18                    -1.68898         4.08911
5.2                      -1.7367         1.19076
5.22                    -1.78501        -1.74846
5.24                     -1.8338        -4.72772
5.26                    -1.88293        -7.74598
5.28                    -1.93225        -10.8023
5.3                     -1.98163        -13.8954
5.32                    -2.03089         -17.024
5.34                    -2.07986        -20.1866
5.36                    -2.12838        -23.3817
5.38                    -2.17628        -26.6074
5.4                     -2.22337        -29.8619
5.42                    -2.26949        -33.1434
5.44                    -2.31446        -36.4495
5.46                    -2.35814        -39.7781
5.48                    -2.40036        -43.1269
5.5                     -2.44098        -46.4933
5.52                    -2.47989        -49.8747
5.54                    -2.51697        -53.2684
5.56                    -2.55211        -56.6718
5.58                    -2.58526        -60.0818
5.6                     -2.61634        -63.4958
5.62                    -2.64531        -66.9106
5.64                    -2.67217        -70.3234
5.66                     -2.6969        -73.7313
5.68                    -2.71952        -77.1312
5.7                     -2.74008        -80.5204
5.72                    -2.75862        -83.8959
5.74                    -2.77521         -87.255
5.76                    -2.78993        -90.5948
5.78                    -2.80288        -93.9131
5.8                     -2.81415        -97.2071
5.82                    -2.82385        -100.475
5.84                    -2.83209        -103.713
5.86                    -2.83898        -106.921
5.88                    -2.84463        -110.097
5.9                     -2.84914        -113.237
5.92                    -2.85262        -116.342
5.94                    -2.85515        -119.409
5.96                    -2.85682        -122.438
5.98                     -2.8577        -125.427
6                       -2.85784        -128.376
6.02                     -2.8573        -131.284
6.04                    -2.85612        -134.151
6.06                    -2.85431        -136.976
6.08                    -2.85189         -139.76
6.1                     -2.84887        -142.503
6.12                    -2.84525        -145.205
6.14                    -2.84103        -147.867
6.16                     -2.8362        -150.491
6.18                    -2.83077        -153.078
6.2                     -2.82475        -155.628
6.22                    -2.81816        -158.143
6.24                    -2.81104        -160.626
6.26                    -2.80346        -163.079
6.28                     -2.7955        -165.502
6.3                      -2.7873        -167.899
6.32                    -2.77901        -170.272
6.34                    -2.77083        -172.623
6.36                    -2.76301        -174.954
6.38                    -2.75584        -177.267
6.4                     -2.74964        -179.564
6.42                     -2.7448         178.152
6.44                    -2.74174         175.882
6.46                    -2.74092         173.624
6.48                    -2.74282         171.378
6.5                     -2.74798         169.143
