! TOUCHSTONE file generated by CST MICROWAVE STUDIO
! Date and time: Sat Oct 29 12:17:29 2022
! Project name: L.cst
! Parameters = {Di=1.27; Epsilon_r=1.56; InnerDiameter=1.27; Length=2; Lf=10; Lg=60; OuterConductorThickness=0.2921; OuterDiameter=3.6; Wf=3; Wp=41.2; de=1.5; df=6.8; g=0.8; gx=4.20369; gy=2.10304; h=2.34; hf=1.524; px=8.52258; py=14.604; w=9.7; wx=4.31889; wy=12.5009}
! Header version: 2018
! Port assignment regex: !\s*Touchstone port\s*([0-9]+)\s*=\s*(CST MWS port|CST DS port)\s*([0-9]+|Zmin|Zmax)\s*\(\"(.*)\"\)(\s*mode\s*([0-9]+))?.*
! Touchstone port assignment:
! Touchstone port 1 = CST MWS port 1 ("")
# GHz S DB R 50
4.5                    -0.405942         81.2461
4.52                   -0.404495         79.7716
4.54                   -0.429664         78.1488
4.56                   -0.426834         76.5796
4.58                   -0.452015         74.9784
4.6                    -0.451732         73.3216
4.62                   -0.473718         71.7214
4.64                   -0.478686         69.9973
4.66                   -0.495444         68.3713
4.68                   -0.506945         66.5987
4.7                    -0.518423         64.9259
4.72                   -0.535428         63.1176
4.74                   -0.543474         61.3809
4.76                   -0.563604         59.5447
4.78                   -0.570819         57.7308
4.8                    -0.591887         55.8693
4.82                   -0.600077         53.9729
4.84                   -0.620536         52.0778
4.86                   -0.631012         50.1028
4.88                    -0.64961         48.1571
4.9                    -0.663517           46.11
4.92                   -0.679462         44.0978
4.94                   -0.696884         41.9815
4.96                   -0.710415         39.8882
4.98                   -0.730261         37.7016
5                      -0.742505          35.512
5.02                   -0.763209          33.252
5.04                   -0.775093         30.9513
5.06                   -0.795251         28.6075
5.08                   -0.807205         26.1835
5.1                    -0.825473         23.7348
5.12                    -0.83788         21.1756
5.14                   -0.852787         18.5935
5.16                   -0.865647         15.8796
5.18                   -0.876335         13.1279
5.2                    -0.888971         10.2285
5.22                    -0.89564         7.25842
5.24                   -0.907482         4.12794
5.26                   -0.911606         0.87449
5.28                   -0.923417        -2.55363
5.3                    -0.928485        -6.17371
5.32                   -0.943654         -9.9929
5.34                   -0.956559        -14.0839
5.36                   -0.982422         -18.417
5.38                    -1.01464        -23.1137
5.4                     -1.06471        -28.1227
5.42                    -1.13468        -33.6074
5.44                    -1.23298        -39.5191
5.46                    -1.37356        -46.0528
5.48                     -1.5656        -53.1907
5.5                      -1.8418        -61.1446
5.52                    -2.22024        -69.9312
5.54                    -2.76381        -79.7422
5.56                    -3.51175        -90.5621
5.58                    -4.56725        -102.456
5.6                     -5.99245        -115.258
5.62                    -7.93094        -128.856
5.64                    -10.4605        -143.151
5.66                    -13.8394        -158.604
5.68                    -18.2961        -177.478
5.7                     -24.3724         149.989
5.72                    -27.1972         84.8102
5.74                    -23.6699          44.687
5.76                    -20.5379         34.5357
5.78                    -17.5307         32.6364
5.8                     -13.7282         30.2907
5.82                    -9.63285         18.3145
5.84                    -6.13209         -5.0726
5.86                    -4.28665        -36.0872
5.88                    -3.97121        -66.6956
5.9                     -4.35639        -94.5218
5.92                    -4.83788        -120.613
5.94                    -5.14129        -147.183
5.96                    -5.18138        -174.118
5.98                    -4.88569         158.103
6                       -4.45079         131.127
6.02                    -3.92956         104.534
6.04                    -3.74442         79.5888
6.06                    -4.02667         55.4676
6.08                     -5.6574         41.9242
6.1                     -4.08364         40.1003
6.12                      -2.016         14.1738
6.14                    -1.93948        -16.6408
6.16                    -2.43024        -51.0673
6.18                    -3.44942        -97.5494
6.2                     -4.13415        -159.408
6.22                    -3.27991         137.335
6.24                    -2.17318         90.8154
6.26                    -1.46183          59.128
6.28                    -1.10545         35.3527
6.3                    -0.945376         16.6931
6.32                   -0.818088       -0.408777
6.34                   -0.842679        -15.9483
6.36                   -0.635439        -34.1132
6.38                    -1.37376        -54.1818
6.4                     -1.30189        -71.1912
6.42                   -0.686137         -104.11
6.44                   -0.725311        -147.807
6.46                   -0.375159         160.081
6.48                    -0.37013         109.871
6.5                    -0.491199         74.6482
