! TOUCHSTONE file generated by CST MICROWAVE STUDIO
! Date and time: Thu Oct 27 12:23:47 2022
! Project name: L.cst
! Parameters = {Di=1.27; Epsilon_r=1.56; InnerDiameter=1.27; Length=2; Lf=10; Lg=60; OuterConductorThickness=0.2921; OuterDiameter=3.6; Wf=3; Wp=41.2; de=1.5; df=6.8; g=0.8; gx=3.25198; gy=2.99823; h=2.34; hf=1.524; px=8.45099; py=14.3809; w=9.7; wx=5.19901; wy=11.3827}
! Header version: 2018
! Port assignment regex: !\s*Touchstone port\s*([0-9]+)\s*=\s*(CST MWS port|CST DS port)\s*([0-9]+|Zmin|Zmax)\s*\(\"(.*)\"\)(\s*mode\s*([0-9]+))?.*
! Touchstone port assignment:
! Touchstone port 1 = CST MWS port 1 ("")
# GHz S DB R 50
4.5                    -0.363779         86.5035
4.52                   -0.412232         85.2374
4.54                   -0.389522         83.9695
4.56                   -0.376671         82.2602
4.58                   -0.421838         80.6613
4.6                    -0.441235         79.3815
4.62                   -0.418692         77.8796
4.64                   -0.431809         76.1422
4.66                   -0.470727         74.6406
4.68                   -0.470856         73.2426
4.7                    -0.460782         71.5748
4.72                   -0.488332         69.8684
4.74                   -0.513696         68.3806
4.76                   -0.506626         66.8265
4.78                   -0.512049         65.0646
4.8                    -0.543055         63.3922
4.82                   -0.555358         61.8447
4.84                   -0.550773         60.1417
4.86                   -0.568837         58.3377
4.88                   -0.595753         56.6693
4.9                    -0.599666          55.014
4.92                   -0.603065         53.1917
4.94                   -0.628237         51.3699
4.96                   -0.647637         49.6624
4.98                   -0.649067          47.878
5                      -0.661949         45.9698
5.02                   -0.688491         44.1297
5.04                   -0.700378         42.3416
5.06                   -0.704328         40.4281
5.08                   -0.725079         38.4591
5.1                    -0.748535          36.581
5.12                   -0.755287         34.6806
5.14                   -0.764868         32.6509
5.16                   -0.789914         30.6329
5.18                   -0.807602         28.6856
5.2                    -0.812584         26.6525
5.22                   -0.828725         24.5228
5.24                   -0.853811         22.4514
5.26                   -0.864934         20.3996
5.28                   -0.871283         18.2236
5.3                    -0.892664         16.0044
5.32                   -0.913697         13.8576
5.34                   -0.919136         11.6632
5.36                   -0.929167         9.33843
5.38                   -0.952914         7.02662
5.4                     -0.96697         4.76389
5.42                   -0.969157         2.38741
5.44                   -0.984249      -0.0950454
5.46                    -1.00699        -2.52364
5.48                    -1.01337        -4.96142
5.5                     -1.01643        -7.56317
5.52                    -1.03759        -10.2232
5.54                      -1.057        -12.8188
5.56                    -1.05835        -15.5085
5.58                    -1.06831        -18.3852
5.6                     -1.09697         -21.262
5.62                    -1.11323        -24.1068
5.64                    -1.11624        -27.1465
5.66                    -1.14125         -30.365
5.68                    -1.18003        -33.5366
5.7                     -1.19732        -36.7673
5.72                    -1.21444        -40.3059
5.74                    -1.26733        -43.9943
5.76                    -1.32494        -47.6343
5.78                    -1.35905        -51.5118
5.8                      -1.4198        -55.8358
5.82                    -1.53511        -60.2871
5.84                    -1.65032        -64.7882
5.86                    -1.76326        -69.8529
5.88                    -1.96716        -75.5737
5.9                     -2.28045        -81.4346
5.92                    -2.63356        -87.5908
5.94                    -3.09933        -94.8862
5.96                    -3.89179        -103.123
5.98                    -5.08596        -111.162
6                       -6.68927        -119.336
6.02                    -9.38483        -129.148
6.04                    -15.9831        -132.763
6.06                    -17.8237        -34.4651
6.08                    -8.69902         -36.126
6.1                     -5.21682        -55.9671
6.12                    -4.14404        -75.6873
6.14                    -4.38545        -90.8561
6.16                    -4.96814        -100.222
6.18                    -5.23433        -107.432
6.2                     -5.39249        -116.138
6.22                    -5.70569        -125.767
6.24                    -5.99593        -135.972
6.26                    -6.15866        -148.821
6.28                    -6.32116        -165.985
6.3                     -6.41851         171.607
6.32                    -6.15687         142.284
6.34                    -5.30598         106.006
6.36                    -3.97734         66.9177
6.38                    -2.67882         30.0096
6.4                     -1.87178         -2.1129
6.42                    -1.65331        -28.4266
6.44                    -1.78397        -48.9048
6.46                    -1.94408        -65.2095
6.48                    -2.09226        -79.7697
6.5                     -2.40025        -93.2579
