! TOUCHSTONE file generated by CST MICROWAVE STUDIO
! Date and time: Sat Oct 29 21:36:40 2022
! Project name: L.cst
! Parameters = {Di=1.27; Epsilon_r=1.56; InnerDiameter=1.27; Length=2; Lf=10; Lg=60; OuterConductorThickness=0.2921; OuterDiameter=3.6; Wf=3; Wp=41.2; de=1.5; df=6.8; g=0.8; gx=0.547473; gy=2.83816; h=2.34; hf=1.524; px=11.1701; py=11.6272; w=9.7; wx=10.6226; wy=8.78903}
! Header version: 2018
! Port assignment regex: !\s*Touchstone port\s*([0-9]+)\s*=\s*(CST MWS port|CST DS port)\s*([0-9]+|Zmin|Zmax)\s*\(\"(.*)\"\)(\s*mode\s*([0-9]+))?.*
! Touchstone port assignment:
! Touchstone port 1 = CST MWS port 1 ("")
# GHz S DB R 50
4.5                     -3.62834         71.0795
4.52                    -3.91169          69.244
4.54                    -4.23992         67.8291
4.56                    -4.56649         66.9009
4.58                    -4.85221         66.2989
4.6                     -5.08807          65.739
4.62                    -5.29855         65.0001
4.64                    -5.52311         64.0574
4.66                    -5.79076         63.0822
4.68                    -6.10361         62.3354
4.7                     -6.43502         62.0248
4.72                    -6.74245         62.1851
4.74                    -6.99089         62.6478
4.76                    -7.17346         63.1407
4.78                     -7.3132          63.461
4.8                     -7.44425         63.5904
4.82                    -7.58808          63.678
4.84                    -7.74007         63.9229
4.86                     -7.8723         64.4339
4.88                    -7.95086         65.1415
4.9                     -7.95827         65.8226
4.92                    -7.90556         66.2329
4.94                    -7.82443         66.2503
4.96                    -7.74695         65.9232
4.98                    -7.68845         65.4099
5                       -7.64233         64.8684
5.02                    -7.58738         64.3584
5.04                    -7.50299         63.8056
5.06                    -7.38368         63.0482
5.08                    -7.24352         61.9382
5.1                     -7.10807         60.4273
5.12                    -7.00025         58.5849
5.14                    -6.92941         56.5492
5.16                    -6.88836         54.4479
5.18                    -6.85877         52.3273
5.2                     -6.82259         50.1215
5.22                    -6.77379         47.6819
5.24                    -6.72364          44.854
5.26                    -6.69607         41.5544
5.28                    -6.71661         37.7996
5.3                     -6.80181         33.6795
5.32                    -6.95388         29.2897
5.34                    -7.16292         24.6527
5.36                    -7.41655         19.6543
5.38                    -7.71465         14.0269
5.4                      -8.0829         7.38759
5.42                    -8.57831       -0.698874
5.44                     -9.2856        -10.7093
5.46                    -10.3086        -23.2828
5.48                    -11.7523        -39.5781
5.5                     -13.6361        -62.0396
5.52                     -15.483        -94.9223
5.54                    -15.6698        -137.492
5.56                     -13.684        -175.052
5.58                    -11.2462         158.282
5.6                     -9.21625         138.438
5.62                    -7.68831         122.324
5.64                    -6.59375         108.515
5.66                    -5.85055         96.3928
5.68                    -5.38447         85.6792
5.7                     -5.12836         76.2275
5.72                     -5.0212         67.9081
5.74                    -5.01109         60.5488
5.76                    -5.06147         53.9234
5.78                    -5.15666         47.7874
5.8                     -5.30191         41.9461
5.82                    -5.51652         36.3144
5.84                    -5.82289         30.9414
5.86                    -6.23595         25.9961
5.88                    -6.75524         21.7268
5.9                     -7.36016         18.4034
5.92                    -8.00913         16.2472
5.94                     -8.6448         15.3573
5.96                     -9.2062         15.6665
5.98                    -9.64272         16.9644
6                       -9.91961         18.9729
6.02                    -10.0124         21.3921
6.04                    -9.90356         23.8639
6.06                    -9.59327         25.9352
6.08                    -9.11637         27.1399
6.1                      -8.5408         27.1743
6.12                    -7.94472         26.0051
6.14                    -7.39085         23.8349
6.16                    -6.91338         20.9871
6.18                    -6.51735         17.7887
6.2                     -6.18558         14.4833
6.22                    -5.88999         11.1804
6.24                    -5.60522         7.85004
6.26                    -5.32036         4.37376
6.28                    -5.04276        0.632197
6.3                     -4.79206        -3.41484
6.32                    -4.58832        -7.69937
6.34                    -4.44091        -12.0729
6.36                    -4.34265        -16.3713
6.38                    -4.27125        -20.4923
6.4                     -4.19829        -24.4546
6.42                    -4.10345        -28.4058
6.44                    -3.98669         -32.557
6.46                    -3.87006        -37.0751
6.48                     -3.7874        -41.9982
6.5                     -3.76879        -47.2211
