! TOUCHSTONE file generated by CST MICROWAVE STUDIO
! Date and time: Sat Oct 29 14:01:57 2022
! Project name: L.cst
! Parameters = {Di=1.27; Epsilon_r=1.56; InnerDiameter=1.27; Length=2; Lf=10; Lg=60; OuterConductorThickness=0.2921; OuterDiameter=3.6; Wf=3; Wp=41.2; de=1.5; df=6.8; g=0.8; gx=4.33888; gy=3.27107; h=2.34; hf=1.524; px=13.8784; py=9.28145; w=9.7; wx=9.53947; wy=6.01038}
! Header version: 2018
! Port assignment regex: !\s*Touchstone port\s*([0-9]+)\s*=\s*(CST MWS port|CST DS port)\s*([0-9]+|Zmin|Zmax)\s*\(\"(.*)\"\)(\s*mode\s*([0-9]+))?.*
! Touchstone port assignment:
! Touchstone port 1 = CST MWS port 1 ("")
# GHz S DB R 50
4.5                    -0.561131         89.9673
4.52                    -0.58546         88.3019
4.54                    -0.61122         86.6213
4.56                   -0.638285         84.9253
4.58                   -0.666537         83.2137
4.6                    -0.695869         81.4858
4.62                   -0.726193          79.741
4.64                   -0.757436         77.9785
4.66                   -0.789547         76.1973
4.68                    -0.82249         74.3966
4.7                     -0.85625         72.5754
4.72                   -0.890833         70.7325
4.74                   -0.926257         68.8671
4.76                   -0.962559         66.9782
4.78                   -0.999791         65.0649
4.8                     -1.03801         63.1262
4.82                     -1.0773         61.1613
4.84                    -1.11773         59.1695
4.86                    -1.15938         57.1501
4.88                    -1.20236         55.1025
4.9                     -1.24674         53.0262
4.92                    -1.29262         50.9208
4.94                    -1.34008         48.7858
4.96                    -1.38922         46.6211
4.98                    -1.44011         44.4263
5                       -1.49283         42.2013
5.02                    -1.54744         39.9461
5.04                      -1.604         37.6606
5.06                    -1.66258         35.3448
5.08                     -1.7232         32.9988
5.1                     -1.78591         30.6227
5.12                    -1.85073         28.2168
5.14                    -1.91767         25.7812
5.16                    -1.98674         23.3161
5.18                    -2.05794         20.8219
5.2                     -2.13125          18.299
5.22                    -2.20664         15.7475
5.24                     -2.2841         13.1681
5.26                    -2.36356         10.5611
5.28                    -2.44499         7.92703
5.3                     -2.52832         5.26633
5.32                    -2.61349         2.57961
5.34                    -2.70043       -0.132511
5.36                    -2.78906        -2.86939
5.38                    -2.87928        -5.63032
5.4                     -2.97102        -8.41455
5.42                    -3.06416        -11.2213
5.44                    -3.15862        -14.0496
5.46                    -3.25429        -16.8986
5.48                    -3.35106        -19.7673
5.5                     -3.44882        -22.6547
5.52                    -3.54747        -25.5595
5.54                     -3.6469        -28.4807
5.56                      -3.747        -31.4169
5.58                    -3.84767        -34.3668
5.6                     -3.94879         -37.329
5.62                    -4.05028         -40.302
5.64                    -4.15204        -43.2841
5.66                    -4.25397        -46.2739
5.68                    -4.35601        -49.2695
5.7                     -4.45806        -52.2693
5.72                    -4.56007        -55.2713
5.74                    -4.66198        -58.2737
5.76                    -4.76372        -61.2746
5.78                    -4.86527        -64.2719
5.8                     -4.96659        -67.2636
5.82                    -5.06766        -70.2478
5.84                    -5.16846        -73.2222
5.86                    -5.26899        -76.1849
5.88                    -5.36925        -79.1336
5.9                     -5.46925        -82.0662
5.92                    -5.56902        -84.9807
5.94                    -5.66859         -87.875
5.96                    -5.76797        -90.7469
5.98                    -5.86723        -93.5945
6                       -5.96639        -96.4157
6.02                     -6.0655        -99.2085
6.04                    -6.16461        -101.971
6.06                    -6.26377        -104.702
6.08                    -6.36303        -107.398
6.1                     -6.46242        -110.059
6.12                      -6.562        -112.682
6.14                    -6.66181        -115.267
6.16                    -6.76187        -117.811
6.18                    -6.86222        -120.313
6.2                     -6.96287        -122.772
6.22                    -7.06384        -125.186
6.24                    -7.16513        -127.554
6.26                    -7.26674        -129.875
6.28                    -7.36864        -132.148
6.3                     -7.47082        -134.372
6.32                    -7.57322        -136.546
6.34                    -7.67579         -138.67
6.36                    -7.77845        -140.741
6.38                    -7.88113        -142.761
6.4                     -7.98369        -144.727
6.42                    -8.08603         -146.64
6.44                    -8.18797        -148.499
6.46                    -8.28935        -150.304
6.48                    -8.38996        -152.054
6.5                     -8.48956        -153.749
