! TOUCHSTONE file generated by CST MICROWAVE STUDIO
! Date and time: Thu Oct 27 20:23:28 2022
! Project name: L.cst
! Parameters = {Di=1.27; Epsilon_r=1.56; InnerDiameter=1.27; Length=2; Lf=10; Lg=60; OuterConductorThickness=0.2921; OuterDiameter=3.6; Wf=3; Wp=41.2; de=1.5; df=6.8; g=0.8; gx=0.755247; gy=1.97883; h=2.34; hf=1.524; px=9.91205; py=9.82056; w=9.7; wx=9.1568; wy=7.84174}
! Header version: 2018
! Port assignment regex: !\s*Touchstone port\s*([0-9]+)\s*=\s*(CST MWS port|CST DS port)\s*([0-9]+|Zmin|Zmax)\s*\(\"(.*)\"\)(\s*mode\s*([0-9]+))?.*
! Touchstone port assignment:
! Touchstone port 1 = CST MWS port 1 ("")
# GHz S DB R 50
4.5                     -1.53567         69.1331
4.52                    -1.60616         67.2232
4.54                     -1.6815         65.2736
4.56                    -1.76224         63.2864
4.58                    -1.84884          61.264
4.6                     -1.94165         59.2089
4.62                    -2.04093         57.1234
4.64                    -2.14688         55.0098
4.66                    -2.25963         52.8701
4.68                    -2.37927         50.7059
4.7                     -2.50584         48.5187
4.72                     -2.6394         46.3094
4.74                    -2.77998         44.0789
4.76                    -2.92763         41.8276
4.78                    -3.08243         39.5557
4.8                     -3.24445         37.2633
4.82                    -3.41384         34.9502
4.84                    -3.59074         32.6163
4.86                    -3.77534         30.2613
4.88                     -3.9679         27.8851
4.9                     -4.16866         25.4876
4.92                    -4.37794         23.0688
4.94                    -4.59607         20.6289
4.96                    -4.82341         18.1683
4.98                    -5.06035         15.6878
5                       -5.30728         13.1882
5.02                    -5.56463         10.6707
5.04                    -5.83282         8.13709
5.06                    -6.11226         5.58916
5.08                    -6.40339         3.02924
5.1                     -6.70662        0.460018
5.12                    -7.02235         -2.1154
5.14                    -7.35097        -4.69349
5.16                    -7.69283        -7.27027
5.18                    -8.04826        -9.84125
5.2                     -8.41756        -12.4014
5.22                    -8.80098        -14.9452
5.24                    -9.19872        -17.4665
5.26                    -9.61091        -19.9582
5.28                    -10.0376         -22.413
5.3                     -10.4788        -24.8222
5.32                    -10.9344        -27.1764
5.34                    -11.4041        -29.4651
5.36                    -11.8875        -31.6768
5.38                    -12.3839        -33.7985
5.4                     -12.8925        -35.8158
5.42                    -13.4121        -37.7128
5.44                    -13.9412        -39.4722
5.46                    -14.4776        -41.0748
5.48                    -15.0187           -42.5
5.5                     -15.5612        -43.7264
5.52                    -16.1007        -44.7317
5.54                    -16.6317        -45.4945
5.56                    -17.1477        -45.9956
5.58                    -17.6407        -46.2204
5.6                     -18.1013        -46.1622
5.62                    -18.5189         -45.826
5.64                    -18.8823        -45.2321
5.66                    -19.1801        -44.4195
5.68                    -19.4021        -43.4475
5.7                     -19.5403         -42.393
5.72                    -19.5897        -41.3464
5.74                    -19.5495        -40.4026
5.76                    -19.4227         -39.652
5.78                    -19.2157        -39.1721
5.8                     -18.9373        -39.0219
5.82                    -18.5974        -39.2402
5.84                    -18.2063        -39.8466
5.86                    -17.7737        -40.8447
5.88                    -17.3083        -42.2259
5.9                     -16.8177        -43.9733
5.92                    -16.3084         -46.065
5.94                    -15.7858        -48.4768
5.96                    -15.2544        -51.1836
5.98                     -14.718         -54.161
6                       -14.1797        -57.3857
6.02                    -13.6424         -60.836
6.04                    -13.1084        -64.4925
6.06                    -12.5798        -68.3371
6.08                    -12.0586        -72.3542
6.1                     -11.5464        -76.5296
6.12                     -11.045        -80.8509
6.14                    -10.5557        -85.3075
6.16                    -10.0801        -89.8898
6.18                     -9.6195        -94.5899
6.2                     -9.17521        -99.4009
6.22                    -8.74853        -104.317
6.24                    -8.34069        -109.334
6.26                    -7.95296        -114.446
6.28                    -7.58656        -119.653
6.3                     -7.24275         -124.95
6.32                    -6.92282        -130.336
6.34                    -6.62808        -135.811
6.36                    -6.35992        -141.373
6.38                    -6.11977        -147.023
6.4                     -5.90919         -152.76
6.42                    -5.72984        -158.587
6.44                     -5.5835        -164.504
6.46                    -5.47216        -170.515
6.48                    -5.39801         -176.62
6.5                     -5.36347         177.175
