! TOUCHSTONE file generated by CST MICROWAVE STUDIO
! Date and time: Thu Oct 27 12:46:31 2022
! Project name: L.cst
! Parameters = {Di=1.27; Epsilon_r=1.56; InnerDiameter=1.27; Length=2; Lf=10; Lg=60; OuterConductorThickness=0.2921; OuterDiameter=3.6; Wf=3; Wp=41.2; de=1.5; df=6.8; g=0.8; gx=0.525404; gy=1.27534; h=2.34; hf=1.524; px=8.13898; py=14.4639; w=9.7; wx=7.61358; wy=13.1886}
! Header version: 2018
! Port assignment regex: !\s*Touchstone port\s*([0-9]+)\s*=\s*(CST MWS port|CST DS port)\s*([0-9]+|Zmin|Zmax)\s*\(\"(.*)\"\)(\s*mode\s*([0-9]+))?.*
! Touchstone port assignment:
! Touchstone port 1 = CST MWS port 1 ("")
# GHz S DB R 50
4.5                     -1.73533         56.9129
4.52                    -1.85152         55.0936
4.54                    -1.93431         53.0273
4.56                     -2.0182          51.222
4.58                    -2.11967         49.0944
4.6                     -2.19479         47.0642
4.62                    -2.31547         44.9986
4.64                    -2.40642         42.8424
4.66                    -2.51275         40.8756
4.68                    -2.60945         38.6618
4.7                     -2.68568          36.545
4.72                    -2.78571         34.2224
4.74                    -2.85988         31.8127
4.76                    -2.95998         29.4025
4.78                     -3.0462         26.7645
4.8                     -3.13022         24.1734
4.82                    -3.22465         21.2887
4.84                    -3.30322          18.302
4.86                    -3.41261          15.117
4.88                    -3.51515           11.68
4.9                     -3.64182         8.17181
4.92                    -3.77909         4.32316
4.94                    -3.92106        0.352997
4.96                    -4.09458         -3.9859
4.98                    -4.27018          -8.652
5                       -4.49287        -13.6801
5.02                    -4.74016        -19.2819
5.04                    -5.04415        -25.3482
5.06                    -5.42601        -32.2735
5.08                    -5.90819         -40.004
5.1                     -6.58824        -48.9076
5.12                    -7.53389        -59.0375
5.14                    -8.96552        -70.2619
5.16                    -11.1011         -82.087
5.18                    -14.3597        -92.1311
5.2                     -19.2753        -95.3564
5.22                    -25.4817        -70.1802
5.24                    -24.7175        -20.9601
5.26                     -21.384        -10.0373
5.28                    -19.6298        -10.9261
5.3                     -19.0155        -14.7909
5.32                    -19.0077        -18.6573
5.34                    -19.6227        -21.0402
5.36                     -20.691        -21.3529
5.38                    -22.1972        -15.2314
5.4                     -23.5348          1.9371
5.42                    -22.1142         28.1098
5.44                     -18.107         42.8111
5.46                    -13.7907         41.8999
5.48                    -9.80307          31.401
5.5                     -6.39619         12.6156
5.52                    -3.94035         -13.508
5.54                     -2.9773        -42.5421
5.56                    -3.17991        -68.4398
5.58                    -3.83172        -89.4759
5.6                     -4.45208        -107.185
5.62                    -4.92155        -122.974
5.64                    -5.17939        -138.099
5.66                    -5.24556        -152.873
5.68                    -5.12576        -168.103
5.7                     -4.81703         176.208
5.72                    -4.37794         159.285
5.74                    -3.79672         140.884
5.76                    -3.22463         120.264
5.78                    -2.73843         96.9211
5.8                     -2.66067         71.0033
5.82                    -3.27263         43.5116
5.84                    -4.71693         21.8872
5.86                    -4.90407         4.80789
5.88                    -4.95537        -19.3479
5.9                     -5.39147        -42.8541
5.92                    -5.78753         -64.962
5.94                    -5.92412         -85.656
5.96                    -5.85737        -105.238
5.98                    -5.50729        -124.197
6                        -5.0083        -142.187
6.02                    -4.35505        -160.298
6.04                    -3.62038        -177.855
6.06                    -2.89485          163.74
6.08                    -2.16331         145.182
6.1                     -1.64224         125.401
6.12                    -1.22987         105.135
6.14                    -1.21443         84.3197
6.16                    -1.31422         63.4381
6.18                    -1.81326         43.3949
6.2                      -2.2043         22.8366
6.22                    -2.82065         4.29484
6.24                    -3.01163        -18.0446
6.26                    -2.80469        -37.1878
6.28                    -1.91005        -80.8137
6.3                     -8.24439        -129.937
6.32                    -10.2817        -94.6175
6.34                    -8.76886        -117.376
6.36                    -6.81586        -130.114
6.38                    -5.97633        -150.631
6.4                     -4.05859        -168.459
6.42                    -2.91251          171.42
6.44                    -1.23936         148.805
6.46                   -0.536296         124.298
6.48                   -0.291457         97.3117
6.5                      -1.4033         74.4303
