! TOUCHSTONE file generated by CST MICROWAVE STUDIO
! Date and time: Thu Oct 27 11:04:30 2022
! Project name: L.cst
! Parameters = {Di=1.27; Epsilon_r=1.56; InnerDiameter=1.27; Length=2; Lf=10; Lg=60; OuterConductorThickness=0.2921; OuterDiameter=3.6; Wf=3; Wp=41.2; de=1.5; df=6.8; g=0.8; gx=1.44995; gy=0.544744; h=2.34; hf=1.524; px=8.65801; py=11.2302; w=9.7; wx=7.20805; wy=10.6855}
! Header version: 2018
! Port assignment regex: !\s*Touchstone port\s*([0-9]+)\s*=\s*(CST MWS port|CST DS port)\s*([0-9]+|Zmin|Zmax)\s*\(\"(.*)\"\)(\s*mode\s*([0-9]+))?.*
! Touchstone port assignment:
! Touchstone port 1 = CST MWS port 1 ("")
# GHz S DB R 50
4.5                    -0.820055         62.9727
4.52                   -0.852931         61.0099
4.54                   -0.892458         59.0501
4.56                   -0.932466         57.1045
4.58                   -0.967948         55.1498
4.6                    -0.998294          53.148
4.62                    -1.02713         51.0728
4.64                    -1.05933         48.9248
4.66                    -1.09758         46.7267
4.68                     -1.1409         44.5038
4.7                     -1.18576         42.2663
4.72                    -1.22874         40.0024
4.74                    -1.26883         37.6883
4.76                    -1.30786         35.3034
4.78                    -1.34897         32.8432
4.8                     -1.39433         30.3188
4.82                    -1.44385         27.7467
4.84                     -1.4954         25.1354
4.86                    -1.54644         22.4793
4.88                    -1.59576         19.7616
4.9                     -1.64411         16.9649
4.92                    -1.69358         14.0811
4.94                    -1.74602         11.1137
4.96                    -1.80185          8.0729
4.98                    -1.85986          4.9656
5                       -1.91812         1.78908
5.02                     -1.9753         -1.4692
5.04                    -2.03157        -4.82524
5.06                    -2.08841        -8.29025
5.08                    -2.14766        -11.8661
5.1                     -2.21039         -15.547
5.12                    -2.27637        -19.3259
5.14                    -2.34443        -23.2008
5.16                    -2.41344        -27.1773
5.18                    -2.48312        -31.2657
5.2                     -2.55432        -35.4741
5.22                    -2.62841        -39.8037
5.24                    -2.70635        -44.2475
5.26                    -2.78785         -48.795
5.28                    -2.87134        -53.4389
5.3                     -2.95463        -58.1798
5.32                    -3.03595        -63.0273
5.34                    -3.11467        -67.9961
5.36                    -3.19148        -73.0995
5.38                    -3.26784        -78.3458
5.4                     -3.34518        -83.7378
5.42                    -3.42451        -89.2777
5.44                    -3.50654        -94.9715
5.46                    -3.59257        -100.833
5.48                    -3.68552        -106.884
5.5                     -3.79073        -113.146
5.52                    -3.91626        -119.638
5.54                    -4.07272        -126.366
5.56                    -4.27299        -133.323
5.58                    -4.53201        -140.483
5.6                     -4.86689        -147.798
5.62                    -5.29714        -155.192
5.64                     -5.8446        -162.546
5.66                    -6.53283        -169.677
5.68                     -7.3851        -176.318
5.7                     -8.41978         177.928
5.72                    -9.63982          173.63
5.74                    -11.0096         171.572
5.76                    -12.4108         172.658
5.78                    -13.5928          177.42
5.8                     -14.2252        -175.018
5.82                    -14.1559        -167.186
5.84                    -13.5616        -161.373
5.86                    -12.7269        -158.178
5.88                    -11.8359        -157.164
5.9                     -10.9694        -157.766
5.92                    -10.1606        -159.569
5.94                    -9.42877        -162.274
5.96                    -8.78639        -165.613
5.98                    -8.23526        -169.319
6                       -7.76298         -173.16
6.02                    -7.34514        -176.992
6.04                    -6.95457         179.205
6.06                    -6.57411         175.341
6.08                     -6.2052         171.289
6.1                     -5.86539         166.991
6.12                    -5.57536         162.507
6.14                    -5.34333         158.006
6.16                    -5.15528         153.662
6.18                    -4.97777         149.537
6.2                     -4.77619         145.485
6.22                    -4.54238          141.18
6.24                     -4.3124         136.291
6.26                    -4.15915         130.705
6.28                    -4.16627         124.647
6.3                     -4.39945         118.712
6.32                    -4.87594         113.846
6.34                    -5.51455         111.264
6.36                    -6.06209         111.925
6.38                    -6.12226         115.134
6.4                     -5.50106         117.834
6.42                    -4.46503         117.235
6.44                    -3.41944          113.01
6.46                    -2.60634         106.291
6.48                    -2.10483         98.3887
6.5                     -1.89819         90.4077
