! TOUCHSTONE file generated by CST MICROWAVE STUDIO
! Date and time: Sat Oct 29 14:24:57 2022
! Project name: L.cst
! Parameters = {Di=1.27; Epsilon_r=1.56; InnerDiameter=1.27; Length=2; Lf=10; Lg=60; OuterConductorThickness=0.2921; OuterDiameter=3.6; Wf=3; Wp=41.2; de=1.5; df=6.8; g=0.8; gx=3.19016; gy=3.6694; h=2.34; hf=1.524; px=9.16369; py=14.858; w=9.7; wx=5.97353; wy=11.1886}
! Header version: 2018
! Port assignment regex: !\s*Touchstone port\s*([0-9]+)\s*=\s*(CST MWS port|CST DS port)\s*([0-9]+|Zmin|Zmax)\s*\(\"(.*)\"\)(\s*mode\s*([0-9]+))?.*
! Touchstone port assignment:
! Touchstone port 1 = CST MWS port 1 ("")
# GHz S DB R 50
4.5                    -0.392418         90.5988
4.52                   -0.377779         89.2253
4.54                   -0.383845         87.6283
4.56                    -0.41651          86.175
4.58                   -0.423848         84.8473
4.6                    -0.416139         83.3331
4.62                   -0.435195         81.7409
4.64                    -0.45974         80.3083
4.66                   -0.459565           78.87
4.68                   -0.462323         77.2663
4.7                    -0.486317         75.6891
4.72                   -0.501804         74.2221
4.74                   -0.501357         72.6697
4.76                   -0.513685         71.0152
4.78                   -0.536931         69.4373
4.8                    -0.545933         67.8981
4.82                   -0.549836         66.2473
4.84                   -0.568635         64.5636
4.86                   -0.588115         62.9593
4.88                   -0.594263         61.3289
4.9                    -0.604272         59.6005
4.92                   -0.625869         57.8919
4.94                   -0.640888         56.2338
4.96                   -0.647595          54.507
4.98                   -0.663464         52.7182
5                      -0.684907         50.9765
5.02                   -0.696528         49.2427
5.04                    -0.70629         47.4248
5.06                   -0.726423         45.5866
5.08                   -0.745722         43.7965
5.1                    -0.755773         41.9725
5.12                   -0.769804         40.0729
5.14                   -0.791955         38.1883
5.16                   -0.808155         36.3316
5.18                   -0.818514           34.41
5.2                    -0.836717         32.4375
5.22                   -0.858544         30.5005
5.24                   -0.871683         28.5582
5.26                   -0.883944         26.5363
5.28                   -0.905223         24.4961
5.3                    -0.924715         22.4928
5.32                   -0.935576         20.4469
5.34                   -0.950698         18.3246
5.36                   -0.973156         16.2147
5.38                   -0.988832         14.1237
5.4                    -0.998699         11.9559
5.42                    -1.01701         9.73072
5.44                    -1.03854         7.53865
5.46                    -1.04997         5.32992
5.48                    -1.06073         3.02072
5.5                     -1.08216        0.684334
5.52                    -1.10107        -1.61604
5.54                    -1.10936        -3.98161
5.56                    -1.12377        -6.45561
5.58                    -1.14842        -8.92181
5.6                     -1.16427        -11.3728
5.62                    -1.17269        -13.9447
5.64                    -1.19469        -16.6139
5.66                    -1.22331        -19.2449
5.68                    -1.23769        -21.9126
5.7                     -1.25246        -24.7594
5.72                    -1.28806        -27.6736
5.74                    -1.32329        -30.5393
5.76                    -1.34199        -33.5376
5.78                    -1.37562        -36.7765
5.8                     -1.43742        -40.0407
5.82                    -1.49013        -43.2943
5.84                    -1.53339        -46.8509
5.86                    -1.62119        -50.7217
5.88                    -1.75141        -54.5735
5.9                     -1.87248        -58.5531
5.92                    -2.02712        -63.1511
5.94                    -2.31633        -68.1372
5.96                    -2.72348        -72.9445
5.98                    -3.21672        -78.0397
6                        -4.0507        -83.8175
6.02                     -5.6028        -87.1455
6.04                    -7.34464        -80.3533
6.06                    -6.96247        -66.7742
6.08                     -5.0979        -65.3705
6.1                     -3.97834        -73.8105
6.12                    -3.91919        -83.9429
6.14                    -4.46612         -91.555
6.16                    -5.05907        -96.6368
6.18                    -5.56005         -101.55
6.2                      -6.1681        -107.061
6.22                    -6.93127        -112.614
6.24                    -7.79688        -118.762
6.26                    -8.89596        -127.211
6.28                    -10.6621        -140.789
6.3                     -14.2428        -167.574
6.32                    -18.7083         109.282
6.34                    -10.9576         30.9588
6.36                    -5.65263        -4.88787
6.38                    -2.98647        -33.1042
6.4                     -2.03256        -56.6808
6.42                    -2.13919        -74.2274
6.44                    -2.45602        -85.5108
6.46                    -2.43164        -95.0673
6.48                    -2.51905        -106.635
6.5                     -3.22131        -117.646
