! TOUCHSTONE file generated by CST MICROWAVE STUDIO
! Date and time: Wed Oct 26 20:25:09 2022
! Project name: L.cst
! Parameters = {Di=1.27; Epsilon_r=1.56; InnerDiameter=1.27; Length=2; Lf=10; Lg=60; OuterConductorThickness=0.2921; OuterDiameter=3.6; Wf=3; Wp=41.2; de=1.5; df=6.8; g=0.8; gx=4.9901; gy=4.83265; h=2.34; hf=1.524; px=8.43197; py=11.8415; w=9.7; wx=3.44187; wy=7.00883}
! Header version: 2018
! Port assignment regex: !\s*Touchstone port\s*([0-9]+)\s*=\s*(CST MWS port|CST DS port)\s*([0-9]+|Zmin|Zmax)\s*\(\"(.*)\"\)(\s*mode\s*([0-9]+))?.*
! Touchstone port assignment:
! Touchstone port 1 = CST MWS port 1 ("")
# GHz S DB R 50
4.5                     -0.25567         98.6888
4.52                   -0.261692         97.2965
4.54                   -0.267822         95.8956
4.56                   -0.274062         94.4861
4.58                   -0.280416         93.0679
4.6                    -0.286884         91.6409
4.62                   -0.293466         90.2052
4.64                   -0.300159         88.7606
4.66                   -0.306962         87.3071
4.68                   -0.313873         85.8447
4.7                    -0.320888         84.3734
4.72                   -0.328005          82.893
4.74                    -0.33522         81.4035
4.76                   -0.342531         79.9049
4.78                   -0.349935         78.3971
4.8                    -0.357429         76.8802
4.82                   -0.365011         75.3539
4.84                   -0.372679         73.8183
4.86                   -0.380432         72.2735
4.88                   -0.388268         70.7192
4.9                    -0.396188         69.1556
4.92                   -0.404189         67.5826
4.94                   -0.412272         66.0002
4.96                   -0.420436         64.4085
4.98                   -0.428681         62.8074
5                      -0.437006         61.1969
5.02                   -0.445411         59.5772
5.04                   -0.453898         57.9482
5.06                   -0.462464         56.3101
5.08                   -0.471111         54.6628
5.1                    -0.479836         53.0066
5.12                   -0.488639         51.3414
5.14                    -0.49752         49.6673
5.16                   -0.506475         47.9846
5.18                   -0.515504         46.2933
5.2                    -0.524605         44.5936
5.22                   -0.533773         42.8856
5.24                   -0.543008         41.1695
5.26                   -0.552305         39.4455
5.28                   -0.561661         37.7137
5.3                    -0.571071         35.9744
5.32                   -0.580533         34.2277
5.34                    -0.59004         32.4739
5.36                   -0.599588         30.7132
5.38                    -0.60917         28.9459
5.4                    -0.618783         27.1722
5.42                    -0.62842         25.3923
5.44                   -0.638074         23.6066
5.46                    -0.64774         21.8153
5.48                   -0.657411         20.0188
5.5                    -0.667081         18.2172
5.52                   -0.676742         16.4109
5.54                   -0.686389         14.6003
5.56                   -0.696014         12.7856
5.58                   -0.705609         10.9673
5.6                    -0.715169         9.14552
5.62                   -0.724686         7.32075
5.64                   -0.734152         5.49331
5.66                   -0.743561         3.66356
5.68                   -0.752906         1.83186
5.7                    -0.762178     -0.00141296
5.72                   -0.771372        -1.83589
5.74                    -0.78048         -3.6712
5.76                   -0.789493         -5.5069
5.78                   -0.798405         -7.3427
5.8                    -0.807209        -9.17819
5.82                   -0.815897         -11.013
5.84                   -0.824461        -12.8466
5.86                   -0.832893        -14.6788
5.88                   -0.841186        -16.5092
5.9                     -0.84933        -18.3372
5.92                   -0.857318        -20.1627
5.94                   -0.865142        -21.9852
5.96                   -0.872793        -23.8043
5.98                   -0.880262        -25.6197
6                      -0.887541         -27.431
6.02                    -0.89462        -29.2379
6.04                   -0.901491          -31.04
6.06                   -0.908145        -32.8371
6.08                   -0.914573        -34.6288
6.1                    -0.920768        -36.4149
6.12                    -0.92672         -38.195
6.14                   -0.932421        -39.9689
6.16                   -0.937865        -41.7363
6.18                   -0.943045        -43.4971
6.2                    -0.947955        -45.2509
6.22                   -0.952591        -46.9976
6.24                    -0.95695        -48.7371
6.26                   -0.961029         -50.469
6.28                   -0.964829        -52.1934
6.3                    -0.968351        -53.9101
6.32                   -0.971598        -55.6188
6.34                   -0.974578        -57.3197
6.36                   -0.977296        -59.0124
6.38                   -0.979765        -60.6971
6.4                    -0.981998        -62.3734
6.42                   -0.984009        -64.0415
6.44                   -0.985816        -65.7012
6.46                   -0.987441        -67.3524
6.48                   -0.988906        -68.9951
6.5                    -0.990234        -70.6291
