! TOUCHSTONE file generated by CST MICROWAVE STUDIO
! Date and time: Fri Oct 28 14:12:00 2022
! Project name: L.cst
! Parameters = {Di=1.27; Epsilon_r=1.56; InnerDiameter=1.27; Length=2; Lf=10; Lg=60; OuterConductorThickness=0.2921; OuterDiameter=3.6; Wf=3; Wp=41.2; de=1.5; df=6.8; g=0.8; gx=1.34699; gy=0.993595; h=2.34; hf=1.524; px=10.1559; py=14.986; w=9.7; wx=8.80892; wy=13.9924}
! Header version: 2018
! Port assignment regex: !\s*Touchstone port\s*([0-9]+)\s*=\s*(CST MWS port|CST DS port)\s*([0-9]+|Zmin|Zmax)\s*\(\"(.*)\"\)(\s*mode\s*([0-9]+))?.*
! Touchstone port assignment:
! Touchstone port 1 = CST MWS port 1 ("")
# GHz S DB R 50
4.5                     -2.41649          53.082
4.52                    -2.43958         50.8509
4.54                    -2.45356         48.4504
4.56                    -2.46465         45.8489
4.58                    -2.47812         43.0042
4.6                     -2.49997         39.8665
4.62                     -2.5351         36.3855
4.64                    -2.58826         32.4942
4.66                    -2.66699         28.1142
4.68                    -2.78286         23.1513
4.7                      -2.9578         17.4835
4.72                     -3.2338         10.9842
4.74                    -3.68631         3.58883
4.76                     -4.4394        -4.48626
4.78                    -5.64643        -12.2554
4.8                     -7.35496        -17.4583
4.82                    -9.23527        -17.3859
4.84                    -10.5736        -12.3761
4.86                    -11.0435        -7.17839
4.88                    -11.0409        -5.28006
4.9                     -10.9882        -6.68628
4.92                    -11.0608        -10.4367
4.94                    -11.3022        -15.8427
4.96                    -11.7145        -22.5939
4.98                    -12.2946        -30.6656
5                       -13.0408        -40.2497
5.02                     -13.944        -51.7862
5.04                    -14.9673        -66.0318
5.06                    -15.9892        -84.0022
5.08                    -16.7149        -106.444
5.1                     -16.7163        -132.307
5.12                    -15.8168         -158.09
5.14                    -14.3289         179.137
5.16                    -12.6812         159.632
5.18                    -11.1295         142.309
5.2                     -9.78525         125.985
5.22                    -8.70943         109.685
5.24                    -7.98013         92.6102
5.26                    -7.77672         74.1601
5.28                    -8.60756         55.2369
5.3                      -10.758         50.4419
5.32                    -7.68458         48.1893
5.34                    -6.00253          11.336
5.36                     -6.1776        -30.9128
5.38                    -6.37137        -77.1136
5.4                     -5.72954        -122.997
5.42                    -4.50808        -162.254
5.44                     -3.3399         166.308
5.46                    -2.48803         140.927
5.48                     -1.9605         119.786
5.5                     -1.69965         101.527
5.52                    -1.65416         85.0914
5.54                    -1.81362         69.3833
5.56                    -2.34024          52.396
5.58                    -5.50931          29.765
5.6                     -4.19861         66.0159
5.62                    -2.82629         43.6003
5.64                    -2.97073         29.3651
5.66                    -3.30366         17.5509
5.68                    -3.70445         6.60323
5.7                     -4.15209        -4.09794
5.72                    -4.64661        -14.9527
5.74                    -5.19808        -26.3378
5.76                    -5.82795        -38.7159
5.78                    -6.58307        -52.7865
5.8                     -7.58258        -69.8375
5.82                    -9.20959        -93.1508
5.84                    -13.2516        -138.963
5.86                     -9.2812         52.7978
5.88                    -2.27299        -52.7961
5.9                     -2.38134        -103.136
5.92                    -2.19874        -136.807
5.94                    -1.62781        -166.045
5.96                   -0.971656         166.637
5.98                   -0.491079         141.014
6                      -0.321163         117.641
6.02                   -0.452688         97.0758
6.04                   -0.795248         79.4396
6.06                    -1.25083         64.4432
6.08                    -1.74909         51.6184
6.1                     -2.24889         40.5075
6.12                    -2.72845         30.7326
6.14                    -3.17875         22.0032
6.16                    -3.59819         14.1077
6.18                    -3.98916         6.88723
6.2                     -4.35707        0.217934
6.22                    -4.70823        -5.99889
6.24                    -5.04845        -11.8515
6.26                    -5.38283        -17.4185
6.28                    -5.71435        -22.7661
6.3                     -6.04364        -27.9508
6.32                    -6.37008        -33.0101
6.34                    -6.69147        -37.9593
6.36                    -7.00588        -42.7955
6.38                    -7.31313        -47.4947
6.4                     -7.61492         -52.022
6.42                    -7.91598        -56.3457
6.44                    -8.22356        -60.4399
6.46                    -8.54487         -64.298
6.48                    -8.88689        -67.9392
6.5                     -9.25394        -71.3936
