! TOUCHSTONE file generated by CST MICROWAVE STUDIO
! Date and time: Sat Oct 29 06:28:58 2022
! Project name: L.cst
! Parameters = {Di=1.27; Epsilon_r=1.56; InnerDiameter=1.27; Length=2; Lf=10; Lg=60; OuterConductorThickness=0.2921; OuterDiameter=3.6; Wf=3; Wp=41.2; de=1.5; df=6.8; g=0.8; gx=3.96901; gy=3.26281; h=2.34; hf=1.524; px=9.35023; py=9.08404; w=9.7; wx=5.38122; wy=5.82123}
! Header version: 2018
! Port assignment regex: !\s*Touchstone port\s*([0-9]+)\s*=\s*(CST MWS port|CST DS port)\s*([0-9]+|Zmin|Zmax)\s*\(\"(.*)\"\)(\s*mode\s*([0-9]+))?.*
! Touchstone port assignment:
! Touchstone port 1 = CST MWS port 1 ("")
# GHz S DB R 50
4.5                    -0.307542          94.149
4.52                   -0.315306         92.7153
4.54                   -0.323272         91.2707
4.56                   -0.331446         89.8152
4.58                   -0.339831         88.3488
4.6                     -0.34843         86.8715
4.62                   -0.357241         85.3832
4.64                   -0.366258         83.8837
4.66                    -0.37548         82.3732
4.68                     -0.3849         80.8513
4.7                     -0.39451         79.3182
4.72                   -0.404305         77.7736
4.74                   -0.414278         76.2175
4.76                   -0.424422         74.6498
4.78                   -0.434734         73.0703
4.8                    -0.445206         71.4789
4.82                   -0.455836         69.8756
4.84                   -0.466619         68.2601
4.86                   -0.477552         66.6325
4.88                   -0.488636         64.9927
4.9                    -0.499866         63.3404
4.92                   -0.511245         61.6758
4.94                    -0.52277         59.9986
4.96                   -0.534444         58.3089
4.98                   -0.546266         56.6066
5                      -0.558238         54.8917
5.02                   -0.570359         53.1643
5.04                   -0.582633         51.4242
5.06                   -0.595058         49.6716
5.08                   -0.607635         47.9064
5.1                    -0.620364         46.1288
5.12                   -0.633246         44.3388
5.14                   -0.646278         42.5366
5.16                   -0.659458         40.7222
5.18                   -0.672784         38.8958
5.2                    -0.686254         37.0575
5.22                   -0.699862         35.2076
5.24                   -0.713603         33.3461
5.26                   -0.727473         31.4735
5.28                   -0.741463         29.5897
5.3                    -0.755568         27.6951
5.32                   -0.769778           25.79
5.34                   -0.784085         23.8746
5.36                   -0.798478         21.9492
5.38                   -0.812948         20.0142
5.4                    -0.827483         18.0699
5.42                   -0.842071         16.1166
5.44                   -0.856701         14.1546
5.46                   -0.871359         12.1845
5.48                   -0.886033         10.2065
5.5                    -0.900709         8.22103
5.52                   -0.915373         6.22858
5.54                    -0.93001         4.22955
5.56                    -0.94461         2.22439
5.58                   -0.959154        0.213574
5.6                    -0.973631        -1.80243
5.62                   -0.988026        -3.82314
5.64                    -1.00232        -5.84805
5.66                    -1.01651        -7.87666
5.68                    -1.03057        -9.90844
5.7                      -1.0445        -11.9429
5.72                    -1.05827        -13.9794
5.74                    -1.07188        -16.0175
5.76                    -1.08531        -18.0566
5.78                    -1.09855        -20.0962
5.8                     -1.11158        -22.1357
5.82                    -1.12439        -24.1746
5.84                    -1.13697        -26.2123
5.86                    -1.14931        -28.2483
5.88                     -1.1614        -30.2819
5.9                     -1.17321        -32.3126
5.92                    -1.18475          -34.34
5.94                    -1.19599        -36.3634
5.96                    -1.20692        -38.3823
5.98                    -1.21753        -40.3962
6                       -1.22782        -42.4047
6.02                    -1.23776        -44.4071
6.04                    -1.24734        -46.4031
6.06                    -1.25655        -48.3921
6.08                    -1.26539        -50.3738
6.1                     -1.27383        -52.3477
6.12                    -1.28187        -54.3135
6.14                     -1.2895        -56.2707
6.16                     -1.2967        -58.2191
6.18                    -1.30347        -60.1582
6.2                      -1.3098        -62.0879
6.22                    -1.31569        -64.0079
6.24                    -1.32112        -65.9179
6.26                    -1.32611        -67.8178
6.28                    -1.33065        -69.7073
6.3                     -1.33473        -71.5864
6.32                    -1.33838        -73.4549
6.34                     -1.3416        -75.3127
6.36                     -1.3444        -77.1598
6.38                    -1.34681         -78.996
6.4                     -1.34883        -80.8214
6.42                    -1.35051        -82.6358
6.44                    -1.35186        -84.4392
6.46                    -1.35293        -86.2317
6.48                    -1.35374         -88.013
6.5                     -1.35435        -89.7833
