! TOUCHSTONE file generated by CST MICROWAVE STUDIO
! Date and time: Sat Oct 29 01:07:09 2022
! Project name: L.cst
! Parameters = {Di=1.27; Epsilon_r=1.56; InnerDiameter=1.27; Length=2; Lf=10; Lg=60; OuterConductorThickness=0.2921; OuterDiameter=3.6; Wf=3; Wp=41.2; de=1.5; df=6.8; g=0.8; gx=4.09839; gy=4.81577; h=2.34; hf=1.524; px=13.1419; py=12.3546; w=9.7; wx=9.04351; wy=7.53883}
! Header version: 2018
! Port assignment regex: !\s*Touchstone port\s*([0-9]+)\s*=\s*(CST MWS port|CST DS port)\s*([0-9]+|Zmin|Zmax)\s*\(\"(.*)\"\)(\s*mode\s*([0-9]+))?.*
! Touchstone port assignment:
! Touchstone port 1 = CST MWS port 1 ("")
# GHz S DB R 50
4.5                    -0.414276         96.7423
4.52                   -0.426717         95.2871
4.54                   -0.439594         93.8199
4.56                   -0.452928         92.3407
4.58                   -0.466735         90.8494
4.6                    -0.481024         89.3461
4.62                   -0.495804         87.8308
4.64                   -0.511076         86.3033
4.66                   -0.526841         84.7636
4.68                   -0.543098         83.2117
4.7                    -0.559847         81.6473
4.72                   -0.577084         80.0705
4.74                   -0.594808         78.4811
4.76                   -0.613017         76.8789
4.78                   -0.631713         75.2637
4.8                    -0.650897         73.6354
4.82                   -0.670571         71.9938
4.84                    -0.69074         70.3388
4.86                   -0.711411         68.6701
4.88                   -0.732593         66.9876
4.9                    -0.754296         65.2911
4.92                   -0.776532         63.5806
4.94                   -0.799314         61.8557
4.96                   -0.822656         60.1164
4.98                   -0.846576         58.3627
5                       -0.87109         56.5942
5.02                   -0.896217         54.8111
5.04                   -0.921973         53.0133
5.06                   -0.948379         51.2006
5.08                   -0.975453         49.3731
5.1                     -1.00322         47.5308
5.12                    -1.03168         45.6736
5.14                    -1.06088         43.8017
5.16                    -1.09081         41.9151
5.18                    -1.12151         40.0139
5.2                     -1.15298         38.0982
5.22                    -1.18524         36.1682
5.24                    -1.21831         34.2239
5.26                    -1.25221         32.2657
5.28                    -1.28693         30.2936
5.3                      -1.3225         28.3079
5.32                    -1.35892         26.3089
5.34                    -1.39621         24.2968
5.36                    -1.43437         22.2719
5.38                    -1.47341         20.2346
5.4                     -1.51333         18.1852
5.42                    -1.55414         16.1241
5.44                    -1.59584         14.0516
5.46                    -1.63843         11.9682
5.48                    -1.68192         9.87427
5.5                      -1.7263          7.7703
5.52                    -1.77157         5.65676
5.54                    -1.81774         3.53416
5.56                    -1.86479         1.40304
5.58                    -1.91273       -0.736073
5.6                     -1.96154        -2.88259
5.62                    -2.01124        -5.03592
5.64                     -2.0618        -7.19544
5.66                    -2.11322        -9.36051
5.68                    -2.16549        -11.5305
5.7                      -2.2186        -13.7046
5.72                    -2.27255        -15.8823
5.74                    -2.32732        -18.0627
5.76                     -2.3829        -20.2451
5.78                    -2.43928        -22.4288
5.8                     -2.49643        -24.6129
5.82                    -2.55435        -26.7967
5.84                    -2.61302        -28.9794
5.86                    -2.67241        -31.1601
5.88                    -2.73251         -33.338
5.9                     -2.79329        -35.5123
5.92                    -2.85472         -37.682
5.94                    -2.91678        -39.8464
5.96                    -2.97943        -42.0046
5.98                    -3.04264        -44.1557
6                       -3.10638        -46.2988
6.02                    -3.17059        -48.4333
6.04                    -3.23525        -50.5581
6.06                    -3.30031        -52.6727
6.08                    -3.36571         -54.776
6.1                      -3.4314        -56.8676
6.12                    -3.49733        -58.9465
6.14                    -3.56344        -61.0122
6.16                    -3.62967         -63.064
6.18                    -3.69595        -65.1013
6.2                     -3.76223        -67.1237
6.22                    -3.82844        -69.1307
6.24                    -3.89451        -71.1219
6.26                    -3.96037        -73.0969
6.28                    -4.02598        -75.0555
6.3                     -4.09126        -76.9975
6.32                    -4.15616        -78.9229
6.34                    -4.22062        -80.8315
6.36                    -4.28461        -82.7234
6.38                    -4.34807        -84.5987
6.4                     -4.41099        -86.4576
6.42                    -4.47332        -88.3003
6.44                    -4.53507         -90.127
6.46                    -4.59622         -91.938
6.48                    -4.65678        -93.7338
6.5                     -4.71676        -95.5145
