! TOUCHSTONE file generated by CST MICROWAVE STUDIO
! Date and time: Thu Oct 27 08:15:16 2022
! Project name: L.cst
! Parameters = {Di=1.27; Epsilon_r=1.56; InnerDiameter=1.27; Length=2; Lf=10; Lg=60; OuterConductorThickness=0.2921; OuterDiameter=3.6; Wf=3; Wp=41.2; de=1.5; df=6.8; g=0.8; gx=2.42918; gy=0.637167; h=2.34; hf=1.524; px=13.3175; py=12.8182; w=9.7; wx=10.8883; wy=12.1811}
! Header version: 2018
! Port assignment regex: !\s*Touchstone port\s*([0-9]+)\s*=\s*(CST MWS port|CST DS port)\s*([0-9]+|Zmin|Zmax)\s*\(\"(.*)\"\)(\s*mode\s*([0-9]+))?.*
! Touchstone port assignment:
! Touchstone port 1 = CST MWS port 1 ("")
# GHz S DB R 50
4.5                     -4.32394         27.9864
4.52                     -4.6837         23.8986
4.54                    -4.99935         19.3274
4.56                    -5.40505         14.1744
4.58                    -5.85685         9.19055
4.6                     -6.27037         3.74811
4.62                    -6.75945        -2.45328
4.64                    -7.31124        -8.70392
4.66                    -7.82339         -15.446
4.68                    -8.38119        -23.1919
4.7                     -8.99962        -31.3026
4.72                    -9.55395        -39.9707
4.74                    -10.0796        -49.8639
4.76                    -10.6128        -60.4132
4.78                     -11.017        -71.3496
4.8                     -11.2684        -83.2015
4.82                    -11.4401        -95.4208
4.84                    -11.4589        -107.204
4.86                    -11.2964        -118.807
4.88                    -11.0745        -130.064
4.9                     -10.8106        -140.267
4.92                      -10.47        -149.647
4.94                    -10.1429        -158.504
4.96                     -9.8674        -166.405
4.98                    -9.58737        -173.446
5                       -9.34048         179.955
5.02                     -9.1636         174.078
5.04                    -8.99588         168.961
5.06                    -8.84437         164.186
5.08                     -8.7464         159.923
5.1                      -8.6486         156.271
5.12                     -8.5467         152.832
5.14                    -8.48252         149.707
5.16                    -8.41417         147.039
5.18                    -8.33473         144.476
5.2                     -8.28964         142.104
5.22                    -8.24468         140.128
5.24                    -8.18887         138.263
5.26                    -8.16386         136.626
5.28                    -8.12975         135.484
5.3                     -8.05789         134.591
5.32                    -7.96924         134.016
5.34                    -7.80354         133.896
5.36                    -7.52427         133.737
5.38                    -7.16901         133.329
5.4                     -6.72394           132.6
5.42                    -6.21232         131.117
5.44                    -5.70734         128.917
5.46                    -5.20779         126.228
5.48                    -4.71763         122.895
5.5                     -4.27733         119.014
5.52                    -3.86911         114.778
5.54                    -3.48164         109.971
5.56                    -3.15303         104.533
5.58                    -2.88369         98.5518
5.6                     -2.67992         91.7574
5.62                    -2.61652          83.992
5.64                    -2.76174         75.4625
5.66                     -3.1817         66.3541
5.68                    -3.98821         57.2525
5.7                     -5.21777         49.5732
5.72                     -6.7275          44.571
5.74                    -8.34788         42.5434
5.76                    -9.93965         43.8558
5.78                    -11.2329         48.1893
5.8                     -12.1744         53.9164
5.82                    -12.7774         61.4038
5.84                    -12.7255         69.4598
5.86                    -12.1851         75.4908
5.88                    -11.2541         79.7927
5.9                      -9.8903         80.3083
5.92                    -8.51265         76.0432
5.94                    -7.22833         68.2607
5.96                    -5.99355         55.8776
5.98                      -5.101         37.6418
6                       -4.79145         14.0431
6.02                    -5.03732         -14.809
6.04                    -5.67924        -49.6405
6.06                    -6.39599        -89.3609
6.08                    -6.68643        -128.519
6.1                      -6.1485        -161.829
6.12                    -4.94226         167.595
6.14                    -4.22331         134.231
6.16                    -5.39879         98.2018
6.18                    -10.3697         64.1685
6.2                     -25.7545         117.876
6.22                    -11.9653         153.253
6.24                    -9.29535         134.466
6.26                     -8.6442         127.124
6.28                    -7.45005         120.943
6.3                     -6.99921         111.151
6.32                    -7.05823         107.282
6.34                     -6.1513         104.329
6.36                    -5.30845         95.3594
6.38                     -4.7667         85.8761
6.4                     -3.83578         70.7217
6.42                     -3.8202         41.7825
6.44                    -6.22744        -3.49604
6.46                    -9.71508         -82.407
6.48                    -6.67261        -162.799
6.5                      -3.5436         155.724
