! TOUCHSTONE file generated by CST MICROWAVE STUDIO
! Date and time: Sat Oct 29 00:46:14 2022
! Project name: L.cst
! Parameters = {Di=1.27; Epsilon_r=1.56; InnerDiameter=1.27; Length=2; Lf=10; Lg=60; OuterConductorThickness=0.2921; OuterDiameter=3.6; Wf=3; Wp=41.2; de=1.5; df=6.8; g=0.8; gx=3.29174; gy=2.70805; h=2.34; hf=1.524; px=13.3472; py=10.7485; w=9.7; wx=10.0555; wy=8.04048}
! Header version: 2018
! Port assignment regex: !\s*Touchstone port\s*([0-9]+)\s*=\s*(CST MWS port|CST DS port)\s*([0-9]+|Zmin|Zmax)\s*\(\"(.*)\"\)(\s*mode\s*([0-9]+))?.*
! Touchstone port assignment:
! Touchstone port 1 = CST MWS port 1 ("")
# GHz S DB R 50
4.5                    -0.876512         81.3247
4.52                   -0.915095          79.524
4.54                   -0.955228         77.6938
4.56                   -0.997205         75.8336
4.58                    -1.04129          73.943
4.6                     -1.08769         72.0222
4.62                    -1.13658         70.0715
4.64                    -1.18805          68.091
4.66                    -1.24218          66.081
4.68                    -1.29897         64.0413
4.7                     -1.35844         61.9718
4.72                    -1.42057         59.8717
4.74                    -1.48537         57.7403
4.76                    -1.55285         55.5766
4.78                    -1.62307         53.3792
4.8                      -1.6961         51.1469
4.82                    -1.77206         48.8784
4.84                    -1.85109         46.5726
4.86                    -1.93334         44.2282
4.88                    -2.01899         41.8445
4.9                     -2.10822         39.4205
4.92                    -2.20121         36.9557
4.94                    -2.29813         34.4498
4.96                     -2.3991         31.9023
4.98                    -2.50426         29.3131
5                       -2.61371         26.6821
5.02                    -2.72749         24.0092
5.04                    -2.84567         21.2942
5.06                    -2.96824         18.5369
5.08                    -3.09522         15.7372
5.1                     -3.22657         12.8948
5.12                    -3.36226         10.0092
5.14                    -3.50225         7.08033
5.16                    -3.64647         4.10768
5.18                    -3.79487         1.09098
5.2                     -3.94737        -1.97002
5.22                    -4.10388        -5.07544
5.24                     -4.2643        -8.22528
5.26                    -4.42849        -11.4193
5.28                    -4.59631        -14.6573
5.3                     -4.76759        -17.9385
5.32                    -4.94208        -21.2624
5.34                    -5.11954        -24.6277
5.36                    -5.29965        -28.0334
5.38                    -5.48207         -31.478
5.4                     -5.66639          -34.96
5.42                    -5.85217        -38.4777
5.44                    -6.03892        -42.0291
5.46                    -6.22613        -45.6124
5.48                    -6.41324        -49.2253
5.5                     -6.59969        -52.8656
5.52                     -6.7849        -56.5311
5.54                     -6.9683        -60.2193
5.56                    -7.14934        -63.9277
5.58                    -7.32749        -67.6535
5.6                     -7.50225         -71.394
5.62                     -7.6732        -75.1462
5.64                    -7.83994        -78.9069
5.66                    -8.00218        -82.6729
5.68                    -8.15967        -86.4407
5.7                     -8.31227        -90.2069
5.72                    -8.45992        -93.9678
5.74                    -8.60263        -97.7196
5.76                    -8.74054        -101.458
5.78                    -8.87388        -105.181
5.8                     -9.00299        -108.883
5.82                     -9.1283         -112.56
5.84                    -9.25038         -116.21
5.86                    -9.36991        -119.828
5.88                    -9.48769        -123.409
5.9                     -9.60465        -126.951
5.92                    -9.72181        -130.448
5.94                    -9.84035        -133.895
5.96                    -9.96149        -137.284
5.98                    -10.0865         -140.61
6                       -10.2168        -143.862
6.02                    -10.3537         -147.03
6.04                    -10.4983        -150.099
6.06                    -10.6515        -153.053
6.08                    -10.8142        -155.875
6.1                     -10.9863         -158.54
6.12                    -11.1674        -161.025
6.14                    -11.3559        -163.301
6.16                    -11.5491         -165.34
6.18                     -11.743        -167.113
6.2                     -11.9315        -168.594
6.22                    -12.1069        -169.765
6.24                    -12.2598        -170.621
6.26                    -12.3791        -171.172
6.28                    -12.4538        -171.455
6.3                     -12.4733        -171.529
6.32                    -12.4299        -171.482
6.34                    -12.3199        -171.413
6.36                    -12.1445        -171.432
6.38                    -11.9097        -171.637
6.4                     -11.6254        -172.111
6.42                    -11.3039        -172.909
6.44                    -10.9584         -174.06
6.46                    -10.6012        -175.569
6.48                    -10.2433        -177.423
6.5                     -9.89349        -179.597
