! TOUCHSTONE file generated by CST MICROWAVE STUDIO
! Date and time: Thu Oct 27 15:01:23 2022
! Project name: L.cst
! Parameters = {Di=1.27; Epsilon_r=1.56; InnerDiameter=1.27; Length=2; Lf=10; Lg=60; OuterConductorThickness=0.2921; OuterDiameter=3.6; Wf=3; Wp=41.2; de=1.5; df=6.8; g=0.8; gx=2.81651; gy=0.771128; h=2.34; hf=1.524; px=10.8433; py=8.88751; w=9.7; wx=8.02681; wy=8.11639}
! Header version: 2018
! Port assignment regex: !\s*Touchstone port\s*([0-9]+)\s*=\s*(CST MWS port|CST DS port)\s*([0-9]+|Zmin|Zmax)\s*\(\"(.*)\"\)(\s*mode\s*([0-9]+))?.*
! Touchstone port assignment:
! Touchstone port 1 = CST MWS port 1 ("")
# GHz S DB R 50
4.5                     -0.78164         66.9393
4.52                    -0.82968         64.9147
4.54                   -0.877878         62.8713
4.56                   -0.925925         60.8053
4.58                   -0.973615         58.7124
4.6                     -1.02084         56.5885
4.62                    -1.06758         54.4297
4.64                    -1.11389         52.2321
4.66                    -1.15989         49.9922
4.68                    -1.20575         47.7069
4.7                     -1.25167         45.3732
4.72                    -1.29787         42.9887
4.74                    -1.34459         40.5514
4.76                    -1.39207         38.0594
4.78                    -1.44055         35.5114
4.8                     -1.49022         32.9062
4.82                    -1.54129         30.2432
4.84                     -1.5939         27.5218
4.86                    -1.64819         24.7419
4.88                    -1.70424         21.9033
4.9                      -1.7621         19.0064
4.92                    -1.82179         16.0516
4.94                    -1.88326         13.0393
4.96                    -1.94645         9.97043
4.98                    -2.01126         6.84577
5                       -2.07752         3.66642
5.02                    -2.14506        0.433563
5.04                    -2.21366        -2.85142
5.06                    -2.28307        -6.18701
5.08                    -2.35302         -9.5715
5.1                     -2.42321         -13.003
5.12                    -2.49332        -16.4795
5.14                    -2.56302        -19.9987
5.16                    -2.63195         -23.558
5.18                    -2.69979        -27.1549
5.2                     -2.76617        -30.7865
5.22                    -2.83076        -34.4495
5.24                    -2.89322        -38.1406
5.26                    -2.95324        -41.8563
5.28                    -3.01054        -45.5929
5.3                     -3.06484        -49.3464
5.32                    -3.11591        -53.1128
5.34                    -3.16357        -56.8878
5.36                    -3.20765        -60.6671
5.38                    -3.24804        -64.4463
5.4                     -3.28467        -68.2211
5.42                     -3.3175         -71.987
5.44                    -3.34657        -75.7398
5.46                    -3.37193         -79.475
5.48                    -3.39368        -83.1886
5.5                     -3.41194        -86.8766
5.52                    -3.42691        -90.5351
5.54                    -3.43876        -94.1606
5.56                    -3.44772        -97.7497
5.58                    -3.45404        -101.299
5.6                     -3.45796        -104.806
5.62                    -3.45975        -108.269
5.64                    -3.45967        -111.683
5.66                    -3.45798        -115.049
5.68                    -3.45495        -118.363
5.7                     -3.45081        -121.624
5.72                    -3.44581        -124.831
5.74                    -3.44016        -127.984
5.76                    -3.43405         -131.08
5.78                    -3.42768         -134.12
5.8                     -3.42118        -137.103
5.82                     -3.4147        -140.029
5.84                    -3.40834        -142.898
5.86                     -3.4022         -145.71
5.88                    -3.39634        -148.467
5.9                     -3.39081        -151.167
5.92                    -3.38564        -153.813
5.94                    -3.38083        -156.406
5.96                    -3.37641        -158.946
5.98                    -3.37235        -161.434
6                       -3.36864        -163.874
6.02                    -3.36526        -166.265
6.04                    -3.36222         -168.61
6.06                    -3.35948        -170.911
6.08                    -3.35707        -173.169
6.1                       -3.355        -175.388
6.12                    -3.35331        -177.569
6.14                    -3.35206        -179.715
6.16                    -3.35134         178.173
6.18                    -3.35125         176.091
6.2                     -3.35197         174.038
6.22                    -3.35365         172.012
6.24                    -3.35652          170.01
6.26                    -3.36083         168.032
6.28                    -3.36684         166.074
6.3                     -3.37488         164.137
6.32                    -3.38527         162.218
6.34                    -3.39836         160.319
6.36                    -3.41451         158.438
6.38                    -3.43409         156.576
6.4                     -3.45747         154.734
6.42                    -3.48498         152.913
6.44                    -3.51693         151.115
6.46                     -3.5536         149.344
6.48                    -3.59518         147.601
6.5                      -3.6418         145.891
