! TOUCHSTONE file generated by CST MICROWAVE STUDIO
! Date and time: Fri Oct 28 21:29:09 2022
! Project name: L.cst
! Parameters = {Di=1.27; Epsilon_r=1.56; InnerDiameter=1.27; Length=2; Lf=10; Lg=60; OuterConductorThickness=0.2921; OuterDiameter=3.6; Wf=3; Wp=41.2; de=1.5; df=6.8; g=0.8; gx=3.41546; gy=2.88074; h=2.34; hf=1.524; px=11.6817; py=11.5599; w=9.7; wx=8.26622; wy=8.67921}
! Header version: 2018
! Port assignment regex: !\s*Touchstone port\s*([0-9]+)\s*=\s*(CST MWS port|CST DS port)\s*([0-9]+|Zmin|Zmax)\s*\(\"(.*)\"\)(\s*mode\s*([0-9]+))?.*
! Touchstone port assignment:
! Touchstone port 1 = CST MWS port 1 ("")
# GHz S DB R 50
4.5                    -0.522153         87.4166
4.52                   -0.538001         85.8315
4.54                    -0.55498         84.2275
4.56                   -0.573091         82.6051
4.58                   -0.592315         80.9644
4.6                    -0.612622         79.3058
4.62                   -0.633971         77.6293
4.64                   -0.656311         75.9348
4.66                   -0.679591         74.2222
4.68                   -0.703761         72.4912
4.7                    -0.728771         70.7413
4.72                   -0.754579         68.9723
4.74                   -0.781145         67.1835
4.76                   -0.808437         65.3744
4.78                   -0.836435         63.5443
4.8                    -0.865123         61.6926
4.82                   -0.894493         59.8185
4.84                   -0.924549         57.9215
4.86                   -0.955297         56.0009
4.88                   -0.986755         54.0559
4.9                     -1.01895         52.0859
4.92                    -1.05189         50.0903
4.94                    -1.08563         48.0686
4.96                    -1.12019         46.0201
4.98                    -1.15561         43.9445
5                       -1.19193         41.8412
5.02                    -1.22918         39.7098
5.04                     -1.2674         37.5501
5.06                    -1.30662         35.3617
5.08                    -1.34687         33.1443
5.1                     -1.38819         30.8979
5.12                    -1.43058         28.6222
5.14                    -1.47407         26.3172
5.16                    -1.51867         23.9829
5.18                    -1.56438         21.6193
5.2                      -1.6112         19.2264
5.22                    -1.65913         16.8044
5.24                    -1.70815         14.3535
5.26                    -1.75823          11.874
5.28                    -1.80935         9.36593
5.3                     -1.86147         6.82983
5.32                    -1.91456         4.26603
5.34                    -1.96854         1.67496
5.36                    -2.02339       -0.942895
5.38                    -2.07902        -3.58698
5.4                     -2.13537        -6.25671
5.42                    -2.19236        -8.95143
5.44                    -2.24993        -11.6704
5.46                    -2.30798        -14.4129
5.48                    -2.36642        -17.1781
5.5                     -2.42517        -19.9651
5.52                    -2.48414        -22.7729
5.54                    -2.54322        -25.6006
5.56                    -2.60232         -28.447
5.58                    -2.66134         -31.311
5.6                     -2.72019        -34.1915
5.62                    -2.77876        -37.0871
5.64                    -2.83697        -39.9966
5.66                    -2.89471        -42.9186
5.68                    -2.95189        -45.8517
5.7                     -3.00843        -48.7943
5.72                    -3.06423        -51.7451
5.74                    -3.11923        -54.7024
5.76                    -3.17333        -57.6646
5.78                    -3.22647        -60.6302
5.8                     -3.27858        -63.5976
5.82                    -3.32959        -66.5651
5.84                    -3.37945        -69.5311
5.86                     -3.4281        -72.4939
5.88                    -3.47549         -75.452
5.9                     -3.52158        -78.4038
5.92                    -3.56633        -81.3477
5.94                     -3.6097        -84.2823
5.96                    -3.65165        -87.2061
5.98                    -3.69217        -90.1178
6                       -3.73122        -93.0161
6.02                    -3.76877        -95.8999
6.04                    -3.80481         -98.768
6.06                    -3.83932        -101.619
6.08                    -3.87228        -104.454
6.1                     -3.90368        -107.269
6.12                    -3.93351        -110.067
6.14                    -3.96176        -112.845
6.16                    -3.98844        -115.604
6.18                    -4.01353        -118.344
6.2                     -4.03707        -121.064
6.22                    -4.05906        -123.765
6.24                    -4.07953        -126.448
6.26                    -4.09853        -129.112
6.28                    -4.11611        -131.759
6.3                     -4.13235         -134.39
6.32                    -4.14732        -137.005
6.34                    -4.16114        -139.606
6.36                    -4.17394        -142.194
6.38                    -4.18587         -144.77
6.4                     -4.19711        -147.335
6.42                    -4.20787        -149.891
6.44                    -4.21835        -152.439
6.46                    -4.22883        -154.981
6.48                    -4.23958        -157.517
6.5                     -4.25089        -160.048
