! TOUCHSTONE file generated by CST MICROWAVE STUDIO
! Date and time: Thu Oct 27 21:26:05 2022
! Project name: L.cst
! Parameters = {Di=1.27; Epsilon_r=1.56; InnerDiameter=1.27; Length=2; Lf=10; Lg=60; OuterConductorThickness=0.2921; OuterDiameter=3.6; Wf=3; Wp=41.2; de=1.5; df=6.8; g=0.8; gx=1.65707; gy=3.07531; h=2.34; hf=1.524; px=8.15426; py=12.3407; w=9.7; wx=6.49719; wy=9.26535}
! Header version: 2018
! Port assignment regex: !\s*Touchstone port\s*([0-9]+)\s*=\s*(CST MWS port|CST DS port)\s*([0-9]+|Zmin|Zmax)\s*\(\"(.*)\"\)(\s*mode\s*([0-9]+))?.*
! Touchstone port assignment:
! Touchstone port 1 = CST MWS port 1 ("")
# GHz S DB R 50
4.5                    -0.434929         86.1371
4.52                    -0.44977         84.6922
4.54                   -0.464525         83.2363
4.56                   -0.479203         81.7685
4.58                   -0.493828         80.2882
4.6                    -0.508436         78.7946
4.62                   -0.523068         77.2871
4.64                   -0.537775         75.7651
4.66                   -0.552609         74.2283
4.68                   -0.567624         72.6761
4.7                    -0.582874         71.1083
4.72                   -0.598408         69.5245
4.74                   -0.614278         67.9246
4.76                   -0.630526         66.3083
4.78                   -0.647193         64.6756
4.8                    -0.664313         63.0263
4.82                   -0.681916         61.3603
4.84                   -0.700025         59.6775
4.86                   -0.718661         57.9779
4.88                   -0.737838         56.2614
4.9                    -0.757565          54.528
4.92                   -0.777847         52.7776
4.94                   -0.798686         51.0101
4.96                   -0.820081         49.2255
4.98                   -0.842028         47.4237
5                      -0.864519         45.6045
5.02                   -0.887546          43.768
5.04                   -0.911099          41.914
5.06                   -0.935165         40.0423
5.08                   -0.959737          38.153
5.1                    -0.984797         36.2458
5.12                    -1.01034         34.3206
5.14                    -1.03634         32.3773
5.16                     -1.0628         30.4158
5.18                    -1.08971          28.436
5.2                     -1.11705         26.4377
5.22                    -1.14481         24.4209
5.24                    -1.17299         22.3854
5.26                    -1.20158         20.3313
5.28                    -1.23056         18.2583
5.3                     -1.25995         16.1665
5.32                    -1.28972         14.0559
5.34                    -1.31989         11.9265
5.36                    -1.35043         9.77826
5.38                    -1.38135         7.61129
5.4                     -1.41265         5.42566
5.42                    -1.44433          3.2215
5.44                    -1.47637        0.998943
5.46                    -1.50879        -1.24182
5.48                    -1.54157        -3.50057
5.5                     -1.57471        -5.77707
5.52                    -1.60821        -8.07102
5.54                    -1.64207        -10.3821
5.56                    -1.67627          -12.71
5.58                    -1.71082        -15.0542
5.6                      -1.7457        -17.4145
5.62                     -1.7809        -19.7902
5.64                    -1.81642         -22.181
5.66                    -1.85223        -24.5863
5.68                    -1.88832        -27.0056
5.7                     -1.92468        -29.4383
5.72                    -1.96128        -31.8839
5.74                    -1.99809        -34.3417
5.76                     -2.0351         -36.811
5.78                    -2.07227        -39.2914
5.8                     -2.10956        -41.7823
5.82                    -2.14694         -44.283
5.84                    -2.18437        -46.7928
5.86                     -2.2218        -49.3113
5.88                    -2.25918         -51.838
5.9                     -2.29646        -54.3722
5.92                    -2.33359        -56.9137
5.94                    -2.37051         -59.462
5.96                    -2.40716        -62.0169
5.98                    -2.44347        -64.5781
6                       -2.47939        -67.1455
6.02                    -2.51485        -69.7193
6.04                     -2.5498        -72.2996
6.06                    -2.58417        -74.8867
6.08                    -2.61793        -77.4812
6.1                     -2.65103        -80.0837
6.12                    -2.68344        -82.6951
6.14                    -2.71516        -85.3166
6.16                    -2.74619        -87.9494
6.18                    -2.77658        -90.5952
6.2                     -2.80637        -93.2557
6.22                    -2.83567        -95.9332
6.24                    -2.86462        -98.6298
6.26                     -2.8934        -101.348
6.28                    -2.92225        -104.091
6.3                     -2.95148        -106.862
6.32                    -2.98145        -109.665
6.34                    -3.01261        -112.502
6.36                    -3.04548        -115.377
6.38                    -3.08069        -118.295
6.4                     -3.11896         -121.26
6.42                    -3.16114        -124.276
6.44                    -3.20817        -127.348
6.46                    -3.26116        -130.479
6.48                    -3.32136        -133.676
6.5                     -3.39015        -136.943
