! TOUCHSTONE file generated by CST MICROWAVE STUDIO
! Date and time: Wed Oct 26 22:36:01 2022
! Project name: L.cst
! Parameters = {Di=1.27; Epsilon_r=1.56; InnerDiameter=1.27; Length=2; Lf=10; Lg=60; OuterConductorThickness=0.2921; OuterDiameter=3.6; Wf=3; Wp=41.2; de=1.5; df=6.8; g=0.8; gx=2.6437; gy=2.20001; h=2.34; hf=1.524; px=14.7421; py=9.7604; w=9.7; wx=12.0984; wy=7.56039}
! Header version: 2018
! Port assignment regex: !\s*Touchstone port\s*([0-9]+)\s*=\s*(CST MWS port|CST DS port)\s*([0-9]+|Zmin|Zmax)\s*\(\"(.*)\"\)(\s*mode\s*([0-9]+))?.*
! Touchstone port assignment:
! Touchstone port 1 = CST MWS port 1 ("")
# GHz S DB R 50
4.5                     -4.02777         54.7838
4.52                     -4.3501         52.0149
4.54                    -4.70616          49.249
4.56                    -5.10112         46.4326
4.58                    -5.52961         43.5336
4.6                     -5.98668         40.5775
4.62                    -6.47594         37.6319
4.64                    -7.00805          34.726
4.66                    -7.59451          31.827
4.68                    -8.23831         28.8937
4.7                     -8.93617          25.918
4.72                    -9.69097         22.9537
4.74                    -10.5149         20.0717
4.76                    -11.4282         17.2762
4.78                    -12.4515         14.5317
4.8                     -13.5973         11.8104
4.82                     -14.884         9.14628
4.84                    -16.3493         6.67789
4.86                    -18.0633         4.54772
4.88                    -20.1472         2.89363
4.9                     -22.7968         2.00975
4.92                    -26.4074         2.85743
4.94                    -32.0695         10.2631
4.96                    -40.8092         71.8283
4.98                     -32.866          139.56
5                       -27.4781         148.131
5.02                    -24.2712         149.595
5.04                    -22.0727         149.186
5.06                    -20.4429         147.944
5.08                    -19.1731         146.295
5.1                     -18.1476         144.512
5.12                    -17.3105         142.742
5.14                    -16.6323         141.063
5.16                    -16.0862         139.462
5.18                    -15.6491         137.937
5.2                      -15.296         136.563
5.22                    -15.0108         135.438
5.24                    -14.7868         134.674
5.26                    -14.6134         134.348
5.28                    -14.4715         134.495
5.3                     -14.3265         135.172
5.32                    -14.1303          136.41
5.34                    -13.8328         138.142
5.36                    -13.3902         140.103
5.38                    -12.7816         141.772
5.4                     -12.0273         142.534
5.42                    -11.1871          141.92
5.44                    -10.3487         139.775
5.46                    -9.59961         136.286
5.48                    -9.00316         131.807
5.5                     -8.59045         126.727
5.52                    -8.35966         121.385
5.54                    -8.29089         116.036
5.56                    -8.36464         110.877
5.58                    -8.56965         106.031
5.6                     -8.90619         101.547
5.62                    -9.38131         97.4473
5.64                     -10.006         93.8126
5.66                    -10.8042          90.897
5.68                    -11.8181         89.3237
5.7                     -13.0777          90.513
5.72                    -14.3145         97.6391
5.74                    -13.7838         109.136
5.76                    -13.1513         96.8092
5.78                    -17.1849         97.0914
5.8                      -19.127         131.084
5.82                    -16.0261           157.6
5.84                    -12.5117         164.265
5.86                    -9.75824          162.65
5.88                     -7.6401         157.471
5.9                     -6.00156         150.512
5.92                    -4.74006         142.673
5.94                    -3.78797         134.495
5.96                    -3.09375         126.277
5.98                     -2.6097         118.152
6                       -2.28916         110.178
6.02                    -2.09499          102.38
6.04                    -2.00885         94.7356
6.06                    -2.02835         87.0948
6.08                    -2.16152         79.1136
6.1                     -2.44566         70.2777
6.12                    -2.98648         60.0463
6.14                    -4.05212         47.5109
6.16                    -6.52504         30.6057
6.18                    -14.9396         5.00104
6.2                     -12.2412         158.183
6.22                    -4.66103         127.275
6.24                    -2.48676         105.547
6.26                    -1.69324         90.7422
6.28                    -1.38079         80.1861
6.3                     -1.34549         71.8779
6.32                    -1.56787         63.7984
6.34                    -2.62147         50.4972
6.36                    -1.44535         66.3614
6.38                    -1.43998         52.1768
6.4                     -1.37586         45.0012
6.42                    -1.31032         39.8733
6.44                    -1.34874         35.6013
6.46                    -1.48637          31.217
6.48                    -1.62895         26.2783
6.5                     -1.68634         21.0998
