! TOUCHSTONE file generated by CST MICROWAVE STUDIO
! Date and time: Fri Oct 28 09:11:29 2022
! Project name: L.cst
! Parameters = {Di=1.27; Epsilon_r=1.56; InnerDiameter=1.27; Length=2; Lf=10; Lg=60; OuterConductorThickness=0.2921; OuterDiameter=3.6; Wf=3; Wp=41.2; de=1.5; df=6.8; g=0.8; gx=3.6393; gy=0.588337; h=2.34; hf=1.524; px=14.7272; py=13.7935; w=9.7; wx=11.0879; wy=13.2051}
! Header version: 2018
! Port assignment regex: !\s*Touchstone port\s*([0-9]+)\s*=\s*(CST MWS port|CST DS port)\s*([0-9]+|Zmin|Zmax)\s*\(\"(.*)\"\)(\s*mode\s*([0-9]+))?.*
! Touchstone port assignment:
! Touchstone port 1 = CST MWS port 1 ("")
# GHz S DB R 50
4.5                      -4.7725         24.0799
4.52                    -5.30443         16.5302
4.54                    -6.00926         9.59353
4.56                    -6.69344        0.663301
4.58                    -7.73108        -8.74851
4.6                     -8.70061        -19.3777
4.62                    -10.0401         -32.419
4.64                    -11.3631        -46.0588
4.66                    -12.6836        -64.1411
4.68                    -13.9368        -83.3327
4.7                     -14.3751        -105.097
4.72                     -14.462        -126.877
4.74                     -13.844        -144.543
4.76                    -13.0149        -160.779
4.78                     -12.244        -172.788
4.8                     -11.3616         176.425
4.82                    -10.7699          167.24
4.84                    -10.1533         159.288
4.86                    -9.81207         151.284
4.88                    -9.62323         144.533
4.9                     -9.72908         137.478
4.92                    -10.3002         132.557
4.94                    -11.2894          130.89
4.96                    -12.4193         138.636
4.98                    -11.6781         152.895
5                       -9.43215         159.189
5.02                    -7.24317          156.05
5.04                    -5.73845         149.113
5.06                    -4.63244         141.374
5.08                    -3.85078         133.133
5.1                     -3.24731         125.133
5.12                    -2.76823         116.628
5.14                    -2.42969         107.938
5.16                    -2.17367         98.4785
5.18                    -2.10419         88.1379
5.2                     -2.20267         76.7962
5.22                    -2.61255         64.0076
5.24                    -3.41837         50.2516
5.26                    -4.74342         35.1801
5.28                    -6.79976         19.4519
5.3                     -9.69239         2.47756
5.32                    -14.0068        -18.7361
5.34                    -20.2722        -57.1471
5.36                    -21.0055        -139.077
5.38                    -15.8911        -178.854
5.4                     -12.5397         164.244
5.42                    -10.2722         152.072
5.44                    -8.73539         142.552
5.46                    -7.47546         133.994
5.48                    -6.55299         125.747
5.5                     -5.73539         118.018
5.52                    -5.07941         109.643
5.54                    -4.51475         101.387
5.56                    -3.99711         91.8456
5.58                    -3.61025         81.4297
5.6                     -3.22669         68.8116
5.62                    -3.07757         52.8934
5.64                    -3.16075         32.3052
5.66                    -3.92247         3.47338
5.68                    -5.76079        -34.8895
5.7                     -7.81822        -86.2955
5.72                    -7.97058        -144.791
5.74                    -6.14958         168.917
5.76                    -4.01088          128.42
5.78                    -3.65392         82.5393
5.8                     -6.82823         31.2855
5.82                    -14.9184        -35.7042
5.84                    -15.4287        -144.937
5.86                    -9.78335         173.919
5.88                    -6.73135          149.79
5.9                     -4.61544         130.408
5.92                    -3.24819         108.582
5.94                    -2.42262         85.5954
5.96                     -1.9224         49.8063
5.98                    -3.82331        -10.9967
6                       -5.70954         -107.11
6.02                    -3.22081          175.81
6.04                    -1.71735         135.496
6.06                   -0.774893         108.314
6.08                    -0.68179         84.0979
6.1                     -1.19647         63.7679
6.12                     -2.1797         43.6468
6.14                    -4.03093          25.677
6.16                    -6.23944         9.92255
6.18                    -9.39597         -6.2166
6.2                     -13.4376        -19.4234
6.22                    -18.9379        -45.2179
6.24                    -25.2379        -122.764
6.26                    -18.2639        -177.975
6.28                    -12.6885         159.202
6.3                     -9.60311         142.599
6.32                    -7.35864         128.553
6.34                     -6.0978         114.082
6.36                    -5.46046         103.399
6.38                    -4.87351         93.3787
6.4                     -4.79197         84.1071
6.42                    -4.54775         77.6373
6.44                    -4.51754         65.4973
6.46                    -6.83839         60.4018
6.48                    -5.89364         78.7507
6.5                     -3.37836         66.2813
