! TOUCHSTONE file generated by CST MICROWAVE STUDIO
! Date and time: Thu Oct 27 19:51:30 2022
! Project name: L.cst
! Parameters = {Di=1.27; Epsilon_r=1.56; InnerDiameter=1.27; Length=2; Lf=10; Lg=60; OuterConductorThickness=0.2921; OuterDiameter=3.6; Wf=3; Wp=41.2; de=1.5; df=6.8; g=0.8; gx=0.537861; gy=2.16535; h=2.34; hf=1.524; px=12.2195; py=10.8503; w=9.7; wx=11.6817; wy=8.68495}
! Header version: 2018
! Port assignment regex: !\s*Touchstone port\s*([0-9]+)\s*=\s*(CST MWS port|CST DS port)\s*([0-9]+|Zmin|Zmax)\s*\(\"(.*)\"\)(\s*mode\s*([0-9]+))?.*
! Touchstone port assignment:
! Touchstone port 1 = CST MWS port 1 ("")
# GHz S DB R 50
4.5                     -8.05501         98.6426
4.52                    -7.79269          99.195
4.54                    -7.61484         99.1949
4.56                    -7.50017         99.3151
4.58                     -7.3635         99.7434
4.6                     -7.14533         100.098
4.62                    -6.86807         99.8696
4.64                    -6.60576         98.9247
4.66                      -6.413         97.5591
4.68                    -6.28679         96.1903
4.7                     -6.17951         95.0204
4.72                    -6.04425          93.907
4.74                    -5.87576         92.5312
4.76                    -5.71074         90.7038
4.78                    -5.59126         88.5141
4.8                     -5.52984         86.2212
4.82                    -5.50293         84.0278
4.84                    -5.47318         81.9151
4.86                    -5.42235         79.6649
4.88                    -5.36699         77.0501
4.9                     -5.34306         74.0192
4.92                    -5.37588         70.7112
4.94                    -5.46211          67.312
4.96                    -5.57551         63.8767
4.98                    -5.69212         60.2484
5                       -5.81565         56.1436
5.02                    -5.98103         51.3356
5.04                    -6.23366         45.7667
5.06                    -6.60423         39.4926
5.08                    -7.09888         32.5017
5.1                     -7.71193         24.5091
5.12                     -8.4547         14.8213
5.14                    -9.37645         2.29024
5.16                    -10.5357        -14.7878
5.18                    -11.8471        -38.9123
5.2                     -12.7082        -72.2556
5.22                     -12.088        -110.597
5.24                    -10.1847        -144.095
5.26                    -8.11304        -170.182
5.28                     -6.4167         168.847
5.3                      -5.1928         151.091
5.32                    -4.40485         135.588
5.34                    -3.98772         121.884
5.36                    -3.87462         109.737
5.38                    -4.00789         98.9536
5.4                     -4.34944         89.3319
5.42                    -4.89122         80.6924
5.44                    -5.65966         72.9955
5.46                    -6.70901         66.5105
5.48                    -8.09897         62.0413
5.5                     -9.83254         61.2509
5.52                    -11.6647          66.803
5.54                    -12.7644         79.9857
5.56                    -12.2825         94.6581
5.58                    -10.7937         103.077
5.6                     -9.23616         105.258
5.62                    -7.94834         103.893
5.64                    -6.95191         100.855
5.66                    -6.18866         97.1326
5.68                    -5.59377          93.202
5.7                     -5.11304         89.2646
5.72                    -4.70555         85.3665
5.74                    -4.34408         81.4622
5.76                    -4.01607          77.462
5.78                    -3.72303         73.2844
5.8                     -3.47595         68.9063
5.82                    -3.28635         64.3855
5.84                    -3.15726         59.8392
5.86                    -3.07852         55.3858
5.88                    -3.02967         51.0784
5.9                     -2.98988         46.8697
5.92                    -2.94926         42.6386
5.94                    -2.91324         38.2689
5.96                    -2.89561         33.7205
5.98                    -2.90588         29.0368
6                       -2.94045          24.282
6.02                      -2.985         19.4547
6.04                    -3.02677         14.4442
6.06                    -3.06782         9.07345
6.08                    -3.12714         3.19751
6.1                     -3.22867        -3.22914
6.12                    -3.38474        -10.1856
6.14                    -3.58875        -17.7098
6.16                    -3.82572        -26.0444
6.18                    -4.09773        -35.7001
6.2                     -4.44613        -47.3855
6.22                    -4.94865        -61.8942
6.24                    -5.68434        -80.1184
6.26                    -6.66113         -103.22
6.28                     -7.6748        -132.541
6.3                     -8.17212        -167.865
6.32                    -7.66244         155.455
6.34                    -6.46592         123.163
6.36                    -5.23408         96.6826
6.38                    -4.30302         74.9922
6.4                     -3.73424         57.1032
6.42                    -3.46068         42.4578
6.44                    -3.35658         30.6233
6.46                    -3.28883         20.9474
6.48                     -3.1811         12.4975
6.5                     -3.05122         4.42155
