! TOUCHSTONE file generated by CST MICROWAVE STUDIO
! Date and time: Fri Oct 28 12:53:57 2022
! Project name: L.cst
! Parameters = {Di=1.27; Epsilon_r=1.56; InnerDiameter=1.27; Length=2; Lf=10; Lg=60; OuterConductorThickness=0.2921; OuterDiameter=3.6; Wf=3; Wp=41.2; de=1.5; df=6.8; g=0.8; gx=1.52248; gy=1.97119; h=2.34; hf=1.524; px=13.3482; py=10.5596; w=9.7; wx=11.8258; wy=8.58836}
! Header version: 2018
! Port assignment regex: !\s*Touchstone port\s*([0-9]+)\s*=\s*(CST MWS port|CST DS port)\s*([0-9]+|Zmin|Zmax)\s*\(\"(.*)\"\)(\s*mode\s*([0-9]+))?.*
! Touchstone port assignment:
! Touchstone port 1 = CST MWS port 1 ("")
# GHz S DB R 50
4.5                      -5.8389         51.0042
4.52                    -6.28878         49.1085
4.54                    -6.78506         47.1422
4.56                    -7.31003         45.5103
4.58                    -7.86334         43.8555
4.6                     -8.46591         42.5697
4.62                    -9.08159         41.4043
4.64                    -9.75815         40.6069
4.66                    -10.4378         40.1461
4.68                    -11.1755         40.0563
4.7                     -11.9093         40.5672
4.72                    -12.6762         41.4898
4.74                    -13.4273         43.2654
4.76                    -14.1571         45.5309
4.78                    -14.8403         48.7601
4.8                     -15.4217         52.4765
4.82                    -15.9053         56.9308
4.84                    -16.2146         61.5768
4.86                    -16.3966         66.3414
4.88                    -16.3973         70.7784
4.9                     -16.3044         74.6843
4.92                    -16.0913          77.946
4.94                    -15.8475         80.3718
4.96                     -15.558         82.1788
4.98                    -15.2797         83.1488
5                       -15.0121          83.652
5.02                    -14.7705         83.4479
5.04                    -14.5765         82.8741
5.06                    -14.4139         81.7649
5.08                    -14.3196         80.3023
5.1                     -14.2656         78.4486
5.12                    -14.2921         76.2039
5.14                    -14.3779         73.6519
5.16                    -14.5572         70.6438
5.18                    -14.8294         67.3328
5.2                     -15.2195         63.4582
5.22                    -15.7641         59.1582
5.24                    -16.4842         54.1069
5.26                    -17.4785         48.2077
5.28                    -18.8068         41.0079
5.3                     -20.6904         31.4325
5.32                    -23.3974         17.2514
5.34                    -27.2015        -10.7219
5.36                    -28.9474        -69.4673
5.38                    -24.5405        -115.985
5.4                     -20.3278        -138.324
5.42                    -17.2818        -152.773
5.44                    -15.0252        -164.551
5.46                    -13.3807        -175.107
5.48                    -12.2008         175.272
5.5                     -11.4268         166.406
5.52                    -11.0093         158.661
5.54                     -10.892         152.222
5.56                    -11.0469         147.692
5.58                    -11.3537         145.759
5.6                     -11.6493         147.085
5.62                    -11.5719         151.684
5.64                    -10.8324          157.22
5.66                    -9.47354         160.611
5.68                     -7.8806         160.022
5.7                     -6.39284         156.115
5.72                    -5.15742         149.931
5.74                    -4.22602         142.657
5.76                    -3.54601         135.015
5.78                     -3.0903         127.411
5.8                     -2.78916          120.18
5.82                    -2.60913         113.224
5.84                    -2.52242         106.743
5.86                    -2.48522         100.497
5.88                    -2.51985         94.5558
5.9                     -2.56465         88.8329
5.92                    -2.67749          83.073
5.94                    -2.80264         77.6162
5.96                    -3.02459         71.5035
5.98                    -3.48337         67.1529
6                       -3.47755         64.4548
6.02                    -3.28839         57.8672
6.04                    -3.54259         50.2377
6.06                    -3.83738         43.1374
6.08                    -4.24672         34.7431
6.1                      -4.8136         25.8965
6.12                    -5.50385         15.0024
6.14                    -6.57711         1.61597
6.16                    -8.01542        -16.0474
6.18                    -10.1361         -43.169
6.2                     -12.3278        -87.1305
6.22                    -11.3609        -145.255
6.24                    -8.21958         170.291
6.26                    -5.80529         140.769
6.28                    -4.25211         118.777
6.3                     -3.45078         101.218
6.32                    -3.01248          87.709
6.34                    -2.76669         75.7821
6.36                    -2.75629         66.0917
6.38                    -2.67479         57.3379
6.4                     -2.82327         49.0738
6.42                    -2.84408         42.3725
6.44                    -2.99215         34.3644
6.46                    -3.19337         28.8933
6.48                    -3.18628         20.8424
6.5                     -3.75343         15.0223
