! TOUCHSTONE file generated by CST MICROWAVE STUDIO
! Date and time: Fri Oct 28 13:53:52 2022
! Project name: L.cst
! Parameters = {Di=1.27; Epsilon_r=1.56; InnerDiameter=1.27; Length=2; Lf=10; Lg=60; OuterConductorThickness=0.2921; OuterDiameter=3.6; Wf=3; Wp=41.2; de=1.5; df=6.8; g=0.8; gx=0.885295; gy=3.69506; h=2.34; hf=1.524; px=11.4207; py=14.4702; w=9.7; wx=10.5354; wy=10.7752}
! Header version: 2018
! Port assignment regex: !\s*Touchstone port\s*([0-9]+)\s*=\s*(CST MWS port|CST DS port)\s*([0-9]+|Zmin|Zmax)\s*\(\"(.*)\"\)(\s*mode\s*([0-9]+))?.*
! Touchstone port assignment:
! Touchstone port 1 = CST MWS port 1 ("")
# GHz S DB R 50
4.5                     -1.62951          81.231
4.52                    -1.71008         79.5752
4.54                    -1.80882         77.9142
4.56                     -1.9076         76.3283
4.58                    -2.00213         74.6863
4.6                     -2.11172          73.008
4.62                    -2.22778         71.4005
4.64                    -2.33921         69.7799
4.66                    -2.46143         68.1112
4.68                    -2.59439         66.4991
4.7                     -2.72441         64.9107
4.72                    -2.86098         63.2796
4.74                    -3.01029         61.6883
4.76                    -3.15937         60.1497
4.78                    -3.31119          58.587
4.8                     -3.47552         57.0492
4.82                    -3.64246         55.5839
4.84                      -3.809         54.1219
4.86                    -3.98569         52.6758
4.88                    -4.16696          51.312
4.9                      -4.3452         49.9813
4.92                    -4.52949         48.6625
4.94                    -4.71889         47.4259
4.96                    -4.90305         46.2486
4.98                    -5.08772         45.0827
5                       -5.27618         43.9867
5.02                    -5.45749          42.965
5.04                    -5.63316         41.9525
5.06                    -5.80986         40.9838
5.08                    -5.97816          40.087
5.1                     -6.13529          39.191
5.12                    -6.29001         38.2989
5.14                     -6.4365         37.4542
5.16                    -6.56866         36.5928
5.18                    -6.69605         35.6852
5.2                      -6.8179         34.7825
5.22                    -6.92614         33.8396
5.24                    -7.02975         32.7984
5.26                    -7.13397          31.709
5.28                    -7.23065         30.5577
5.3                     -7.32646         29.2684
5.32                    -7.43259         27.8789
5.34                    -7.54337         26.4137
5.36                    -7.66236         24.7957
5.38                    -7.80616          23.043
5.4                     -7.97474         21.2245
5.42                    -8.16878         19.2884
5.44                    -8.40964         17.2362
5.46                    -8.70739         15.1978
5.48                    -9.06153         13.2065
5.5                     -9.49581         11.2991
5.52                    -10.0313         9.74109
5.54                    -10.6593          8.8096
5.56                    -11.3805         8.74761
5.58                    -12.1823         10.1371
5.6                     -12.9523         13.6159
5.62                    -13.5154         19.1823
5.64                    -13.7039         26.2382
5.66                    -13.3872         33.3199
5.68                    -12.6621         38.4668
5.7                     -11.7862         41.1219
5.72                    -10.9041         41.7414
5.74                    -10.0943         40.6412
5.76                    -9.43343         38.3562
5.78                    -8.91607         35.5641
5.8                      -8.5003         32.4306
5.82                    -8.20553         29.0124
5.84                    -8.03204         25.7777
5.86                    -7.90768         22.9036
5.88                    -7.82069         20.1264
5.9                     -7.79821         17.7657
5.92                    -7.73252         16.1816
5.94                    -7.53655         14.5815
5.96                    -7.28881         12.5943
5.98                    -6.89481         10.4773
6                       -6.24607         5.95915
6.02                    -5.86412        -3.40254
6.04                    -6.53104        -15.3081
6.06                     -8.6249        -22.4123
6.08                    -10.9599        -13.5958
6.1                     -10.5369          1.5854
6.12                    -9.17641         4.60454
6.14                    -8.35964         3.85247
6.16                    -7.52246         2.45954
6.18                    -6.77973        -1.90366
6.2                     -6.49821        -6.87098
6.22                    -6.27444        -10.1384
6.24                    -5.90467        -14.8924
6.26                    -6.08811        -21.3134
6.28                    -6.84492        -22.0692
6.3                      -6.4058        -16.3842
6.32                    -4.76146        -19.0156
6.34                    -3.85574         -29.887
6.36                    -4.01021        -40.4668
6.38                    -4.44218        -46.8795
6.4                     -4.58713        -52.5002
6.42                    -4.86168        -59.7749
6.44                    -5.45643        -66.2558
6.46                    -6.04799         -71.711
6.48                    -6.79934        -78.1489
6.5                     -8.08129        -83.4221
