! TOUCHSTONE file generated by CST MICROWAVE STUDIO
! Date and time: Sat Oct 29 02:46:56 2022
! Project name: L.cst
! Parameters = {Di=1.27; Epsilon_r=1.56; InnerDiameter=1.27; Length=2; Lf=10; Lg=60; OuterConductorThickness=0.2921; OuterDiameter=3.6; Wf=3; Wp=41.2; de=1.5; df=6.8; g=0.8; gx=4.24949; gy=1.13318; h=2.34; hf=1.524; px=12.105; py=8.9243; w=9.7; wx=7.85548; wy=7.79112}
! Header version: 2018
! Port assignment regex: !\s*Touchstone port\s*([0-9]+)\s*=\s*(CST MWS port|CST DS port)\s*([0-9]+|Zmin|Zmax)\s*\(\"(.*)\"\)(\s*mode\s*([0-9]+))?.*
! Touchstone port assignment:
! Touchstone port 1 = CST MWS port 1 ("")
# GHz S DB R 50
4.5                    -0.610057         76.9994
4.52                    -0.65027         75.0722
4.54                   -0.691241          73.131
4.56                   -0.732534         71.1727
4.58                   -0.773813         69.1939
4.6                    -0.814834          67.191
4.62                   -0.855441         65.1601
4.64                   -0.895561         63.0977
4.66                   -0.935199         61.0002
4.68                   -0.974417          58.864
4.7                     -1.01334         56.6861
4.72                    -1.05212         54.4636
4.74                    -1.09095         52.1939
4.76                    -1.13005         49.8748
4.78                    -1.16964         47.5043
4.8                     -1.20993         45.0807
4.82                    -1.25115         42.6028
4.84                    -1.29348         40.0696
4.86                    -1.33712         37.4804
4.88                    -1.38221         34.8346
4.9                     -1.42888          32.132
4.92                    -1.47722         29.3727
4.94                    -1.52729         26.5566
4.96                    -1.57909         23.6843
4.98                    -1.63263         20.7562
5                       -1.68785         17.7729
5.02                    -1.74466         14.7353
5.04                    -1.80293         11.6442
5.06                    -1.86251         8.50094
5.08                    -1.92322         5.30659
5.1                     -1.98483         2.06262
5.12                    -2.04711        -1.22943
5.14                    -2.10978        -4.56783
5.16                    -2.17257        -7.95066
5.18                    -2.23518        -11.3758
5.2                     -2.29728        -14.8411
5.22                    -2.35857        -18.3439
5.24                    -2.41871        -21.8817
5.26                     -2.4774        -25.4513
5.28                    -2.53431          -29.05
5.3                     -2.58915        -32.6743
5.32                    -2.64164        -36.3207
5.34                    -2.69152        -39.9856
5.36                    -2.73855        -43.6651
5.38                    -2.78252        -47.3552
5.4                     -2.82328         -51.052
5.42                    -2.86068        -54.7511
5.44                    -2.89463        -58.4485
5.46                    -2.92507        -62.1398
5.48                    -2.95199        -65.8208
5.5                      -2.9754        -69.4873
5.52                    -2.99536        -73.1352
5.54                    -3.01197        -76.7606
5.56                    -3.02536        -80.3596
5.58                    -3.03566        -83.9284
5.6                     -3.04306        -87.4638
5.62                    -3.04776        -90.9622
5.64                    -3.04996        -94.4209
5.66                    -3.04988        -97.8368
5.68                    -3.04775        -101.208
5.7                     -3.04378        -104.531
5.72                     -3.0382        -107.804
5.74                    -3.03121        -111.027
5.76                    -3.02302        -114.196
5.78                    -3.01381        -117.312
5.8                     -3.00373        -120.372
5.82                    -2.99295        -123.376
5.84                    -2.98158        -126.324
5.86                    -2.96972        -129.215
5.88                    -2.95746        -132.049
5.9                     -2.94485        -134.827
5.92                    -2.93193        -137.548
5.94                    -2.91873        -140.214
5.96                    -2.90524        -142.825
5.98                    -2.89145        -145.382
6                       -2.87735        -147.886
6.02                    -2.86291         -150.34
6.04                    -2.84809        -152.744
6.06                    -2.83287        -155.101
6.08                    -2.81724        -157.412
6.1                     -2.80118        -159.681
6.12                     -2.7847        -161.908
6.14                    -2.76783        -164.097
6.16                    -2.75065         -166.25
6.18                    -2.73322         -168.37
6.2                     -2.71568        -170.459
6.22                    -2.69818        -172.519
6.24                    -2.68093        -174.554
6.26                    -2.66415        -176.565
6.28                    -2.64811        -178.555
6.3                     -2.63312         179.476
6.32                    -2.61953         177.524
6.34                    -2.60768          175.59
6.36                    -2.59797         173.673
6.38                    -2.59078         171.772
6.4                      -2.5865         169.888
6.42                    -2.58551         168.022
6.44                    -2.58817         166.175
6.46                    -2.59476          164.35
6.48                    -2.60555         162.549
6.5                     -2.62068         160.775
