! TOUCHSTONE file generated by CST MICROWAVE STUDIO
! Date and time: Sat Oct 29 14:19:50 2022
! Project name: L.cst
! Parameters = {Di=1.27; Epsilon_r=1.56; InnerDiameter=1.27; Length=2; Lf=10; Lg=60; OuterConductorThickness=0.2921; OuterDiameter=3.6; Wf=3; Wp=41.2; de=1.5; df=6.8; g=0.8; gx=3.49092; gy=1.39626; h=2.34; hf=1.524; px=8.01644; py=9.84332; w=9.7; wx=4.52551; wy=8.44706}
! Header version: 2018
! Port assignment regex: !\s*Touchstone port\s*([0-9]+)\s*=\s*(CST MWS port|CST DS port)\s*([0-9]+|Zmin|Zmax)\s*\(\"(.*)\"\)(\s*mode\s*([0-9]+))?.*
! Touchstone port assignment:
! Touchstone port 1 = CST MWS port 1 ("")
# GHz S DB R 50
4.5                    -0.360407         80.3451
4.52                   -0.368924         78.8215
4.54                    -0.37773         77.2825
4.56                   -0.386857          75.728
4.58                   -0.396319         74.1582
4.6                    -0.406125         72.5729
4.62                   -0.416278         70.9721
4.64                   -0.426773         69.3557
4.66                   -0.437601         67.7237
4.68                   -0.448749          66.076
4.7                    -0.460203         64.4124
4.72                   -0.471945         62.7326
4.74                   -0.483957         61.0366
4.76                   -0.496221         59.3241
4.78                    -0.50872         57.5949
4.8                    -0.521436         55.8486
4.82                   -0.534356          54.085
4.84                   -0.547465         52.3039
4.86                    -0.56075         50.5049
4.88                   -0.574203         48.6878
4.9                    -0.587815         46.8522
4.92                   -0.601578         44.9979
4.94                   -0.615488         43.1247
4.96                   -0.629542         41.2322
4.98                   -0.643736         39.3203
5                      -0.658068         37.3886
5.02                   -0.672539         35.4371
5.04                   -0.687147         33.4655
5.06                   -0.701892         31.4737
5.08                   -0.716773         29.4615
5.1                    -0.731791         27.4289
5.12                   -0.746943         25.3757
5.14                   -0.762227         23.3019
5.16                   -0.777641         21.2076
5.18                   -0.793179         19.0927
5.2                    -0.808837         16.9572
5.22                   -0.824607         14.8013
5.24                   -0.840481          12.625
5.26                   -0.856449         10.4285
5.28                     -0.8725         8.21192
5.3                    -0.888621         5.97545
5.32                   -0.904799         3.71932
5.34                   -0.921016         1.44379
5.36                   -0.937257       -0.850857
5.38                   -0.953503        -3.16431
5.4                    -0.969735        -5.49622
5.42                   -0.985934        -7.84621
5.44                    -1.00208        -10.2139
5.46                    -1.01815        -12.5988
5.48                    -1.03412        -15.0006
5.5                     -1.04997        -17.4186
5.52                    -1.06568        -19.8525
5.54                    -1.08123        -22.3016
5.56                    -1.09659        -24.7654
5.58                    -1.11176        -27.2433
5.6                      -1.1267        -29.7348
5.62                     -1.1414         -32.239
5.64                    -1.15585        -34.7555
5.66                    -1.17003        -37.2834
5.68                    -1.18392        -39.8222
5.7                     -1.19751        -42.3711
5.72                     -1.2108        -44.9293
5.74                    -1.22378        -47.4962
5.76                    -1.23644        -50.0708
5.78                    -1.24878        -52.6526
5.8                     -1.26079        -55.2407
5.82                    -1.27248        -57.8343
5.84                    -1.28386        -60.4326
5.86                    -1.29492        -63.0348
5.88                    -1.30568        -65.6402
5.9                     -1.31614         -68.248
5.92                    -1.32632        -70.8574
5.94                    -1.33623        -73.4675
5.96                    -1.34588        -76.0778
5.98                    -1.35529        -78.6873
6                       -1.36447        -81.2955
6.02                    -1.37346        -83.9016
6.04                    -1.38225        -86.5049
6.06                    -1.39088        -89.1049
6.08                    -1.39937        -91.7008
6.1                     -1.40773        -94.2922
6.12                    -1.41599        -96.8785
6.14                    -1.42417        -99.4592
6.16                     -1.4323        -102.034
6.18                    -1.44039        -104.602
6.2                     -1.44847        -107.164
6.22                    -1.45657        -109.718
6.24                    -1.46471        -112.266
6.26                    -1.47292        -114.806
6.28                    -1.48124        -117.338
6.3                     -1.48969        -119.863
6.32                    -1.49832        -122.381
6.34                    -1.50716        -124.891
6.36                    -1.51627        -127.394
6.38                    -1.52569         -129.89
6.4                     -1.53549        -132.379
6.42                    -1.54574        -134.862
6.44                    -1.55651        -137.339
6.46                     -1.5679         -139.81
6.48                       -1.58        -142.276
6.5                     -1.59293        -144.737
