! TOUCHSTONE file generated by CST MICROWAVE STUDIO
! Date and time: Sun Oct 30 00:48:13 2022
! Project name: L.cst
! Parameters = {Di=1.27; Epsilon_r=1.56; InnerDiameter=1.27; Length=2; Lf=10; Lg=60; OuterConductorThickness=0.2921; OuterDiameter=3.6; Wf=3; Wp=41.2; de=1.5; df=6.8; g=0.8; gx=4.8623; gy=3.11463; h=2.34; hf=1.524; px=13.5585; py=8.98869; w=9.7; wx=8.69625; wy=5.87406}
! Header version: 2018
! Port assignment regex: !\s*Touchstone port\s*([0-9]+)\s*=\s*(CST MWS port|CST DS port)\s*([0-9]+|Zmin|Zmax)\s*\(\"(.*)\"\)(\s*mode\s*([0-9]+))?.*
! Touchstone port assignment:
! Touchstone port 1 = CST MWS port 1 ("")
# GHz S DB R 50
4.5                    -0.481771         92.3741
4.52                   -0.498825         90.7862
4.54                   -0.517194         89.1801
4.56                   -0.536823          87.556
4.58                   -0.557643         85.9142
4.6                    -0.579582         84.2545
4.62                   -0.602566         82.5769
4.64                   -0.626523          80.881
4.66                   -0.651383         79.1663
4.68                    -0.67709         77.4323
4.7                    -0.703591         75.6783
4.72                    -0.73085         73.9037
4.74                   -0.758836         72.1076
4.76                   -0.787537         70.2894
4.78                   -0.816947          68.448
4.8                    -0.847073         66.5827
4.82                   -0.877935         64.6928
4.84                   -0.909557         62.7773
4.86                   -0.941976         60.8356
4.88                   -0.975231          58.867
4.9                     -1.00937         56.8708
4.92                    -1.04444         54.8463
4.94                     -1.0805         52.7931
4.96                    -1.11759         50.7107
4.98                    -1.15578         48.5986
5                        -1.1951         46.4566
5.02                    -1.23561         44.2843
5.04                    -1.27734         42.0815
5.06                    -1.32034         39.8481
5.08                    -1.36463          37.584
5.1                     -1.41025         35.2892
5.12                    -1.45719         32.9637
5.14                    -1.50547         30.6077
5.16                    -1.55509         28.2213
5.18                    -1.60604         25.8047
5.2                     -1.65831         23.3582
5.22                    -1.71185         20.8822
5.24                    -1.76664         18.3771
5.26                    -1.82262         15.8434
5.28                    -1.87975         13.2814
5.3                     -1.93797         10.6919
5.32                    -1.99719         8.07549
5.34                    -2.05735         5.43285
5.36                    -2.11836         2.76476
5.38                    -2.18012        0.072064
5.4                     -2.24254        -2.64433
5.42                    -2.30551        -5.38344
5.44                    -2.36893        -8.14422
5.46                    -2.43269        -10.9255
5.48                    -2.49668        -13.7262
5.5                     -2.56077         -16.545
5.52                    -2.62486        -19.3804
5.54                    -2.68883        -22.2312
5.56                    -2.75256        -25.0957
5.58                    -2.81594        -27.9725
5.6                     -2.87886        -30.8599
5.62                    -2.94121        -33.7561
5.64                    -3.00289        -36.6595
5.66                    -3.06381        -39.5681
5.68                    -3.12386        -42.4801
5.7                     -3.18298        -45.3935
5.72                    -3.24107        -48.3065
5.74                    -3.29806         -51.217
5.76                    -3.35388        -54.1229
5.78                    -3.40849        -57.0223
5.8                     -3.46183        -59.9132
5.82                    -3.51385        -62.7935
5.84                    -3.56451        -65.6613
5.86                    -3.61379        -68.5145
5.88                    -3.66166        -71.3513
5.9                     -3.70809        -74.1699
5.92                    -3.75306        -76.9685
5.94                    -3.79658        -79.7453
5.96                    -3.83862        -82.4988
5.98                    -3.87917        -85.2274
6                       -3.91825        -87.9299
6.02                    -3.95583         -90.605
6.04                    -3.99193        -93.2514
6.06                    -4.02655        -95.8684
6.08                    -4.05969        -98.4551
6.1                     -4.09136        -101.011
6.12                    -4.12157        -103.535
6.14                    -4.15035        -106.027
6.16                    -4.17772        -108.488
6.18                    -4.20371        -110.916
6.2                     -4.22836        -113.313
6.22                    -4.25174        -115.678
6.24                     -4.2739        -118.012
6.26                    -4.29494        -120.316
6.28                    -4.31497        -122.589
6.3                      -4.3341        -124.834
6.32                    -4.35248         -127.05
6.34                    -4.37028        -129.239
6.36                    -4.38769        -131.401
6.38                    -4.40494        -133.536
6.4                     -4.42226        -135.646
6.42                     -4.4399        -137.731
6.44                    -4.45814        -139.791
6.46                    -4.47728        -141.827
6.48                    -4.49761        -143.837
6.5                     -4.51943        -145.821
