! TOUCHSTONE file generated by CST MICROWAVE STUDIO
! Date and time: Thu Oct 27 23:54:09 2022
! Project name: L.cst
! Parameters = {Di=1.27; Epsilon_r=1.56; InnerDiameter=1.27; Length=2; Lf=10; Lg=60; OuterConductorThickness=0.2921; OuterDiameter=3.6; Wf=3; Wp=41.2; de=1.5; df=6.8; g=0.8; gx=1.77197; gy=3.60639; h=2.34; hf=1.524; px=13.8922; py=8.43499; w=9.7; wx=12.1202; wy=4.8286}
! Header version: 2018
! Port assignment regex: !\s*Touchstone port\s*([0-9]+)\s*=\s*(CST MWS port|CST DS port)\s*([0-9]+|Zmin|Zmax)\s*\(\"(.*)\"\)(\s*mode\s*([0-9]+))?.*
! Touchstone port assignment:
! Touchstone port 1 = CST MWS port 1 ("")
# GHz S DB R 50
4.5                      -2.1218         73.2176
4.52                    -2.28062         71.0249
4.54                     -2.4265         68.8782
4.56                    -2.59569         66.5636
4.58                    -2.77833         64.3754
4.6                     -2.95995         62.0477
4.62                    -3.17521         59.7396
4.64                    -3.38557         57.4498
4.66                    -3.62355         55.0443
4.68                    -3.87645         52.7491
4.7                     -4.13789         50.3426
4.72                    -4.43375         47.9839
4.74                     -4.7326         45.6467
4.76                    -5.06454         43.2462
4.78                    -5.41535         40.9709
4.8                     -5.78379         38.6295
4.82                    -6.19016         36.3887
4.84                    -6.60731         34.2057
4.86                    -7.06476         32.0395
4.88                    -7.54532         30.0607
4.9                     -8.05275         28.0977
4.92                    -8.60232         26.3499
4.94                    -9.16809         24.7548
4.96                    -9.78115         23.3321
4.98                    -10.4157         22.2551
5                       -11.0812         21.3679
5.02                    -11.7822         20.9528
5.04                    -12.4869         20.9039
5.06                    -13.2241         21.3509
5.08                    -13.9404         22.4447
5.1                     -14.6458         24.0149
5.12                     -15.306         26.3897
5.14                     -15.875         29.2045
5.16                    -16.3634         32.5777
5.18                    -16.6913         36.2079
5.2                     -16.9061         39.7152
5.22                      -16.97          43.082
5.24                    -16.9247         45.6708
5.26                    -16.8139         47.7006
5.28                    -16.6342         48.7793
5.3                     -16.4736         48.9992
5.32                    -16.3073         48.4446
5.34                    -16.1999         46.8871
5.36                    -16.1643         44.6764
5.38                    -16.2074         41.4935
5.4                     -16.4009         37.4925
5.42                    -16.7328         32.6083
5.44                    -17.2989          26.489
5.46                    -18.1689         19.2306
5.48                    -19.4525         9.97947
5.5                     -21.4455        -2.22907
5.52                     -24.489        -20.5935
5.54                    -28.7974        -59.0638
5.56                    -28.5962         -129.46
5.58                    -23.5574        -169.544
5.6                     -19.7973         169.317
5.62                    -17.2843         153.804
5.64                    -15.5447         140.855
5.66                    -14.3523         129.046
5.68                    -13.6013         118.238
5.7                      -13.154         108.127
5.72                    -13.0029         98.2829
5.74                    -13.1196         88.7987
5.76                    -13.4877         79.0698
5.78                    -14.2135         68.7813
5.8                     -15.3459         57.4058
5.82                    -17.1181         42.8984
5.84                    -19.9273         21.3063
5.86                     -23.229        -22.5939
5.88                    -21.0478        -87.9665
5.9                     -15.7516        -124.333
5.92                    -11.5267        -146.152
5.94                    -8.32373        -164.372
5.96                    -5.92776         178.695
5.98                    -4.14413         162.406
6                       -2.93401          146.63
6.02                    -2.21165         132.298
6.04                    -1.76921         119.578
6.06                    -1.53501         107.992
6.08                     -1.4569          97.666
6.1                     -1.44919         88.2249
6.12                    -1.52675         79.4347
6.14                    -1.63567         71.2877
6.16                    -1.78089         63.2865
6.18                    -1.96808         55.5977
6.2                     -2.14283         47.5989
6.22                     -2.4276          38.937
6.24                     -2.7845         29.8362
6.26                    -3.25474         18.9185
6.28                    -4.03647          5.7776
6.3                     -5.15668        -11.5465
6.32                    -7.05398        -38.8204
6.34                    -9.70457        -87.1275
6.36                    -8.81992        -159.041
6.38                    -5.00374         148.297
6.4                     -2.77165         114.688
6.42                    -1.75345         93.1869
6.44                    -1.07274         76.9051
6.46                   -0.994506         63.7164
6.48                   -0.833308         55.3623
6.5                    -0.618289          44.798
