! TOUCHSTONE file generated by CST MICROWAVE STUDIO
! Date and time: Sun Oct 30 01:20:00 2022
! Project name: L.cst
! Parameters = {Di=1.27; Epsilon_r=1.56; InnerDiameter=1.27; Length=2; Lf=10; Lg=60; OuterConductorThickness=0.2921; OuterDiameter=3.6; Wf=3; Wp=41.2; de=1.5; df=6.8; g=0.8; gx=2.98016; gy=1.4181; h=2.34; hf=1.524; px=9.64725; py=14.1383; w=9.7; wx=6.66709; wy=12.7202}
! Header version: 2018
! Port assignment regex: !\s*Touchstone port\s*([0-9]+)\s*=\s*(CST MWS port|CST DS port)\s*([0-9]+|Zmin|Zmax)\s*\(\"(.*)\"\)(\s*mode\s*([0-9]+))?.*
! Touchstone port assignment:
! Touchstone port 1 = CST MWS port 1 ("")
# GHz S DB R 50
4.5                    -0.707733         69.6942
4.52                   -0.727806         67.8472
4.54                    -0.75008         65.9665
4.56                   -0.775115         64.0493
4.58                   -0.802077         62.0873
4.6                    -0.831237          60.071
4.62                   -0.862055         57.9994
4.64                   -0.893372         55.8644
4.66                   -0.925364         53.6614
4.68                   -0.956962         51.3913
4.7                    -0.987664         49.0456
4.72                    -1.01774          46.625
4.74                    -1.04628         44.1251
4.76                    -1.07386         41.5379
4.78                    -1.10046         38.8609
4.8                     -1.12589         36.0803
4.82                    -1.15114         33.1845
4.84                    -1.17605           30.16
4.86                    -1.20116         26.9841
4.88                    -1.22718         23.6361
4.9                     -1.25439         20.0884
4.92                    -1.28396         16.3089
4.94                    -1.31716         12.2643
4.96                    -1.35564         7.91456
4.98                    -1.40219         3.21623
5                       -1.46032        -1.87734
5.02                    -1.53482        -7.41918
5.04                    -1.63222        -13.4673
5.06                    -1.76115        -20.0851
5.08                    -1.93278        -27.3429
5.1                     -2.16227        -35.3174
5.12                    -2.46939         -44.082
5.14                    -2.87904        -53.7048
5.16                    -3.42299        -64.2262
5.18                    -4.13681        -75.6332
5.2                     -5.05731        -87.8441
5.22                    -6.21628        -100.677
5.24                    -7.63045        -113.857
5.26                    -9.29632        -127.031
5.28                    -11.1852        -139.752
5.3                     -13.2365        -151.426
5.32                    -15.3449         -161.22
5.34                      -17.32        -167.999
5.36                    -18.8183        -170.814
5.38                    -19.3947        -170.386
5.4                      -18.864        -169.779
5.42                    -17.5334        -171.796
5.44                    -15.8547        -176.878
5.46                    -14.1117         175.784
5.48                    -12.4334             167
5.5                     -10.8719         157.306
5.52                    -9.44328             147
5.54                    -8.15225         136.219
5.56                    -6.99929         125.015
5.58                    -5.98252         113.383
5.6                     -5.10093         101.259
5.62                    -4.35414         88.5331
5.64                    -3.74188         75.0146
5.66                    -3.26619         60.3944
5.68                    -2.93199         44.1741
5.7                     -2.75247         25.4947
5.72                    -2.79317         2.82579
5.74                     -3.3676        -25.3479
5.76                    -4.44474        -56.0002
5.78                    -4.92122        -91.1784
5.8                     -4.67614        -131.207
5.82                    -3.89499        -169.551
5.84                    -3.00481         157.996
5.86                    -2.28123         131.606
5.88                    -1.76908         109.917
5.9                     -1.42557          91.498
5.92                    -1.20314         75.1236
5.94                    -1.07605         59.5835
5.96                    -1.08095         42.8294
5.98                     -1.8878          16.621
6                       -8.57158         81.7784
6.02                    -1.78614         42.4046
6.04                    -1.30145         24.8381
6.06                    -1.21133         11.6289
6.08                    -1.23255       -0.519316
6.1                     -1.31654        -12.7456
6.12                    -1.45254         -25.813
6.14                    -1.64138          -40.55
6.16                    -1.89133        -58.1726
6.18                    -2.22127        -80.8694
6.2                     -2.66499        -113.513
6.22                      -3.178        -169.654
6.24                    -2.50044         82.8832
6.26                    -1.02635        -30.0636
6.28                   -0.735485         -99.954
6.3                    -0.543025        -150.421
6.32                   -0.379882         168.727
6.34                   -0.322617         135.498
6.36                   -0.362369         108.834
6.38                   -0.452954         87.4613
6.4                    -0.558341         70.1338
6.42                   -0.661297         55.8457
6.44                   -0.756414         43.8482
6.46                   -0.845344         33.5933
6.48                   -0.932135         24.6819
6.5                     -1.02078           16.81
