! TOUCHSTONE file generated by CST MICROWAVE STUDIO
! Date and time: Thu Oct 27 07:00:53 2022
! Project name: L.cst
! Parameters = {Di=1.27; Epsilon_r=1.56; InnerDiameter=1.27; Length=2; Lf=10; Lg=60; OuterConductorThickness=0.2921; OuterDiameter=3.6; Wf=3; Wp=41.2; de=1.5; df=6.8; g=0.8; gx=2.80503; gy=3.01787; h=2.34; hf=1.524; px=14.6443; py=12.8801; w=9.7; wx=11.8393; wy=9.86222}
! Header version: 2018
! Port assignment regex: !\s*Touchstone port\s*([0-9]+)\s*=\s*(CST MWS port|CST DS port)\s*([0-9]+|Zmin|Zmax)\s*\(\"(.*)\"\)(\s*mode\s*([0-9]+))?.*
! Touchstone port assignment:
! Touchstone port 1 = CST MWS port 1 ("")
# GHz S DB R 50
4.5                     -1.99403         73.7193
4.52                    -2.12574         71.5672
4.54                    -2.25835         69.5874
4.56                    -2.41624         67.4121
4.58                    -2.56275         65.3362
4.6                     -2.74432         63.1568
4.62                    -2.91224         60.9798
4.64                    -3.11586         58.8034
4.66                    -3.31165         56.5386
4.68                    -3.53757         54.3575
4.7                     -3.76655         52.0364
4.72                    -4.01647         49.8368
4.74                    -4.28303         47.4967
4.76                    -4.56029          45.272
4.78                    -4.86727          42.947
4.8                     -5.17772         40.7033
4.82                    -5.52611          38.427
4.84                    -5.87686         36.1804
4.86                    -6.26743          33.986
4.88                    -6.66543         31.7659
4.9                     -7.10007         29.6821
4.92                    -7.55152         27.5401
4.94                    -8.03264         25.5909
4.96                    -8.54328         23.5955
4.98                    -9.07392         21.8112
5                       -9.64799         20.0384
5.02                    -10.2334         18.4636
5.04                    -10.8724         16.9992
5.06                    -11.5199         15.6936
5.08                    -12.2228          14.634
5.1                     -12.9402         13.6746
5.12                     -13.706         13.1123
5.14                    -14.5011         12.6126
5.16                    -15.3301         12.6213
5.18                    -16.2123         12.7311
5.2                     -17.1117          13.364
5.22                    -18.0997         14.2593
5.24                    -19.1025         15.6078
5.26                    -20.2409         17.5663
5.28                    -21.4433         19.9829
5.3                      -22.845         23.8264
5.32                    -24.4578          28.954
5.34                    -26.2984          38.174
5.36                    -28.3004         53.5819
5.38                    -29.2045         78.6969
5.4                     -27.9454         105.534
5.42                    -25.2761          121.17
5.44                     -22.583         128.175
5.46                    -20.3605         129.277
5.48                    -18.5158         127.439
5.5                     -17.1533         123.729
5.52                    -16.1263         119.021
5.54                    -15.4985         114.161
5.56                    -15.1554         109.364
5.58                    -15.1226         105.585
5.6                      -15.316         102.747
5.62                    -15.6967         102.106
5.64                     -16.175         103.635
5.66                    -16.4905         108.561
5.68                    -16.4416         115.977
5.7                     -15.6519          123.96
5.72                    -14.3373         130.008
5.74                    -12.6971         132.174
5.76                    -11.0477         131.486
5.78                    -9.51816         127.831
5.8                     -8.05341          121.97
5.82                    -7.12642         112.729
5.84                    -6.70199         105.679
5.86                    -6.20021         99.1317
5.88                    -5.79341         92.0237
5.9                     -5.53947         84.4332
5.92                    -5.41315         76.6058
5.94                    -5.47978         68.3125
5.96                    -5.71184         59.3997
5.98                     -6.2956         49.4863
6                       -7.38866         37.6752
6.02                    -9.87565          23.409
6.04                    -16.8685         7.27102
6.06                    -18.1979         142.223
6.08                    -8.58766         122.466
6.1                      -5.4559         101.257
6.12                    -4.34957         85.4077
6.14                    -3.80227         73.0332
6.16                    -3.70435         63.5174
6.18                    -3.57941         54.3555
6.2                     -3.80021         47.3501
6.22                     -4.1694         36.2118
6.24                    -6.40241         41.7157
6.26                     -3.6736         45.8102
6.28                    -3.44913         31.4729
6.3                     -3.45911         26.3657
6.32                     -3.7105          18.843
6.34                    -3.69931         14.0137
6.36                    -4.02561         7.83665
6.38                    -4.04858         2.56471
6.4                     -4.44633        -2.96966
6.42                    -4.56913        -8.81068
6.44                    -5.07182         -13.845
6.46                    -5.39889        -20.0605
6.48                      -6.091         -24.042
6.5                     -6.77144        -29.0463
