! TOUCHSTONE file generated by CST MICROWAVE STUDIO
! Date and time: Fri Oct 28 18:54:45 2022
! Project name: L.cst
! Parameters = {Di=1.27; Epsilon_r=1.56; InnerDiameter=1.27; Length=2; Lf=10; Lg=60; OuterConductorThickness=0.2921; OuterDiameter=3.6; Wf=3; Wp=41.2; de=1.5; df=6.8; g=0.8; gx=3.24341; gy=3.1926; h=2.34; hf=1.524; px=10.5802; py=12.8649; w=9.7; wx=7.33675; wy=9.6723}
! Header version: 2018
! Port assignment regex: !\s*Touchstone port\s*([0-9]+)\s*=\s*(CST MWS port|CST DS port)\s*([0-9]+|Zmin|Zmax)\s*\(\"(.*)\"\)(\s*mode\s*([0-9]+))?.*
! Touchstone port assignment:
! Touchstone port 1 = CST MWS port 1 ("")
# GHz S DB R 50
4.5                    -0.431606         89.5727
4.52                   -0.449427         88.1153
4.54                    -0.46639         86.6502
4.56                   -0.482418         85.1745
4.58                    -0.49753         83.6855
4.6                    -0.511831         82.1809
4.62                   -0.525485         80.6586
4.64                   -0.538705          79.117
4.66                   -0.551724          77.555
4.68                   -0.564781         75.9718
4.7                    -0.578107         74.3671
4.72                   -0.591912         72.7408
4.74                   -0.606372         71.0933
4.76                   -0.621625         69.4251
4.78                    -0.63777         67.7366
4.8                    -0.654865         66.0285
4.82                   -0.672928         64.3015
4.84                   -0.691943         62.5561
4.86                   -0.711863         60.7927
4.88                   -0.732621         59.0116
4.9                     -0.75413         57.2129
4.92                   -0.776299         55.3965
4.94                   -0.799031         53.5622
4.96                   -0.822237         51.7095
4.98                   -0.845833         49.8379
5                      -0.869751         47.9468
5.02                   -0.893942         46.0352
5.04                   -0.918372         44.1025
5.06                   -0.943029         42.1478
5.08                   -0.967919         40.1701
5.1                    -0.993067         38.1688
5.12                    -1.01851          36.143
5.14                     -1.0443         34.0922
5.16                     -1.0705         32.0157
5.18                    -1.09717         29.9132
5.2                     -1.12438         27.7843
5.22                    -1.15219         25.6288
5.24                    -1.18066         23.4465
5.26                    -1.20984         21.2376
5.28                    -1.23977         19.0019
5.3                     -1.27047         16.7397
5.32                    -1.30195          14.451
5.34                    -1.33422         12.1362
5.36                    -1.36724         9.79536
5.38                      -1.401         7.42866
5.4                     -1.43545         5.03626
5.42                    -1.47053         2.61826
5.44                     -1.5062        0.174712
5.46                    -1.54239        -2.29441
5.48                    -1.57903        -4.78918
5.5                     -1.61607        -7.30974
5.52                    -1.65345         -9.8563
5.54                    -1.69112        -12.4291
5.56                    -1.72904        -15.0284
5.58                    -1.76719        -17.6545
5.6                     -1.80555        -20.3077
5.62                    -1.84413        -22.9882
5.64                    -1.88293        -25.6964
5.66                    -1.92199        -28.4324
5.68                    -1.96135        -31.1963
5.7                     -2.00107         -33.988
5.72                    -2.04119        -36.8075
5.74                    -2.08179        -39.6545
5.76                    -2.12292        -42.5287
5.78                    -2.16465        -45.4297
5.8                     -2.20703        -48.3569
5.82                    -2.25011        -51.3096
5.84                    -2.29389        -54.2871
5.86                     -2.3384        -57.2887
5.88                     -2.3836        -60.3136
5.9                     -2.42946        -63.3613
5.92                    -2.47591        -66.4311
5.94                    -2.52284        -69.5227
5.96                    -2.57015        -72.6361
5.98                     -2.6177        -75.7714
6                       -2.66533        -78.9294
6.02                    -2.71289        -82.1111
6.04                    -2.76024        -85.3183
6.06                    -2.80724        -88.5532
6.08                    -2.85382        -91.8188
6.1                     -2.89995        -95.1187
6.12                    -2.94568        -98.4573
6.14                    -2.99116         -101.84
6.16                    -3.03666        -105.272
6.18                    -3.08262         -108.76
6.2                     -3.12962        -112.311
6.22                    -3.17844        -115.932
6.24                    -3.23008        -119.631
6.26                    -3.28575        -123.417
6.28                    -3.34691        -127.296
6.3                     -3.41527        -131.279
6.32                    -3.49281        -135.371
6.34                    -3.58177        -139.582
6.36                    -3.68471        -143.919
6.38                    -3.80449        -148.389
6.4                     -3.94432        -152.999
6.42                    -4.10778        -157.757
6.44                    -4.29891        -162.669
6.46                    -4.52226        -167.744
6.48                    -4.78301        -172.987
6.5                     -5.08714        -178.408
