! TOUCHSTONE file generated by CST MICROWAVE STUDIO
! Date and time: Sat Oct 29 03:14:12 2022
! Project name: L.cst
! Parameters = {Di=1.27; Epsilon_r=1.56; InnerDiameter=1.27; Length=2; Lf=10; Lg=60; OuterConductorThickness=0.2921; OuterDiameter=3.6; Wf=3; Wp=41.2; de=1.5; df=6.8; g=0.8; gx=2.39641; gy=4.52719; h=2.34; hf=1.524; px=11.6287; py=8.97197; w=9.7; wx=9.2323; wy=4.44478}
! Header version: 2018
! Port assignment regex: !\s*Touchstone port\s*([0-9]+)\s*=\s*(CST MWS port|CST DS port)\s*([0-9]+|Zmin|Zmax)\s*\(\"(.*)\"\)(\s*mode\s*([0-9]+))?.*
! Touchstone port assignment:
! Touchstone port 1 = CST MWS port 1 ("")
# GHz S DB R 50
4.5                    -0.471198         93.7587
4.52                   -0.486638         92.2472
4.54                   -0.502694         90.7231
4.56                   -0.519371         89.1865
4.58                   -0.536666         87.6375
4.6                    -0.554575          86.076
4.62                    -0.57309         84.5019
4.64                   -0.592205         82.9151
4.66                   -0.611912         81.3156
4.68                   -0.632202         79.7032
4.7                     -0.65307         78.0777
4.72                   -0.674514          76.439
4.74                   -0.696532         74.7867
4.76                   -0.719125         73.1209
4.78                   -0.742298         71.4412
4.8                    -0.766057         69.7474
4.82                   -0.790413         68.0393
4.84                   -0.815378         66.3168
4.86                   -0.840966         64.5796
4.88                   -0.867196         62.8277
4.9                    -0.894082         61.0608
4.92                   -0.921649         59.2789
4.94                   -0.949915         57.4818
4.96                   -0.978904         55.6695
4.98                    -1.00864         53.8419
5                       -1.03914          51.999
5.02                    -1.07043         50.1407
5.04                    -1.10253         48.2672
5.06                    -1.13547         46.3784
5.08                    -1.16926         44.4745
5.1                     -1.20393         42.5556
5.12                    -1.23949         40.6217
5.14                    -1.27595         38.6731
5.16                    -1.31334         36.7099
5.18                    -1.35167         34.7324
5.2                     -1.39094         32.7407
5.22                    -1.43117         30.7352
5.24                    -1.47237         28.7162
5.26                    -1.51454         26.6839
5.28                    -1.55768         24.6386
5.3                      -1.6018         22.5808
5.32                     -1.6469         20.5108
5.34                    -1.69297          18.429
5.36                    -1.74002         16.3359
5.38                    -1.78803         14.2318
5.4                     -1.83701         12.1173
5.42                    -1.88695         9.99289
5.44                    -1.93783         7.85901
5.46                    -1.98964         5.71623
5.48                    -2.04239         3.56511
5.5                     -2.09605         1.40623
5.52                    -2.15061       -0.759816
5.54                    -2.20606         -2.9324
5.56                    -2.26238        -5.11088
5.58                    -2.31956        -7.29458
5.6                     -2.37759        -9.48283
5.62                    -2.43645        -11.6749
5.64                    -2.49612        -13.8701
5.66                    -2.55658        -16.0677
5.68                    -2.61783        -18.2668
5.7                     -2.67984        -20.4668
5.72                     -2.7426        -22.6668
5.74                    -2.80609        -24.8659
5.76                    -2.87029        -27.0634
5.78                    -2.93518        -29.2585
5.8                     -3.00075        -31.4502
5.82                    -3.06697        -33.6377
5.84                    -3.13383        -35.8201
5.86                    -3.20131        -37.9965
5.88                    -3.26939        -40.1661
5.9                     -3.33804        -42.3279
5.92                    -3.40724         -44.481
5.94                    -3.47697        -46.6246
5.96                    -3.54721        -48.7577
5.98                    -3.61793        -50.8795
6                       -3.68911        -52.9891
6.02                    -3.76072        -55.0857
6.04                    -3.83272        -57.1683
6.06                    -3.90511        -59.2363
6.08                    -3.97783        -61.2887
6.1                     -4.05088        -63.3248
6.12                    -4.12421        -65.3439
6.14                     -4.1978        -67.3452
6.16                    -4.27162        -69.3281
6.18                    -4.34564        -71.2919
6.2                     -4.41984         -73.236
6.22                    -4.49419        -75.1598
6.24                    -4.56867        -77.0627
6.26                    -4.64326        -78.9442
6.28                    -4.71796        -80.8038
6.3                     -4.79274         -82.641
6.32                     -4.8676        -84.4555
6.34                    -4.94255        -86.2466
6.36                    -5.01759        -88.0139
6.38                    -5.09272         -89.757
6.4                     -5.16796        -91.4754
6.42                    -5.24333        -93.1685
6.44                    -5.31886        -94.8358
6.46                    -5.39456        -96.4765
6.48                    -5.47046        -98.0899
6.5                     -5.54657        -99.6753
