! TOUCHSTONE file generated by CST MICROWAVE STUDIO
! Date and time: Sat Oct 29 15:40:04 2022
! Project name: L.cst
! Parameters = {Di=1.27; Epsilon_r=1.56; InnerDiameter=1.27; Length=2; Lf=10; Lg=60; OuterConductorThickness=0.2921; OuterDiameter=3.6; Wf=3; Wp=41.2; de=1.5; df=6.8; g=0.8; gx=4.41966; gy=3.6058; h=2.34; hf=1.524; px=13.8001; py=8.13749; w=9.7; wx=9.38042; wy=4.53169}
! Header version: 2018
! Port assignment regex: !\s*Touchstone port\s*([0-9]+)\s*=\s*(CST MWS port|CST DS port)\s*([0-9]+|Zmin|Zmax)\s*\(\"(.*)\"\)(\s*mode\s*([0-9]+))?.*
! Touchstone port assignment:
! Touchstone port 1 = CST MWS port 1 ("")
# GHz S DB R 50
4.5                    -0.520188         91.3661
4.52                   -0.539151         89.7396
4.54                   -0.559352         88.0958
4.56                   -0.580744          86.435
4.58                   -0.603277         84.7571
4.6                    -0.626892         83.0622
4.62                   -0.651534         81.3501
4.64                   -0.677149         79.6205
4.66                   -0.703688         77.8729
4.68                   -0.731109          76.107
4.7                     -0.75938         74.3222
4.72                   -0.788478         72.5179
4.74                   -0.818388         70.6935
4.76                   -0.849106         68.8484
4.78                    -0.88064         66.9818
4.8                    -0.913004         65.0933
4.82                   -0.946221         63.1821
4.84                   -0.980321         61.2476
4.86                    -1.01534         59.2894
4.88                    -1.05133         57.3068
4.9                     -1.08832         55.2995
4.92                    -1.12637          53.267
4.94                    -1.16553         51.2089
4.96                    -1.20584         49.1249
4.98                    -1.24736         47.0148
5                       -1.29013         44.8784
5.02                     -1.3342         42.7156
5.04                    -1.37961         40.5263
5.06                    -1.42639         38.3104
5.08                    -1.47459         36.0681
5.1                     -1.52421         33.7993
5.12                    -1.57529         31.5043
5.14                    -1.62784         29.1831
5.16                    -1.68186         26.8362
5.18                    -1.73735         24.4636
5.2                     -1.79432         22.0658
5.22                    -1.85273         19.6432
5.24                    -1.91259         17.1961
5.26                    -1.97385         14.7251
5.28                    -2.03648         12.2306
5.3                     -2.10046         9.71311
5.32                    -2.16572         7.17334
5.34                    -2.23223         4.61187
5.36                    -2.29992         2.02941
5.38                    -2.36873       -0.573329
5.4                      -2.4386        -3.19556
5.42                    -2.50946        -5.83645
5.44                    -2.58124        -8.49515
5.46                    -2.65386        -11.1707
5.48                    -2.72724        -13.8622
5.5                     -2.80131        -16.5686
5.52                    -2.87599        -19.2888
5.54                    -2.95119        -22.0217
5.56                    -3.02683        -24.7662
5.58                    -3.10284         -27.521
5.6                     -3.17913         -30.285
5.62                    -3.25563        -33.0567
5.64                    -3.33226        -35.8349
5.66                    -3.40895        -38.6182
5.68                    -3.48563        -41.4053
5.7                     -3.56224        -44.1945
5.72                    -3.63872        -46.9846
5.74                      -3.715        -49.7741
5.76                    -3.79104        -52.5613
5.78                    -3.86679        -55.3449
5.8                     -3.94221        -58.1233
5.82                    -4.01725        -60.8951
5.84                    -4.09189        -63.6587
5.86                     -4.1661        -66.4127
5.88                    -4.23987        -69.1557
5.9                     -4.31316        -71.8862
5.92                    -4.38599        -74.6029
5.94                    -4.45833        -77.3045
5.96                     -4.5302        -79.9896
5.98                     -4.6016        -82.6572
6                       -4.67255        -85.3061
6.02                    -4.74306        -87.9352
6.04                    -4.81316        -90.5435
6.06                    -4.88288        -93.1302
6.08                    -4.95227        -95.6944
6.1                     -5.02138        -98.2355
6.12                    -5.09026        -100.753
6.14                    -5.15898        -103.246
6.16                    -5.22761        -105.714
6.18                    -5.29626        -108.156
6.2                     -5.36501        -110.573
6.22                    -5.43398        -112.964
6.24                     -5.5033        -115.329
6.26                    -5.57311        -117.668
6.28                    -5.64356         -119.98
6.3                     -5.71483        -122.265
6.32                     -5.7871        -124.523
6.34                    -5.86056        -126.753
6.36                    -5.93543        -128.955
6.38                     -6.0119        -131.128
6.4                     -6.09022        -133.272
6.42                    -6.17059        -135.385
6.44                    -6.25323        -137.467
6.46                    -6.33836        -139.515
6.48                    -6.42613        -141.529
6.5                     -6.51672        -143.505
