! TOUCHSTONE file generated by CST MICROWAVE STUDIO
! Date and time: Sun Oct 30 01:12:28 2022
! Project name: L.cst
! Parameters = {Di=1.27; Epsilon_r=1.56; InnerDiameter=1.27; Length=2; Lf=10; Lg=60; OuterConductorThickness=0.2921; OuterDiameter=3.6; Wf=3; Wp=41.2; de=1.5; df=6.8; g=0.8; gx=4.71775; gy=0.619097; h=2.34; hf=1.524; px=14.0346; py=10.7788; w=9.7; wx=9.3169; wy=10.1597}
! Header version: 2018
! Port assignment regex: !\s*Touchstone port\s*([0-9]+)\s*=\s*(CST MWS port|CST DS port)\s*([0-9]+|Zmin|Zmax)\s*\(\"(.*)\"\)(\s*mode\s*([0-9]+))?.*
! Touchstone port assignment:
! Touchstone port 1 = CST MWS port 1 ("")
# GHz S DB R 50
4.5                     -1.24937         67.6049
4.52                    -1.31181           65.16
4.54                    -1.37467         62.5954
4.56                    -1.44149         59.9016
4.58                    -1.51548         57.0789
4.6                     -1.59904         54.1343
4.62                    -1.69342          51.078
4.64                     -1.7987         47.9196
4.66                    -1.91404         44.6651
4.68                      -2.038         41.3148
4.7                     -2.16895         37.8627
4.72                    -2.30551         34.2969
4.74                    -2.44677         30.6012
4.76                    -2.59249         26.7575
4.78                    -2.74305         22.7474
4.8                     -2.89931         18.5549
4.82                    -3.06235         14.1675
4.84                    -3.23313         9.57644
4.86                    -3.41227         4.77675
4.88                    -3.59975       -0.233372
4.9                     -3.79485        -5.45355
4.92                    -3.99604        -10.8821
4.94                    -4.20103        -16.5166
4.96                    -4.40689        -22.3543
4.98                    -4.61022        -28.3916
5                       -4.80732        -34.6235
5.02                    -4.99444        -41.0421
5.04                    -5.16803         -47.636
5.06                    -5.32491        -54.3882
5.08                    -5.46251        -61.2758
5.1                     -5.57901        -68.2693
5.12                    -5.67344        -75.3331
5.14                    -5.74573        -82.4266
5.16                    -5.79669         -89.506
5.18                    -5.82787        -96.5263
5.2                     -5.84139        -103.444
5.22                    -5.83977        -110.219
5.24                    -5.82567        -116.816
5.26                    -5.80177        -123.207
5.28                    -5.77055         -129.37
5.3                     -5.73431        -135.292
5.32                    -5.69507        -140.964
5.34                    -5.65464        -146.384
5.36                    -5.61466        -151.554
5.38                    -5.57659        -156.481
5.4                     -5.54173        -161.169
5.42                    -5.51117        -165.626
5.44                    -5.48567        -169.858
5.46                    -5.46558        -173.869
5.48                    -5.45069        -177.665
5.5                     -5.44021         178.751
5.52                    -5.43271         175.373
5.54                    -5.42629         172.191
5.56                    -5.41879         169.191
5.58                     -5.4081         166.357
5.6                     -5.39259         163.663
5.62                    -5.37142         161.085
5.64                     -5.3448         158.594
5.66                    -5.31407         156.166
5.68                    -5.28148         153.781
5.7                      -5.2499         151.427
5.72                    -5.22222         149.101
5.74                     -5.2009         146.808
5.76                     -5.1874          144.56
5.78                    -5.18192         142.372
5.8                     -5.18325         140.258
5.82                    -5.18893         138.227
5.84                    -5.19574         136.281
5.86                    -5.20033         134.409
5.88                    -5.20009         132.592
5.9                     -5.19379         130.804
5.92                    -5.18209         129.016
5.94                     -5.1675         127.206
5.96                    -5.15382         125.362
5.98                    -5.14518         123.488
6                        -5.1448         121.602
6.02                    -5.15365         119.737
6.04                    -5.16944         117.928
6.06                    -5.18603         116.204
6.08                     -5.1937         114.575
6.1                     -5.18056         113.015
6.12                    -5.13527         111.451
6.14                    -5.05056          109.77
6.16                    -4.92655         107.824
6.18                     -4.7726         105.463
6.2                     -4.60692         102.555
6.22                    -4.45419         99.0067
6.24                    -4.34262         94.7736
6.26                     -4.3015          89.852
6.28                       -4.36         84.2693
6.3                      -4.5474         78.0732
6.32                    -4.89469         71.3201
6.34                    -5.43751         64.0687
6.36                    -6.22114         56.3737
6.38                    -7.30932         48.2815
6.4                      -8.8018         39.8227
6.42                    -10.8747         30.9932
6.44                    -13.8957         21.6845
6.46                     -18.891         11.2783
6.48                    -32.1871          -10.61
6.5                     -23.7627        -176.972
