! TOUCHSTONE file generated by CST MICROWAVE STUDIO
! Date and time: Wed Oct 26 20:46:53 2022
! Project name: L.cst
! Parameters = {Di=1.27; Epsilon_r=1.56; InnerDiameter=1.27; Length=2; Lf=10; Lg=60; OuterConductorThickness=0.2921; OuterDiameter=3.6; Wf=3; Wp=41.2; de=1.5; df=6.8; g=0.8; gx=3.66834; gy=2.23114; h=2.34; hf=1.524; px=14.9671; py=9.10531; w=9.7; wx=11.2988; wy=6.87417}
! Header version: 2018
! Port assignment regex: !\s*Touchstone port\s*([0-9]+)\s*=\s*(CST MWS port|CST DS port)\s*([0-9]+|Zmin|Zmax)\s*\(\"(.*)\"\)(\s*mode\s*([0-9]+))?.*
! Touchstone port assignment:
! Touchstone port 1 = CST MWS port 1 ("")
# GHz S DB R 50
4.5                     -1.88824         68.2426
4.52                    -2.00126          65.762
4.54                    -2.13997         63.1499
4.56                     -2.2947         60.5904
4.58                    -2.44197         57.9829
4.6                     -2.60091         55.1966
4.62                    -2.78667         52.3669
4.64                    -2.97774         49.5535
4.66                    -3.17024         46.6042
4.68                    -3.38713         43.5155
4.7                     -3.62509         40.4222
4.72                    -3.86589          37.269
4.74                    -4.12141          33.942
4.76                    -4.40627         30.5269
4.78                    -4.70568         27.0891
4.8                     -5.01302         23.5102
4.82                    -5.34693          19.757
4.84                    -5.70876         15.9408
4.86                    -6.08135         12.0353
4.88                    -6.47098         7.91781
4.9                     -6.89357         3.63321
4.92                    -7.33775       -0.741547
4.94                    -7.79134        -5.31509
4.96                    -8.26946        -10.1702
4.98                    -8.77754        -15.2145
5                        -9.2945        -20.4478
5.02                    -9.81609        -26.0296
5.04                    -10.3579        -31.9756
5.06                     -10.908         -38.182
5.08                    -11.4379        -44.7327
5.1                     -11.9489         -51.773
5.12                     -12.446        -59.2088
5.14                    -12.8967        -66.9131
5.16                    -13.2712        -74.9747
5.18                    -13.5782        -83.3963
5.2                     -13.8168        -91.9038
5.22                    -13.9546         -100.32
5.24                    -13.9886        -108.691
5.26                    -13.9537        -116.896
5.28                    -13.8585        -124.646
5.3                     -13.6886        -131.916
5.32                    -13.4688        -138.852
5.34                    -13.2378        -145.351
5.36                    -12.9897        -151.274
5.38                    -12.7134        -156.779
5.4                     -12.4389        -162.007
5.42                    -12.1839        -166.822
5.44                    -11.9236        -171.202
5.46                    -11.6567        -175.372
5.48                    -11.4128        -179.349
5.5                     -11.1843         177.026
5.52                    -10.9428         173.638
5.54                    -10.7054         170.294
5.56                    -10.4911         167.116
5.58                    -10.2705         164.174
5.6                     -10.0315         161.219
5.62                    -9.80837         158.177
5.64                    -9.59931         155.231
5.66                    -9.37283         152.255
5.68                     -9.1552          148.98
5.7                     -8.98771         145.555
5.72                     -8.8479         142.155
5.74                     -8.7268         138.538
5.76                    -8.68295         134.679
5.78                    -8.72586         131.031
5.8                     -8.79319         127.635
5.82                    -8.90472         124.115
5.84                    -9.13073         120.832
5.86                    -9.39636         118.396
5.88                     -9.6143         116.231
5.9                     -9.92186         114.115
5.92                    -10.2856         113.941
5.94                    -10.1486         115.395
5.96                    -9.47096         112.983
5.98                    -9.14335          104.97
6                       -9.73486         95.5282
6.02                     -11.064         89.7087
6.04                    -12.3806         88.8527
6.06                    -13.3869         88.8038
6.08                    -14.6476         88.4983
6.1                     -16.2226         91.8269
6.12                    -17.5721         99.0695
6.14                    -18.8416         108.822
6.16                    -19.7203         125.778
6.18                    -18.8272         144.706
6.2                     -17.0572         156.359
6.22                    -15.1471         163.676
6.24                    -13.0809         166.723
6.26                    -11.2513         165.685
6.28                    -9.75469         163.181
6.3                     -8.36831         159.906
6.32                    -7.10329         155.074
6.34                    -6.08908         149.312
6.36                    -5.23603         143.578
6.38                    -4.43798         137.384
6.4                     -3.79484         130.349
6.42                    -3.34978         123.344
6.44                    -2.96275         116.587
6.46                    -2.63314         109.094
6.48                    -2.53078         101.021
6.5                     -2.61822         93.3597
