! TOUCHSTONE file generated by CST MICROWAVE STUDIO
! Date and time: Thu Oct 27 09:19:03 2022
! Project name: L.cst
! Parameters = {Di=1.27; Epsilon_r=1.56; InnerDiameter=1.27; Length=2; Lf=10; Lg=60; OuterConductorThickness=0.2921; OuterDiameter=3.6; Wf=3; Wp=41.2; de=1.5; df=6.8; g=0.8; gx=4.29552; gy=4.96584; h=2.34; hf=1.524; px=14.5493; py=12.6074; w=9.7; wx=10.2538; wy=7.64152}
! Header version: 2018
! Port assignment regex: !\s*Touchstone port\s*([0-9]+)\s*=\s*(CST MWS port|CST DS port)\s*([0-9]+|Zmin|Zmax)\s*\(\"(.*)\"\)(\s*mode\s*([0-9]+))?.*
! Touchstone port assignment:
! Touchstone port 1 = CST MWS port 1 ("")
# GHz S DB R 50
4.5                    -0.488924         96.0261
4.52                   -0.511082         94.5374
4.54                   -0.532449         93.0526
4.56                    -0.55199         91.5615
4.58                   -0.569823         90.0529
4.6                     -0.58702         88.5189
4.62                   -0.605038         86.9577
4.64                   -0.625087         85.3733
4.66                   -0.647668         83.7734
4.68                   -0.672474         82.1651
4.7                    -0.698622         80.5525
4.72                   -0.725095         78.9348
4.74                   -0.751191         77.3074
4.76                   -0.776791         75.6642
4.78                   -0.802366         73.9996
4.8                    -0.828732         72.3114
4.82                   -0.856694         70.6009
4.84                   -0.886733          68.872
4.86                   -0.918848         67.1293
4.88                    -0.95262          65.376
4.9                    -0.987431         63.6128
4.92                    -1.02276         61.8376
4.94                    -1.05839         60.0463
4.96                    -1.09454         58.2351
4.98                    -1.13172         56.4015
5                       -1.17054         54.5454
5.02                    -1.21147         52.6691
5.04                     -1.2547         50.7759
5.06                    -1.30004         48.8689
5.08                    -1.34711         46.9495
5.1                     -1.39547          45.017
5.12                    -1.44486          43.069
5.14                    -1.49533         41.1023
5.16                    -1.54723         39.1145
5.18                    -1.60106         37.1048
5.2                     -1.65732         35.0744
5.22                    -1.71631         33.0259
5.24                    -1.77804         30.9627
5.26                    -1.84226          28.887
5.28                     -1.9086         26.7993
5.3                     -1.97675         24.6982
5.32                    -2.04663         22.5812
5.34                    -2.11848         20.4458
5.36                    -2.19277         18.2907
5.38                    -2.27006         16.1166
5.4                      -2.3508         13.9261
5.42                    -2.43518         11.7229
5.44                    -2.52305          9.5107
5.46                    -2.61406          7.2915
5.48                    -2.70779         5.06534
5.5                     -2.80398         2.83028
5.52                    -2.90275         0.58352
5.54                    -3.00453        -1.67705
5.56                    -3.11002        -3.95146
5.58                    -3.21991          -6.237
5.6                     -3.33467        -8.52864
5.62                    -3.45434        -10.8204
5.64                    -3.57852        -13.1074
5.66                    -3.70659        -15.3872
5.68                    -3.83795        -17.6604
5.7                     -3.97241        -19.9302
5.72                     -4.1103        -22.2004
5.74                    -4.25251        -24.4721
5.76                    -4.40021        -26.7428
5.78                    -4.55439        -29.0049
5.8                     -4.71545        -31.2469
5.82                    -4.88293        -33.4571
5.84                     -5.0556        -35.6261
5.86                    -5.23182        -37.7503
5.88                    -5.41019        -39.8322
5.9                     -5.59013        -41.8783
5.92                    -5.77223        -43.8943
5.94                    -5.95792        -45.8795
5.96                    -6.14874        -47.8231
5.98                    -6.34518        -49.7043
6                       -6.54564        -51.4971
6.02                    -6.74597        -53.1803
6.04                    -6.94003        -54.7478
6.06                    -7.12128        -56.2169
6.08                    -7.28509        -57.6273
6.1                      -7.4308        -59.0309
6.12                    -7.56222        -60.4721
6.14                    -7.68621        -61.9696
6.16                    -7.80934        -63.5062
6.18                    -7.93389        -65.0353
6.2                      -8.0549        -66.5053
6.22                    -8.15983        -67.8967
6.24                    -8.23226        -69.2595
6.26                    -8.25972        -70.7316
6.28                    -8.24287        -72.5186
6.3                      -8.2012        -74.8333
6.32                     -8.1719        -77.8234
6.34                    -8.20298        -81.5216
6.36                    -8.34506        -85.8292
6.38                    -8.64518        -90.5197
6.4                     -9.14266         -95.239
6.42                    -9.86391        -99.4839
6.44                    -10.8097        -102.561
6.46                    -11.9244        -103.575
6.48                      -13.04        -101.648
6.5                     -13.8457        -96.7669
