! TOUCHSTONE file generated by CST MICROWAVE STUDIO
! Date and time: Fri Oct 28 11:11:23 2022
! Project name: L.cst
! Parameters = {Di=1.27; Epsilon_r=1.56; InnerDiameter=1.27; Length=2; Lf=10; Lg=60; OuterConductorThickness=0.2921; OuterDiameter=3.6; Wf=3; Wp=41.2; de=1.5; df=6.8; g=0.8; gx=4.14789; gy=2.38187; h=2.34; hf=1.524; px=14.027; py=14.172; w=9.7; wx=9.87913; wy=11.7901}
! Header version: 2018
! Port assignment regex: !\s*Touchstone port\s*([0-9]+)\s*=\s*(CST MWS port|CST DS port)\s*([0-9]+|Zmin|Zmax)\s*\(\"(.*)\"\)(\s*mode\s*([0-9]+))?.*
! Touchstone port assignment:
! Touchstone port 1 = CST MWS port 1 ("")
# GHz S DB R 50
4.5                    -0.923215         80.2011
4.52                    -1.00462         78.1022
4.54                    -1.01865         76.3822
4.56                    -1.09787         74.2159
4.58                    -1.12332         72.4005
4.6                      -1.2017         70.1569
4.62                    -1.23858         68.2351
4.64                    -1.31805         65.9076
4.66                     -1.3658         63.8697
4.68                    -1.44823         61.4455
4.7                     -1.50677         59.2819
4.72                    -1.59394         56.7435
4.74                    -1.66437         54.4447
4.76                    -1.75731         51.7783
4.78                    -1.84059         49.3267
4.8                     -1.94111         46.5161
4.82                    -2.03829         43.8915
4.84                    -2.14889          40.917
4.86                    -2.26114         38.1022
4.88                    -2.38363         34.9369
4.9                     -2.51321         31.9067
4.92                    -2.64978         28.5228
4.94                    -2.79926         25.2459
4.96                    -2.95262         21.6126
4.98                    -3.12443         18.0514
5                       -3.29789         14.1277
5.02                    -3.49537         10.2399
5.04                    -3.69219         5.97782
5.06                    -3.91932         1.71074
5.08                    -4.14296        -2.94326
5.1                     -4.40352        -7.65458
5.12                    -4.65785        -12.7636
5.14                    -4.95516        -17.9911
5.16                    -5.24284        -23.6274
5.18                    -5.57878        -29.4507
5.2                     -5.89941        -35.6892
5.22                    -6.27184        -42.1965
5.24                    -6.62035        -49.1044
5.26                    -7.01879        -56.3724
5.28                    -7.38108        -63.9965
5.3                     -7.78303        -72.0633
5.32                    -8.13193        -80.3948
5.34                      -8.501        -89.2188
5.36                    -8.79818        -98.1354
5.38                     -9.0874        -107.534
5.4                     -9.29344        -116.771
5.42                    -9.46145        -126.395
5.44                     -9.5522        -135.578
5.46                    -9.58382         -144.99
5.48                    -9.56121        -153.742
5.5                     -9.46992        -162.581
5.52                    -9.35766        -170.664
5.54                    -9.17253         -178.75
5.56                    -8.99925         173.877
5.58                    -8.74955         166.539
5.6                      -8.5357         159.765
5.62                    -8.24127         153.024
5.64                    -7.99752         146.642
5.66                    -7.66782         140.257
5.68                    -7.39751         133.979
5.7                     -7.03511         127.636
5.72                    -6.73487         121.074
5.74                    -6.33918         114.318
5.76                    -6.00433         106.876
5.78                    -5.58021         98.9311
5.8                     -5.22209         89.4961
5.82                       -4.82         78.7732
5.84                    -4.54608         64.8985
5.86                     -4.4534         47.6508
5.88                    -4.86174         23.4598
5.9                     -6.41209        -9.52924
5.92                     -9.3571        -58.9628
5.94                    -11.3606        -133.596
5.96                    -8.97641         165.061
5.98                    -6.23643         126.113
6                       -4.82755         95.7224
6.02                    -3.88187         69.1534
6.04                    -4.19357         35.5675
6.06                    -8.23095         7.33594
6.08                    -11.4707         20.4208
6.1                     -9.80422         8.30237
6.12                    -11.3547        -16.5779
6.14                    -13.4829        -39.2481
6.16                     -16.018        -83.0544
6.18                    -18.0398        -148.871
6.2                     -12.8997         157.441
6.22                    -6.83528         94.7329
6.24                    -4.58776          19.296
6.26                    -5.32533        -62.7544
6.28                    -6.68323        -132.533
6.3                     -5.57296         -173.16
6.32                    -3.20213         149.525
6.34                    -1.93428         118.449
6.36                   -0.717687          89.199
6.38                   -0.823011         59.2882
6.4                     -1.57396         35.5362
6.42                    -2.93438         12.2483
6.44                    -4.93074          -1.699
6.46                     -6.1124        -15.2935
6.48                    -7.87399        -25.3115
6.5                     -8.62341        -37.9007
