! TOUCHSTONE file generated by CST MICROWAVE STUDIO
! Date and time: Wed Oct 26 16:36:35 2022
! Project name: L.cst
! Parameters = {Di=1.27; Epsilon_r=1.56; InnerDiameter=1.27; Length=2; Lf=10; Lg=60; OuterConductorThickness=0.2921; OuterDiameter=3.6; Wf=3; Wp=41.2; de=1.5; df=6.8; g=0.8; gx=3.15492; gy=4.31454; h=2.34; hf=1.524; px=10.5723; py=9.16354; w=9.7; wx=7.41737; wy=4.84901}
! Header version: 2018
! Port assignment regex: !\s*Touchstone port\s*([0-9]+)\s*=\s*(CST MWS port|CST DS port)\s*([0-9]+|Zmin|Zmax)\s*\(\"(.*)\"\)(\s*mode\s*([0-9]+))?.*
! Touchstone port assignment:
! Touchstone port 1 = CST MWS port 1 ("")
# GHz S DB R 50
4.5                    -0.351921         95.9799
4.52                   -0.361652         94.5425
4.54                   -0.371649         93.0946
4.56                   -0.381917         91.6362
4.58                    -0.39246         90.1673
4.6                    -0.403276         88.6877
4.62                   -0.414366         87.1975
4.64                   -0.425725         85.6965
4.66                    -0.43735         84.1848
4.68                   -0.449237         82.6621
4.7                    -0.461381         81.1284
4.72                   -0.473778         79.5837
4.74                   -0.486423         78.0278
4.76                   -0.499314         76.4607
4.78                   -0.512448         74.8822
4.8                    -0.525823         73.2921
4.82                   -0.539438         71.6905
4.84                   -0.553292         70.0772
4.86                   -0.567387         68.4522
4.88                   -0.581723         66.8154
4.9                    -0.596304         65.1666
4.92                   -0.611131         63.5059
4.94                   -0.626207         61.8332
4.96                   -0.641536         60.1485
4.98                   -0.657121         58.4518
5                      -0.672967         56.7431
5.02                   -0.689076         55.0223
5.04                   -0.705451         53.2896
5.06                   -0.722096          51.545
5.08                   -0.739014         49.7886
5.1                    -0.756206         48.0204
5.12                   -0.773673         46.2405
5.14                   -0.791416         44.4492
5.16                   -0.809436         42.6464
5.18                    -0.82773         40.8325
5.2                    -0.846297         39.0075
5.22                   -0.865134         37.1717
5.24                   -0.884238         35.3253
5.26                   -0.903603         33.4686
5.28                   -0.923223         31.6016
5.3                    -0.943093         29.7248
5.32                   -0.963205         27.8383
5.34                   -0.983551         25.9426
5.36                    -1.00412         24.0379
5.38                     -1.0249         22.1245
5.4                     -1.04589         20.2028
5.42                    -1.06707         18.2732
5.44                    -1.08843          16.336
5.46                    -1.10995         14.3916
5.48                    -1.13163         12.4404
5.5                     -1.15345         10.4829
5.52                    -1.17539         8.51943
5.54                    -1.19744         6.55049
5.56                    -1.21959         4.57652
5.58                    -1.24182           2.598
5.6                     -1.26412        0.615404
5.62                    -1.28646        -1.37077
5.64                    -1.30883        -3.36002
5.66                    -1.33122        -5.35184
5.68                    -1.35361         -7.3457
5.7                     -1.37598        -9.34108
5.72                    -1.39832        -11.3374
5.74                    -1.42061        -13.3342
5.76                    -1.44283        -15.3309
5.78                    -1.46497        -17.3269
5.8                     -1.48701        -19.3217
5.82                    -1.50892        -21.3148
5.84                     -1.5307        -23.3055
5.86                    -1.55233        -25.2934
5.88                    -1.57378        -27.2779
5.9                     -1.59505        -29.2584
5.92                     -1.6161        -31.2344
5.94                    -1.63693        -33.2055
5.96                    -1.65751         -35.171
5.98                    -1.67783        -37.1305
6                       -1.69787        -39.0835
6.02                    -1.71761        -41.0296
6.04                    -1.73702        -42.9682
6.06                     -1.7561         -44.899
6.08                    -1.77483        -46.8215
6.1                     -1.79318        -48.7355
6.12                    -1.81115        -50.6404
6.14                    -1.82871         -52.536
6.16                    -1.84586         -54.422
6.18                    -1.86258        -56.2981
6.2                     -1.87886        -58.1641
6.22                     -1.8947        -60.0197
6.24                    -1.91008        -61.8648
6.26                    -1.92501        -63.6991
6.28                    -1.93948        -65.5227
6.3                     -1.95351        -67.3353
6.32                     -1.9671        -69.1368
6.34                    -1.98027        -70.9273
6.36                    -1.99303        -72.7066
6.38                     -2.0054        -74.4747
6.4                     -2.01742        -76.2316
6.42                    -2.02912        -77.9772
6.44                    -2.04053        -79.7114
6.46                    -2.05169        -81.4342
6.48                    -2.06265        -83.1455
6.5                     -2.07346        -84.8452
