! TOUCHSTONE file generated by CST MICROWAVE STUDIO
! Date and time: Sat Oct 29 16:10:12 2022
! Project name: L.cst
! Parameters = {Di=1.27; Epsilon_r=1.56; InnerDiameter=1.27; Length=2; Lf=10; Lg=60; OuterConductorThickness=0.2921; OuterDiameter=3.6; Wf=3; Wp=41.2; de=1.5; df=6.8; g=0.8; gx=4.70207; gy=1.52211; h=2.34; hf=1.524; px=14.0141; py=10.4289; w=9.7; wx=9.31204; wy=8.9068}
! Header version: 2018
! Port assignment regex: !\s*Touchstone port\s*([0-9]+)\s*=\s*(CST MWS port|CST DS port)\s*([0-9]+|Zmin|Zmax)\s*\(\"(.*)\"\)(\s*mode\s*([0-9]+))?.*
! Touchstone port assignment:
! Touchstone port 1 = CST MWS port 1 ("")
# GHz S DB R 50
4.5                    -0.887776         76.8863
4.52                   -0.961539         74.8543
4.54                    -1.03454          72.808
4.56                    -1.10629         70.7385
4.58                    -1.17659         68.6367
4.6                     -1.24544         66.4937
4.62                    -1.31306         64.3009
4.64                    -1.37985         62.0504
4.66                    -1.44633         59.7349
4.68                    -1.51316          57.348
4.7                     -1.58103         54.8841
4.72                    -1.65068         52.3387
4.74                    -1.72285         49.7078
4.76                    -1.79826         46.9884
4.78                    -1.87759         44.1778
4.8                     -1.96145         41.2742
4.82                    -2.05036         38.2762
4.84                    -2.14478         35.1826
4.86                    -2.24505         31.9926
4.88                    -2.35141         28.7055
4.9                       -2.464          25.321
4.92                    -2.58285         21.8384
4.94                    -2.70785         18.2576
4.96                     -2.8388         14.5782
4.98                    -2.97537         10.7999
5                       -3.11712         6.92272
5.02                    -3.26347         2.94657
5.04                    -3.41372        -1.12833
5.06                    -3.56706        -5.30149
5.08                    -3.72256        -9.57201
5.1                     -3.87918        -13.9385
5.12                    -4.03575        -18.3989
5.14                    -4.19106        -22.9504
5.16                    -4.34377        -27.5892
5.18                    -4.49253        -32.3105
5.2                     -4.63594        -37.1084
5.22                    -4.77264        -41.9757
5.24                    -4.90129        -46.9038
5.26                    -5.02065        -51.8829
5.28                    -5.12961        -56.9022
5.3                     -5.22722        -61.9495
5.32                    -5.31274         -67.012
5.34                    -5.38565         -72.076
5.36                    -5.44569        -77.1278
5.38                    -5.49283        -82.1534
5.4                     -5.52732        -87.1395
5.42                     -5.5496        -92.0729
5.44                    -5.56036        -96.9418
5.46                    -5.56043        -101.735
5.48                    -5.55078        -106.444
5.5                     -5.53248        -111.059
5.52                    -5.50664        -115.574
5.54                    -5.47439        -119.983
5.56                    -5.43683        -124.283
5.58                    -5.39503        -128.469
5.6                     -5.34998        -132.541
5.62                    -5.30258        -136.497
5.64                    -5.25363        -140.338
5.66                    -5.20385        -144.064
5.68                    -5.15382        -147.676
5.7                     -5.10404        -151.177
5.72                    -5.05491        -154.568
5.74                    -5.00672        -157.852
5.76                    -4.95969        -161.033
5.78                    -4.91395        -164.113
5.8                     -4.86957        -167.097
5.82                    -4.82656        -169.988
5.84                    -4.78491         -172.79
5.86                    -4.74453        -175.508
5.88                    -4.70536        -178.144
5.9                     -4.66729         179.294
5.92                    -4.63023         176.805
5.94                     -4.5941         174.381
5.96                    -4.55884          172.02
5.98                    -4.52441         169.715
6                       -4.49082         167.463
6.02                    -4.45812         165.259
6.04                    -4.42639         163.098
6.06                    -4.39577         160.977
6.08                    -4.36645          158.89
6.1                     -4.33868         156.835
6.12                    -4.31271         154.809
6.14                    -4.28887         152.808
6.16                    -4.26751          150.83
6.18                    -4.24899         148.874
6.2                     -4.23369         146.938
6.22                    -4.22199         145.023
6.24                    -4.21425         143.127
6.26                    -4.21081         141.252
6.28                    -4.21195           139.4
6.3                     -4.21792         137.571
6.32                    -4.22886          135.77
6.34                    -4.24484         133.997
6.36                     -4.2658         132.258
6.38                    -4.29156         130.556
6.4                     -4.32179         128.894
6.42                    -4.35599         127.277
6.44                    -4.39351         125.707
6.46                    -4.43351         124.189
6.48                    -4.47496         122.723
6.5                     -4.51669         121.312
