! TOUCHSTONE file generated by CST MICROWAVE STUDIO
! Date and time: Sat Oct 29 15:43:51 2022
! Project name: L.cst
! Parameters = {Di=1.27; Epsilon_r=1.56; InnerDiameter=1.27; Length=2; Lf=10; Lg=60; OuterConductorThickness=0.2921; OuterDiameter=3.6; Wf=3; Wp=41.2; de=1.5; df=6.8; g=0.8; gx=0.82664; gy=0.983051; h=2.34; hf=1.524; px=9.49783; py=10.6347; w=9.7; wx=8.67119; wy=9.65167}
! Header version: 2018
! Port assignment regex: !\s*Touchstone port\s*([0-9]+)\s*=\s*(CST MWS port|CST DS port)\s*([0-9]+|Zmin|Zmax)\s*\(\"(.*)\"\)(\s*mode\s*([0-9]+))?.*
! Touchstone port assignment:
! Touchstone port 1 = CST MWS port 1 ("")
# GHz S DB R 50
4.5                     -1.47481         62.0953
4.52                    -1.54717         60.0452
4.54                    -1.62517         57.9625
4.56                    -1.70875         55.8496
4.58                    -1.79781          53.708
4.6                     -1.89218         51.5386
4.62                    -1.99168         49.3416
4.64                    -2.09613         47.1162
4.66                     -2.2054         44.8615
4.68                     -2.3194         42.5755
4.7                     -2.43811         40.2565
4.72                    -2.56157         37.9018
4.74                    -2.68992         35.5091
4.76                    -2.82334          33.076
4.78                    -2.96212         30.5999
4.8                     -3.10656         28.0787
4.82                    -3.25705         25.5106
4.84                    -3.41397         22.8938
4.86                    -3.57774         20.2271
4.88                    -3.74878         17.5095
4.9                      -3.9275         14.7406
4.92                    -4.11427         11.9199
4.94                    -4.30946         9.04758
4.96                    -4.51335         6.12372
4.98                     -4.7262         3.14877
5                       -4.94819        0.123258
5.02                    -5.17945        -2.95222
5.04                    -5.42003        -6.07704
5.06                    -5.66991        -9.25056
5.08                    -5.92898        -12.4722
5.1                     -6.19708        -15.7415
5.12                    -6.47394        -19.0581
5.14                    -6.75923        -22.4216
5.16                    -7.05251        -25.8318
5.18                    -7.35329        -29.2885
5.2                     -7.66096        -32.7917
5.22                    -7.97485        -36.3413
5.24                    -8.29417         -39.937
5.26                    -8.61806        -43.5783
5.28                    -8.94557        -47.2648
5.3                     -9.27564        -50.9954
5.32                    -9.60711        -54.7684
5.34                    -9.93876        -58.5816
5.36                    -10.2692         -62.432
5.38                    -10.5971        -66.3155
5.4                      -10.921         -70.227
5.42                    -11.2392          -74.16
5.44                    -11.5501         -78.107
5.46                    -11.8522        -82.0588
5.48                    -12.1437        -86.0051
5.5                      -12.423        -89.9343
5.52                    -12.6884        -93.8337
5.54                    -12.9384          -97.69
5.56                    -13.1715        -101.489
5.58                    -13.3861        -105.218
5.6                     -13.5809        -108.862
5.62                    -13.7546        -112.411
5.64                    -13.9062        -115.853
5.66                    -14.0347         -119.18
5.68                    -14.1393        -122.386
5.7                     -14.2193         -125.47
5.72                    -14.2744        -128.431
5.74                    -14.3046        -131.274
5.76                    -14.3101        -134.004
5.78                    -14.2917        -136.632
5.8                     -14.2503        -139.169
5.82                    -14.1876        -141.626
5.84                    -14.1054        -144.018
5.86                    -14.0061        -146.354
5.88                    -13.8922        -148.646
5.9                     -13.7666        -150.902
5.92                    -13.6323        -153.128
5.94                    -13.4921        -155.326
5.96                     -13.349        -157.495
5.98                    -13.2055         -159.63
6                       -13.0638        -161.725
6.02                    -12.9258        -163.767
6.04                    -12.7925        -165.743
6.06                    -12.6647        -167.639
6.08                    -12.5418        -169.435
6.1                     -12.4228        -171.116
6.12                    -12.3054        -172.663
6.14                    -12.1864        -174.062
6.16                    -12.0615        -175.303
6.18                    -11.9255        -176.383
6.2                     -11.7723        -177.308
6.22                    -11.5957        -178.093
6.24                    -11.3896        -178.771
6.26                    -11.1487        -179.382
6.28                    -10.8693        -179.981
6.3                     -10.5499          179.37
6.32                    -10.1915         178.608
6.34                    -9.79724         177.672
6.36                     -9.3728         176.509
6.38                    -8.92519         175.077
6.4                     -8.46238         173.347
6.42                    -7.99264         171.304
6.44                    -7.52398         168.943
6.46                    -7.06386         166.268
6.48                    -6.61899         163.292
6.5                     -6.19527         160.032
