! TOUCHSTONE file generated by CST MICROWAVE STUDIO
! Date and time: Thu Oct 27 11:47:31 2022
! Project name: L.cst
! Parameters = {Di=1.27; Epsilon_r=1.56; InnerDiameter=1.27; Length=2; Lf=10; Lg=60; OuterConductorThickness=0.2921; OuterDiameter=3.6; Wf=3; Wp=41.2; de=1.5; df=6.8; g=0.8; gx=2.11596; gy=4.70194; h=2.34; hf=1.524; px=13.4225; py=14.7765; w=9.7; wx=11.3065; wy=10.0746}
! Header version: 2018
! Port assignment regex: !\s*Touchstone port\s*([0-9]+)\s*=\s*(CST MWS port|CST DS port)\s*([0-9]+|Zmin|Zmax)\s*\(\"(.*)\"\)(\s*mode\s*([0-9]+))?.*
! Touchstone port assignment:
! Touchstone port 1 = CST MWS port 1 ("")
# GHz S DB R 50
4.5                    -0.905366         91.0885
4.52                      -0.934         89.4802
4.54                   -0.989989          87.872
4.56                    -1.03346         86.3745
4.58                    -1.07196         84.7268
4.6                     -1.13245         83.1007
4.62                    -1.18097         81.5465
4.64                    -1.22915          79.863
4.66                    -1.29501         78.2127
4.68                    -1.35017         76.6049
4.7                     -1.40835         74.8874
4.72                    -1.48085         73.2097
4.74                    -1.54416         71.5529
4.76                    -1.61299          69.804
4.78                    -1.69356         68.0986
4.8                     -1.76654         66.3988
4.82                    -1.84688         64.6233
4.84                    -1.93685         62.8935
4.86                    -2.02081         61.1582
4.88                    -2.11355         59.3619
4.9                     -2.21436         57.6135
4.92                    -2.31056         55.8526
4.94                    -2.41656         54.0446
4.96                    -2.52934         52.2861
4.98                    -2.63888         50.5112
5                       -2.75894         48.7031
5.02                    -2.88453         46.9468
5.04                    -3.00803         45.1721
5.06                    -3.14251         43.3778
5.08                    -3.28123         41.6382
5.1                     -3.41872         39.8792
5.12                    -3.56732         38.1139
5.14                    -3.71869         36.4058
5.16                    -3.86933         34.6773
5.18                    -4.03085         32.9541
5.2                     -4.19346         31.2884
5.22                    -4.35566         29.5989
5.24                    -4.52831         27.9233
5.26                    -4.70025         26.3012
5.28                    -4.87221         24.6475
5.3                     -5.05429         23.0112
5.32                    -5.23419         21.4169
5.34                    -5.41538         19.7756
5.36                    -5.60741         18.1473
5.38                    -5.79746         16.5403
5.4                     -5.99254         14.8631
5.42                    -6.20213         13.1894
5.44                    -6.41376         11.5108
5.46                    -6.63946         9.73872
5.48                    -6.88954         7.96929
5.5                     -7.15314         6.18552
5.52                    -7.44912         4.31848
5.54                    -7.78952         2.51295
5.56                    -8.16529        0.772124
5.58                    -8.60241       -0.908013
5.6                     -9.11036         -2.2673
5.62                    -9.67284        -3.22659
5.64                    -10.3107        -3.65809
5.66                    -11.0046        -3.13177
5.68                    -11.6985        -1.56322
5.7                     -12.3799         1.19267
5.72                    -12.9602         5.47257
5.74                     -13.338         10.8822
5.76                    -13.4785         17.1755
5.78                    -13.2661         23.8449
5.8                     -12.7157          29.576
5.82                    -11.9361         33.9237
5.84                     -10.986         36.4482
5.86                     -10.018         36.9577
5.88                       -9.11         36.0792
5.9                     -8.26176           33.98
5.92                    -7.53134         30.8444
5.94                    -6.91218         27.1825
5.96                    -6.36807         22.9432
5.98                    -5.93491         18.1281
6                       -5.59606         13.0163
6.02                    -5.32597         7.32006
6.04                    -5.18552        0.872243
6.06                    -5.18716        -6.24389
6.08                    -5.37582        -14.6597
6.1                     -5.96902        -24.7679
6.12                    -7.24592        -36.4913
6.14                    -9.90556        -50.3687
6.16                    -16.8407        -62.5359
6.18                    -21.1662         60.1569
6.2                     -11.0143         54.4663
6.22                    -7.75863         40.2258
6.24                    -6.19516         29.7719
6.26                     -5.2146         20.1277
6.28                    -4.98656         11.4031
6.3                     -5.10094          7.5676
6.32                    -4.73694         5.96373
6.34                    -4.23481         2.60761
6.36                    -3.74793        -0.94889
6.38                    -3.20776        -6.44912
6.4                      -3.1264        -12.9474
6.42                    -3.04562        -16.9082
6.44                    -2.63757        -25.1553
6.46                    -3.75861         -39.255
6.48                    -7.77936        -37.2778
6.5                     -6.73104        -2.82315
