! TOUCHSTONE file generated by CST MICROWAVE STUDIO
! Date and time: Sat Oct 29 15:59:09 2022
! Project name: L.cst
! Parameters = {Di=1.27; Epsilon_r=1.56; InnerDiameter=1.27; Length=2; Lf=10; Lg=60; OuterConductorThickness=0.2921; OuterDiameter=3.6; Wf=3; Wp=41.2; de=1.5; df=6.8; g=0.8; gx=4.21208; gy=4.55623; h=2.34; hf=1.524; px=10.2535; py=12.9655; w=9.7; wx=6.04138; wy=8.4093}
! Header version: 2018
! Port assignment regex: !\s*Touchstone port\s*([0-9]+)\s*=\s*(CST MWS port|CST DS port)\s*([0-9]+|Zmin|Zmax)\s*\(\"(.*)\"\)(\s*mode\s*([0-9]+))?.*
! Touchstone port assignment:
! Touchstone port 1 = CST MWS port 1 ("")
# GHz S DB R 50
4.5                    -0.304725         97.6787
4.52                    -0.31232         96.2945
4.54                   -0.320049         94.9012
4.56                    -0.32792         93.4986
4.58                   -0.335942         92.0866
4.6                    -0.344118         90.6652
4.62                   -0.352457         89.2343
4.64                   -0.360958         87.7938
4.66                   -0.369625         86.3437
4.68                   -0.378457         84.8837
4.7                    -0.387457          83.414
4.72                   -0.396622         81.9344
4.74                   -0.405952         80.4449
4.76                   -0.415445         78.9453
4.78                   -0.425101         77.4355
4.8                    -0.434918         75.9155
4.82                   -0.444893         74.3852
4.84                   -0.455028         72.8446
4.86                   -0.465319         71.2934
4.88                   -0.475767         69.7318
4.9                    -0.486371         68.1595
4.92                   -0.497131         66.5766
4.94                   -0.508046          64.983
4.96                   -0.519116         63.3786
4.98                   -0.530343         61.7634
5                      -0.541726         60.1374
5.02                   -0.553266         58.5005
5.04                   -0.564963         56.8527
5.06                   -0.576819          55.194
5.08                   -0.588832         53.5244
5.1                    -0.601005         51.8439
5.12                   -0.613337         50.1526
5.14                   -0.625827         48.4505
5.16                   -0.638477         46.7376
5.18                   -0.651284         45.0141
5.2                    -0.664249         43.2799
5.22                    -0.67737         41.5351
5.24                   -0.690645         39.7799
5.26                   -0.704071         38.0144
5.28                    -0.71765         36.2386
5.3                    -0.731375         34.4528
5.32                   -0.745243          32.657
5.34                   -0.759253         30.8514
5.36                   -0.773397         29.0362
5.38                   -0.787673         27.2116
5.4                    -0.802076         25.3777
5.42                   -0.816599         23.5349
5.44                   -0.831237         21.6832
5.46                   -0.845984         19.8229
5.48                   -0.860833         17.9543
5.5                    -0.875777         16.0776
5.52                    -0.89081         14.1931
5.54                   -0.905922         12.3011
5.56                   -0.921107         10.4017
5.58                   -0.936356         8.49548
5.6                    -0.951661         6.58257
5.62                   -0.967013         4.66331
5.64                   -0.982404         2.73804
5.66                   -0.997824        0.807101
5.68                    -1.01326        -1.12918
5.7                     -1.02871        -3.07044
5.72                    -1.04416        -5.01633
5.74                    -1.05961        -6.96648
5.76                    -1.07503        -8.92049
5.78                    -1.09042        -10.8781
5.8                     -1.10577        -12.8388
5.82                    -1.12108        -14.8023
5.84                    -1.13632        -16.7682
5.86                    -1.15149         -18.736
5.88                    -1.16657        -20.7056
5.9                     -1.18156        -22.6763
5.92                    -1.19644         -24.648
5.94                     -1.2112        -26.6201
5.96                    -1.22583        -28.5924
5.98                    -1.24032        -30.5645
6                       -1.25465         -32.536
6.02                    -1.26882        -34.5066
6.04                    -1.28281        -36.4761
6.06                     -1.2966         -38.444
6.08                    -1.31019        -40.4101
6.1                     -1.32357        -42.3742
6.12                    -1.33672        -44.3359
6.14                    -1.34963        -46.2952
6.16                     -1.3623        -48.2516
6.18                    -1.37472        -50.2052
6.2                     -1.38687        -52.1557
6.22                    -1.39876         -54.103
6.24                    -1.41038         -56.047
6.26                    -1.42173        -57.9875
6.28                    -1.43281        -59.9248
6.3                     -1.44363        -61.8586
6.32                    -1.45418        -63.7892
6.34                    -1.46449        -65.7163
6.36                    -1.47457        -67.6402
6.38                    -1.48443         -69.561
6.4                     -1.49409        -71.4788
6.42                     -1.5036        -73.3938
6.44                    -1.51297        -75.3062
6.46                    -1.52224        -77.2161
6.48                    -1.53145        -79.1238
6.5                     -1.54066        -81.0295
