! TOUCHSTONE file generated by CST MICROWAVE STUDIO
! Date and time: Thu Oct 27 16:07:11 2022
! Project name: L.cst
! Parameters = {Di=1.27; Epsilon_r=1.56; InnerDiameter=1.27; Length=2; Lf=10; Lg=60; OuterConductorThickness=0.2921; OuterDiameter=3.6; Wf=3; Wp=41.2; de=1.5; df=6.8; g=0.8; gx=4.15982; gy=1.53072; h=2.34; hf=1.524; px=9.6191; py=11.8995; w=9.7; wx=5.45929; wy=10.3687}
! Header version: 2018
! Port assignment regex: !\s*Touchstone port\s*([0-9]+)\s*=\s*(CST MWS port|CST DS port)\s*([0-9]+|Zmin|Zmax)\s*\(\"(.*)\"\)(\s*mode\s*([0-9]+))?.*
! Touchstone port assignment:
! Touchstone port 1 = CST MWS port 1 ("")
# GHz S DB R 50
4.5                    -0.375089         81.8917
4.52                   -0.378254           80.17
4.54                    -0.38756         78.4244
4.56                    -0.40242         76.6646
4.58                   -0.421922         74.8982
4.6                    -0.444937           73.13
4.62                   -0.470246         71.3625
4.64                   -0.496637         69.5955
4.66                   -0.522998         67.8268
4.68                   -0.548389         66.0523
4.7                    -0.572099         64.2666
4.72                   -0.593667         62.4634
4.74                   -0.612894         60.6361
4.76                   -0.629824         58.7785
4.78                   -0.644719         56.8845
4.8                    -0.658002         54.9493
4.82                   -0.670214         52.9689
4.84                   -0.681954         50.9407
4.86                   -0.693829         48.8629
4.88                   -0.706405         46.7351
4.9                    -0.720173         44.5575
4.92                   -0.735521          42.331
4.94                   -0.752711          40.057
4.96                   -0.771882          37.737
4.98                   -0.793042         35.3725
5                      -0.816087         32.9646
5.02                   -0.840811         30.5143
5.04                    -0.86693         28.0217
5.06                   -0.894108         25.4864
5.08                   -0.921983         22.9072
5.1                     -0.95019         20.2824
5.12                   -0.978394         17.6095
5.14                     -1.0063         14.8854
5.16                     -1.0337         12.1066
5.18                    -1.06043         9.26925
5.2                     -1.08645         6.36936
5.22                    -1.11179         3.40292
5.24                    -1.13657         0.36608
5.26                    -1.16098        -2.74467
5.28                     -1.1853        -5.93264
5.3                     -1.20983        -9.20038
5.32                    -1.23492        -12.5499
5.34                    -1.26092        -15.9828
5.36                     -1.2882        -19.4996
5.38                    -1.31709        -23.1005
5.4                     -1.34788        -26.7851
5.42                    -1.38082        -30.5523
5.44                     -1.4161        -34.4003
5.46                    -1.45384        -38.3273
5.48                     -1.4941        -42.3307
5.5                     -1.53685        -46.4077
5.52                    -1.58203        -50.5554
5.54                    -1.62947        -54.7706
5.56                    -1.67896          -59.05
5.58                    -1.73026        -63.3901
5.6                     -1.78307        -67.7878
5.62                    -1.83708        -72.2397
5.64                    -1.89195        -76.7427
5.66                    -1.94738        -81.2938
5.68                    -2.00307          -85.89
5.7                     -2.05876        -90.5287
5.72                    -2.11426        -95.2074
5.74                    -2.16946        -99.9237
5.76                    -2.22432        -104.675
5.78                    -2.27894         -109.46
5.8                     -2.33349        -114.276
5.82                    -2.38832        -119.121
5.84                    -2.44388        -123.993
5.86                    -2.50077        -128.889
5.88                    -2.55974        -133.806
5.9                     -2.62166        -138.742
5.92                    -2.68754        -143.691
5.94                    -2.75851        -148.651
5.96                     -2.8358        -153.615
5.98                    -2.92071        -158.577
6                       -3.01463        -163.529
6.02                    -3.11898        -168.463
6.04                    -3.23515        -173.367
6.06                    -3.36453        -178.229
6.08                    -3.50838         176.965
6.1                     -3.66781         172.232
6.12                    -3.84367         167.593
6.14                    -4.03645         163.069
6.16                    -4.24611         158.686
6.18                     -4.4719         154.474
6.2                     -4.71212         150.462
6.22                    -4.96383         146.686
6.24                    -5.22248         143.179
6.26                    -5.48161         139.973
6.28                    -5.73257         137.093
6.3                     -5.96439         134.552
6.32                    -6.16414         132.345
6.34                    -6.31778         130.438
6.36                    -6.41172         128.764
6.38                    -6.43494         127.223
6.4                     -6.38116          125.69
6.42                    -6.25034         124.027
6.44                    -6.04904         122.099
6.46                     -5.7893         119.796
6.48                    -5.48673         117.036
6.5                      -5.1583         113.774
