! TOUCHSTONE file generated by CST MICROWAVE STUDIO
! Date and time: Sat Oct 29 07:09:05 2022
! Project name: L.cst
! Parameters = {Di=1.27; Epsilon_r=1.56; InnerDiameter=1.27; Length=2; Lf=10; Lg=60; OuterConductorThickness=0.2921; OuterDiameter=3.6; Wf=3; Wp=41.2; de=1.5; df=6.8; g=0.8; gx=3.33964; gy=2.70133; h=2.34; hf=1.524; px=11.5744; py=10.7273; w=9.7; wx=8.23471; wy=8.02598}
! Header version: 2018
! Port assignment regex: !\s*Touchstone port\s*([0-9]+)\s*=\s*(CST MWS port|CST DS port)\s*([0-9]+|Zmin|Zmax)\s*\(\"(.*)\"\)(\s*mode\s*([0-9]+))?.*
! Touchstone port assignment:
! Touchstone port 1 = CST MWS port 1 ("")
# GHz S DB R 50
4.5                     -0.52175         86.2344
4.52                   -0.539091         84.6203
4.54                    -0.55742         82.9892
4.56                   -0.576705         81.3412
4.58                   -0.596907         79.6763
4.6                    -0.617983         77.9943
4.62                   -0.639888         76.2953
4.64                   -0.662577         74.5788
4.66                   -0.686008         72.8445
4.68                   -0.710146         71.0921
4.7                    -0.734959          69.321
4.72                   -0.760422         67.5307
4.74                   -0.786516         65.7207
4.76                   -0.813231         63.8905
4.78                   -0.840563         62.0394
4.8                    -0.868515         60.1668
4.82                   -0.897097         58.2723
4.84                   -0.926322         56.3553
4.86                   -0.956209         54.4152
4.88                   -0.986784         52.4516
4.9                     -1.01807         50.4639
4.92                     -1.0501         48.4519
4.94                     -1.0829          46.415
4.96                     -1.1165         44.3531
4.98                    -1.15093         42.2657
5                       -1.18622         40.1528
5.02                     -1.2224          38.014
5.04                    -1.25948         35.8493
5.06                    -1.29749         33.6586
5.08                    -1.33645         31.4418
5.1                     -1.37636          29.199
5.12                    -1.41723         26.9302
5.14                    -1.45906         24.6355
5.16                    -1.50185         22.3152
5.18                    -1.54559         19.9693
5.2                     -1.59025         17.5982
5.22                    -1.63583         15.2021
5.24                    -1.68229         12.7814
5.26                    -1.72959         10.3366
5.28                    -1.77771          7.8679
5.3                      -1.8266          5.3759
5.32                     -1.8762         2.86112
5.34                    -1.92646        0.324144
5.36                    -1.97733        -2.23442
5.38                    -2.02875        -4.81388
5.4                     -2.08064        -7.41354
5.42                    -2.13294        -10.0326
5.44                    -2.18558        -12.6703
5.46                    -2.23849        -15.3256
5.48                    -2.29158        -17.9978
5.5                     -2.34478        -20.6858
5.52                    -2.39801        -23.3886
5.54                     -2.4512        -26.1051
5.56                    -2.50427        -28.8342
5.58                    -2.55713        -31.5747
5.6                     -2.60972        -34.3254
5.62                    -2.66197        -37.0851
5.64                    -2.71379        -39.8523
5.66                    -2.76513        -42.6259
5.68                    -2.81591        -45.4044
5.7                     -2.86606        -48.1863
5.72                    -2.91555        -50.9704
5.74                    -2.96429        -53.7551
5.76                    -3.01225        -56.5387
5.78                    -3.05937        -59.3202
5.8                     -3.10561        -62.0978
5.82                    -3.15092        -64.8702
5.84                    -3.19527        -67.6357
5.86                    -3.23862        -70.3931
5.88                    -3.28094        -73.1408
5.9                     -3.32219        -75.8775
5.92                    -3.36235        -78.6019
5.94                    -3.40139        -81.3126
5.96                    -3.43929        -84.0084
5.98                    -3.47602        -86.6881
6                       -3.51157        -89.3508
6.02                     -3.5459        -91.9953
6.04                    -3.57901        -94.6207
6.06                    -3.61087        -97.2263
6.08                    -3.64148        -99.8114
6.1                      -3.6708        -102.375
6.12                    -3.69884        -104.918
6.14                    -3.72559        -107.438
6.16                    -3.75104        -109.936
6.18                    -3.77519        -112.412
6.2                     -3.79806        -114.865
6.22                    -3.81966        -117.297
6.24                    -3.84001        -119.706
6.26                    -3.85916        -122.094
6.28                    -3.87716        -124.461
6.3                     -3.89406        -126.807
6.32                    -3.90996        -129.134
6.34                    -3.92495        -131.441
6.36                    -3.93914         -133.73
6.38                    -3.95268        -136.001
6.4                     -3.96571        -138.255
6.42                     -3.9784        -140.492
6.44                    -3.99096        -142.713
6.46                    -4.00357        -144.919
6.48                    -4.01646        -147.109
6.5                     -4.02986        -149.284
