! TOUCHSTONE file generated by CST MICROWAVE STUDIO
! Date and time: Thu Oct 27 23:26:43 2022
! Project name: L.cst
! Parameters = {Di=1.27; Epsilon_r=1.56; InnerDiameter=1.27; Length=2; Lf=10; Lg=60; OuterConductorThickness=0.2921; OuterDiameter=3.6; Wf=3; Wp=41.2; de=1.5; df=6.8; g=0.8; gx=1.07916; gy=1.49141; h=2.34; hf=1.524; px=10.6412; py=12.6834; w=9.7; wx=9.56204; wy=11.1919}
! Header version: 2018
! Port assignment regex: !\s*Touchstone port\s*([0-9]+)\s*=\s*(CST MWS port|CST DS port)\s*([0-9]+|Zmin|Zmax)\s*\(\"(.*)\"\)(\s*mode\s*([0-9]+))?.*
! Touchstone port assignment:
! Touchstone port 1 = CST MWS port 1 ("")
# GHz S DB R 50
4.5                     -1.90021         60.3374
4.52                     -1.9608          58.023
4.54                    -2.07474         55.5427
4.56                    -2.23134         53.2282
4.58                    -2.38413         51.1646
4.6                     -2.50216          49.128
4.62                    -2.60098         46.8492
4.64                    -2.72123         44.2969
4.66                    -2.88455         41.6769
4.68                    -3.07465         39.1967
4.7                     -3.25773         36.8555
4.72                    -3.41912         34.4598
4.74                    -3.57744         31.8398
4.76                     -3.7627         29.0214
4.78                     -3.9852         26.1795
4.8                      -4.2272         23.4485
4.82                    -4.46322         20.7857
4.84                    -4.68737         18.0229
4.86                    -4.91904         15.0473
4.88                    -5.18178         11.9131
4.9                     -5.47951         8.77498
4.92                    -5.79374         5.72433
4.94                    -6.10357         2.69352
4.96                    -6.40805       -0.474207
4.98                    -6.72729        -3.86164
5                       -7.08138        -7.39657
5.02                    -7.46994        -10.9324
5.04                    -7.87247        -14.4035
5.06                    -8.26921        -17.9023
5.08                    -8.66186        -21.5936
5.1                      -9.0719        -25.5506
5.12                    -9.51783        -29.6868
5.14                    -9.99487        -33.8524
5.16                    -10.4773        -38.0007
5.18                     -10.942        -42.2611
5.2                      -11.391        -46.8336
5.22                    -11.8474        -51.8021
5.24                    -12.3286        -57.0645
5.26                    -12.8236        -62.4491
5.28                    -13.2962        -67.9083
5.3                     -13.7141        -73.5996
5.32                    -14.0751        -79.7539
5.34                    -14.4035         -86.446
5.36                    -14.7179        -93.5075
5.38                     -15.005        -100.663
5.4                     -15.2231        -107.761
5.42                    -15.3361         -114.89
5.44                    -15.3472        -122.245
5.46                     -15.297        -129.871
5.48                    -15.2275        -137.552
5.5                     -15.1489        -144.956
5.52                    -15.0375        -151.893
5.54                    -14.8683        -158.456
5.56                    -14.6522        -164.911
5.58                    -14.4399        -171.401
5.6                     -14.2854        -177.776
5.62                    -14.2059         176.311
5.64                    -14.1719         171.127
5.66                    -14.1363         166.647
5.68                    -14.0825         162.595
5.7                     -14.0422         158.784
5.72                    -14.0559         155.391
5.74                    -14.1126         152.847
5.76                    -14.1304         151.398
5.78                    -14.0136         150.697
5.8                     -13.7477         150.009
5.82                    -13.4084         148.921
5.84                    -13.0618         147.665
5.86                    -12.6844         146.653
5.88                    -12.1925         145.799
5.9                     -11.5542         144.417
5.92                    -10.8468         141.915
5.94                    -10.1814         138.376
5.96                    -9.59932         134.372
5.98                    -9.04767         130.335
6                       -8.44333         126.096
6.02                    -7.77081         121.008
6.04                    -7.10894         114.604
6.06                    -6.55588         107.024
6.08                     -6.1423         98.8165
6.1                     -5.80329         90.3849
6.12                    -5.42687         81.4433
6.14                    -4.96326         70.9337
6.16                    -4.49507         57.6515
6.18                    -4.18382         40.9064
6.2                     -4.16825         20.5295
6.22                    -4.50463        -3.48369
6.24                     -5.1362        -31.1574
6.26                    -5.86507        -62.2319
6.28                    -6.38925        -95.3116
6.3                     -6.50067        -127.482
6.32                    -6.24225        -155.872
6.34                    -5.75624        -179.503
6.36                    -5.12212         160.647
6.38                    -4.41825         142.645
6.4                     -3.80911          124.81
6.42                    -3.50868         106.435
6.44                    -3.70857         87.7324
6.46                    -4.55761         69.5525
6.48                    -6.16898         53.3667
6.5                     -8.58164          41.677
