! TOUCHSTONE file generated by CST MICROWAVE STUDIO
! Date and time: Thu Oct 27 03:42:59 2022
! Project name: L.cst
! Parameters = {Di=1.27; Epsilon_r=1.56; InnerDiameter=1.27; Length=2; Lf=10; Lg=60; OuterConductorThickness=0.2921; OuterDiameter=3.6; Wf=3; Wp=41.2; de=1.5; df=6.8; g=0.8; gx=4.83283; gy=3.58285; h=2.34; hf=1.524; px=9.9009; py=11.6474; w=9.7; wx=5.06806; wy=8.06455}
! Header version: 2018
! Port assignment regex: !\s*Touchstone port\s*([0-9]+)\s*=\s*(CST MWS port|CST DS port)\s*([0-9]+|Zmin|Zmax)\s*\(\"(.*)\"\)(\s*mode\s*([0-9]+))?.*
! Touchstone port assignment:
! Touchstone port 1 = CST MWS port 1 ("")
# GHz S DB R 50
4.5                     -0.29822         96.0411
4.52                   -0.305537         94.6374
4.54                   -0.313015         93.2228
4.56                   -0.320669          91.797
4.58                   -0.328507           90.36
4.6                    -0.336538         88.9117
4.62                   -0.344765          87.452
4.64                   -0.353189         85.9808
4.66                   -0.361813         84.4981
4.68                   -0.370631         83.0037
4.7                    -0.379642         81.4975
4.72                   -0.388842         79.9794
4.74                   -0.398226         78.4492
4.76                    -0.40779         76.9069
4.78                   -0.417528         75.3522
4.8                    -0.427437          73.785
4.82                   -0.437511         72.2052
4.84                   -0.447747         70.6127
4.86                   -0.458142         69.0072
4.88                   -0.468692         67.3887
4.9                    -0.479397          65.757
4.92                   -0.490254         64.1119
4.94                   -0.501262         62.4533
4.96                    -0.51242         60.7812
4.98                   -0.523731         59.0954
5                      -0.535193         57.3957
5.02                   -0.546806         55.6822
5.04                   -0.558572         53.9547
5.06                   -0.570492         52.2132
5.08                   -0.582566         50.4575
5.1                    -0.594794         48.6878
5.12                   -0.607178          46.904
5.14                   -0.619717          45.106
5.16                   -0.632411         43.2938
5.18                   -0.645257         41.4676
5.2                    -0.658256         39.6274
5.22                   -0.671406         37.7732
5.24                   -0.684702         35.9051
5.26                   -0.698141         34.0232
5.28                   -0.711719         32.1277
5.3                    -0.725431         30.2186
5.32                   -0.739272         28.2961
5.34                   -0.753233         26.3604
5.36                   -0.767309         24.4117
5.38                   -0.781489         22.4502
5.4                    -0.795767         20.4761
5.42                   -0.810131         18.4897
5.44                   -0.824572         16.4912
5.46                   -0.839079         14.4809
5.48                   -0.853641         12.4592
5.5                    -0.868246         10.4262
5.52                   -0.882881         8.38244
5.54                   -0.897534         6.32816
5.56                   -0.912192         4.26374
5.58                   -0.926841         2.18958
5.6                    -0.941469        0.106077
5.62                   -0.956061        -1.98636
5.64                   -0.970606         -4.0873
5.66                   -0.985087        -6.19629
5.68                   -0.999491        -8.31288
5.7                     -1.01381        -10.4366
5.72                    -1.02802         -12.567
5.74                    -1.04211        -14.7035
5.76                    -1.05608        -16.8455
5.78                     -1.0699        -18.9928
5.8                     -1.08357        -21.1447
5.82                    -1.09707        -23.3006
5.84                    -1.11039          -25.46
5.86                    -1.12351        -27.6224
5.88                    -1.13643        -29.7873
5.9                     -1.14913         -31.954
5.92                     -1.1616        -34.1221
5.94                    -1.17383        -36.2909
5.96                    -1.18581          -38.46
5.98                    -1.19752        -40.6289
6                       -1.20895        -42.7969
6.02                    -1.22009        -44.9636
6.04                    -1.23093        -47.1286
6.06                    -1.24146        -49.2912
6.08                    -1.25167         -51.451
6.1                     -1.26154        -53.6077
6.12                    -1.27106        -55.7607
6.14                    -1.28023        -57.9097
6.16                    -1.28903        -60.0543
6.18                    -1.29745        -62.1942
6.2                     -1.30549         -64.329
6.22                    -1.31315        -66.4586
6.24                    -1.32041        -68.5827
6.26                    -1.32727        -70.7009
6.28                    -1.33374        -72.8133
6.3                     -1.33981        -74.9198
6.32                    -1.34549        -77.0201
6.34                     -1.3508        -79.1143
6.36                    -1.35574        -81.2023
6.38                    -1.36034        -83.2842
6.4                     -1.36462          -85.36
6.42                     -1.3686        -87.4298
6.44                    -1.37233        -89.4937
6.46                    -1.37584        -91.5518
6.48                    -1.37919        -93.6043
6.5                     -1.38242        -95.6511
