! TOUCHSTONE file generated by CST MICROWAVE STUDIO
! Date and time: Sat Oct 29 13:29:56 2022
! Project name: L.cst
! Parameters = {Di=1.27; Epsilon_r=1.56; InnerDiameter=1.27; Length=2; Lf=10; Lg=60; OuterConductorThickness=0.2921; OuterDiameter=3.6; Wf=3; Wp=41.2; de=1.5; df=6.8; g=0.8; gx=4.98031; gy=3.23733; h=2.34; hf=1.524; px=14.3206; py=14.3689; w=9.7; wx=9.34032; wy=11.1315}
! Header version: 2018
! Port assignment regex: !\s*Touchstone port\s*([0-9]+)\s*=\s*(CST MWS port|CST DS port)\s*([0-9]+|Zmin|Zmax)\s*\(\"(.*)\"\)(\s*mode\s*([0-9]+))?.*
! Touchstone port assignment:
! Touchstone port 1 = CST MWS port 1 ("")
# GHz S DB R 50
4.5                    -0.561994         91.9804
4.52                   -0.589469         90.3796
4.54                   -0.612634         88.8604
4.56                   -0.629513         87.2346
4.58                   -0.660584         85.6114
4.6                    -0.681623         84.0112
4.62                   -0.706006         82.3116
4.64                   -0.737774         80.6492
4.66                   -0.760196         78.9535
4.68                   -0.791287         77.1925
4.7                     -0.82281         75.4663
4.72                   -0.849697         73.6717
4.74                   -0.885963         71.8504
4.76                   -0.918222         70.0376
4.78                   -0.951417         68.1477
4.8                    -0.991324         66.2565
4.82                    -1.02624         64.3392
4.84                    -1.06642         62.3558
4.86                    -1.10945         60.3774
4.88                    -1.14935         58.3446
4.9                     -1.19635         56.2657
4.92                    -1.24286         54.1798
4.94                    -1.28972         52.0232
4.96                     -1.3433         49.8388
4.98                    -1.39478         47.6256
5                       -1.45005         45.3394
5.02                    -1.51005         43.0332
5.04                    -1.56845         40.6729
5.06                    -1.63322         38.2471
5.08                    -1.70036         35.7972
5.1                       -1.768         33.2725
5.12                    -1.84303         30.6927
5.14                    -1.91875         28.0725
5.16                    -1.99808         25.3643
5.18                    -2.08454         22.6083
5.2                      -2.1714          19.789
5.22                    -2.26501         16.8772
5.24                    -2.36458         13.9162
5.26                    -2.46593         10.8659
5.28                    -2.57675          7.7242
5.3                     -2.69238         4.52224
5.32                    -2.81275         1.20734
5.34                    -2.94437        -2.19502
5.36                    -3.08034        -5.67885
5.38                     -3.2251        -9.29335
5.4                     -3.38198        -12.9935
5.42                    -3.54401        -16.8036
5.44                    -3.71936        -20.7543
5.46                    -3.90676        -24.7941
5.48                    -4.10141        -28.9763
5.5                      -4.3134        -33.3026
5.52                    -4.53641        -37.7316
5.54                    -4.76981        -42.3387
5.56                    -5.02312        -47.0913
5.58                    -5.28539        -51.9768
5.6                     -5.56155        -57.0816
5.62                    -5.85776        -62.3418
5.64                    -6.15983        -67.7914
5.66                     -6.4792        -73.5142
5.68                    -6.81565        -79.4222
5.7                     -7.15376        -85.6126
5.72                    -7.51123        -92.1487
5.74                    -7.87781        -98.9328
5.76                    -8.23902         -106.14
5.78                    -8.61754        -113.791
5.8                     -8.98802        -121.792
5.82                    -9.33772        -130.408
5.84                    -9.69098        -139.592
5.86                     -10.001        -149.266
5.88                    -10.2569        -159.789
5.9                     -10.4832        -171.014
5.92                    -10.6071         177.132
5.94                    -10.6234         164.167
5.96                    -10.5676         150.329
5.98                    -10.3506          135.63
6                        -9.9878         119.252
6.02                    -9.56746         101.168
6.04                     -9.0397         80.9611
6.06                    -8.51454         56.7956
6.08                    -8.35084         27.7057
6.1                      -8.8247        -6.11652
6.12                    -10.0231        -44.8845
6.14                    -11.7589        -89.1907
6.16                    -13.1412        -137.455
6.18                    -12.7811         176.022
6.2                     -10.7505         131.951
6.22                    -8.80395         85.2074
6.24                    -8.39441         33.7136
6.26                    -10.2918        -24.9461
6.28                     -14.298        -102.053
6.3                     -14.9537         164.285
6.32                    -12.9594         107.919
6.34                    -11.1317         77.3479
6.36                    -9.50954         47.2379
6.38                     -10.243         15.2237
6.4                     -13.7343         8.08287
6.42                    -10.3055         19.1145
6.44                    -6.49582        -14.4579
6.46                    -5.94097        -60.1999
6.48                    -7.58809        -104.876
6.5                     -9.02916        -139.784
