! TOUCHSTONE file generated by CST MICROWAVE STUDIO
! Date and time: Sat Oct 29 11:03:16 2022
! Project name: L.cst
! Parameters = {Di=1.27; Epsilon_r=1.56; InnerDiameter=1.27; Length=2; Lf=10; Lg=60; OuterConductorThickness=0.2921; OuterDiameter=3.6; Wf=3; Wp=41.2; de=1.5; df=6.8; g=0.8; gx=4.17117; gy=0.47815; h=2.34; hf=1.524; px=11.9415; py=10.1204; w=9.7; wx=7.7703; wy=9.64224}
! Header version: 2018
! Port assignment regex: !\s*Touchstone port\s*([0-9]+)\s*=\s*(CST MWS port|CST DS port)\s*([0-9]+|Zmin|Zmax)\s*\(\"(.*)\"\)(\s*mode\s*([0-9]+))?.*
! Touchstone port assignment:
! Touchstone port 1 = CST MWS port 1 ("")
# GHz S DB R 50
4.5                    -0.736965         70.7571
4.52                    -0.77027          68.526
4.54                    -0.81047         66.2586
4.56                   -0.856018         63.9631
4.58                   -0.905048         61.6421
4.6                    -0.955698          59.293
4.62                    -1.00638         56.9085
4.64                      -1.056         54.4782
4.66                    -1.10403         51.9894
4.68                    -1.15053         49.4297
4.7                     -1.19608         46.7877
4.72                    -1.24162         44.0542
4.74                    -1.28828         41.2225
4.76                    -1.33718         38.2891
4.78                    -1.38934         35.2524
4.8                     -1.44548         32.1128
4.82                    -1.50603         28.8717
4.84                    -1.57109         25.5306
4.86                    -1.64043         22.0907
4.88                     -1.7136         18.5518
4.9                     -1.78996         14.9125
4.92                    -1.86878           11.17
4.94                    -1.94937         7.32003
4.96                    -2.03107         3.35732
4.98                    -2.11338          -0.724
5                       -2.19594        -4.92979
5.02                    -2.27855        -9.26535
5.04                    -2.36116        -13.7349
5.06                    -2.44381         -18.341
5.08                    -2.52661        -23.0843
5.1                     -2.60969        -27.9634
5.12                    -2.69314        -32.9745
5.14                    -2.77701        -38.1113
5.16                    -2.86125        -43.3656
5.18                    -2.94574         -48.727
5.2                     -3.03031        -54.1831
5.22                    -3.11469        -59.7201
5.24                    -3.19864        -65.3227
5.26                    -3.28191        -70.9742
5.28                     -3.3643        -76.6577
5.3                      -3.4457         -82.355
5.32                    -3.52609        -88.0479
5.34                    -3.60557        -93.7179
5.36                    -3.68434        -99.3468
5.38                    -3.76268        -104.916
5.4                     -3.84094        -110.408
5.42                    -3.91947        -115.806
5.44                    -3.99854        -121.094
5.46                    -4.07834        -126.255
5.48                    -4.15885        -131.276
5.5                     -4.23981        -136.145
5.52                    -4.32068        -140.851
5.54                    -4.40059        -145.387
5.56                    -4.47841        -149.749
5.58                    -4.55276        -153.935
5.6                     -4.62213        -157.952
5.62                    -4.68505        -161.806
5.64                     -4.7403        -165.513
5.66                    -4.78708         -169.09
5.68                    -4.82528        -172.559
5.7                     -4.85562        -175.943
5.72                    -4.87977        -179.265
5.74                     -4.9003         177.454
5.76                    -4.92064         174.199
5.78                    -4.94484          170.96
5.8                     -4.97731         167.734
5.82                    -5.02249         164.528
5.84                     -5.0845         161.358
5.86                    -5.16676         158.248
5.88                    -5.27164         155.231
5.9                     -5.40003         152.345
5.92                    -5.55097         149.635
5.94                    -5.72123         147.147
5.96                    -5.90499         144.924
5.98                    -6.09369         143.001
6                       -6.27617         141.395
6.02                    -6.43946           140.1
6.04                    -6.57022         139.078
6.06                    -6.65687         138.256
6.08                    -6.69199         137.533
6.1                     -6.67422         136.792
6.12                    -6.60889         135.919
6.14                    -6.50721         134.823
6.16                    -6.38414         133.447
6.18                    -6.25586         131.778
6.2                     -6.13743         129.836
6.22                    -6.04107         127.677
6.24                    -5.97497         125.377
6.26                    -5.94246         123.028
6.28                    -5.94142         120.724
6.3                     -5.96377         118.556
6.32                    -5.99529         116.593
6.34                    -6.01614         114.866
6.36                    -6.00299          113.35
6.38                    -5.93293         111.943
6.4                       -5.789         110.474
6.42                    -5.56541         108.722
6.44                    -5.27002         106.458
6.46                    -4.92269         103.485
6.48                    -4.55063         99.6681
6.5                     -4.18294         94.9355
