! TOUCHSTONE file generated by CST MICROWAVE STUDIO
! Date and time: Thu Oct 27 00:35:58 2022
! Project name: L.cst
! Parameters = {Di=1.27; Epsilon_r=1.56; InnerDiameter=1.27; Length=2; Lf=10; Lg=60; OuterConductorThickness=0.2921; OuterDiameter=3.6; Wf=3; Wp=41.2; de=1.5; df=6.8; g=0.8; gx=1.68829; gy=1.67252; h=2.34; hf=1.524; px=11.066; py=9.87305; w=9.7; wx=9.37774; wy=8.20053}
! Header version: 2018
! Port assignment regex: !\s*Touchstone port\s*([0-9]+)\s*=\s*(CST MWS port|CST DS port)\s*([0-9]+|Zmin|Zmax)\s*\(\"(.*)\"\)(\s*mode\s*([0-9]+))?.*
! Touchstone port assignment:
! Touchstone port 1 = CST MWS port 1 ("")
# GHz S DB R 50
4.5                     -1.30041         66.7758
4.52                    -1.36795         64.7866
4.54                    -1.43664          62.762
4.56                    -1.50677         60.6988
4.58                    -1.57867         58.5939
4.6                     -1.65271          56.445
4.62                    -1.72927         54.2499
4.64                    -1.80875         52.0069
4.66                    -1.89154         49.7145
4.68                      -1.978         47.3716
4.7                     -2.06852         44.9774
4.72                     -2.1634         42.5312
4.74                    -2.26296         40.0327
4.76                    -2.36747         37.4816
4.78                    -2.47717         34.8775
4.8                     -2.59225         32.2206
4.82                    -2.71286         29.5107
4.84                    -2.83913         26.7479
4.86                    -2.97113         23.9321
4.88                    -3.10889         21.0632
4.9                     -3.25241         18.1413
4.92                    -3.40164         15.1662
4.94                     -3.5565         12.1378
4.96                    -3.71683         9.05594
4.98                    -3.88248         5.92042
5                       -4.05321         2.73101
5.02                    -4.22875       -0.512508
5.04                     -4.4088        -3.81036
5.06                    -4.59299        -7.16271
5.08                     -4.7809        -10.5697
5.1                     -4.97209        -14.0313
5.12                    -5.16604        -17.5473
5.14                     -5.3622        -21.1175
5.16                    -5.55997        -24.7413
5.18                    -5.75869        -28.4178
5.2                     -5.95769        -32.1457
5.22                    -6.15624        -35.9235
5.24                    -6.35358        -39.7491
5.26                    -6.54894        -43.6197
5.28                    -6.74154        -47.5324
5.3                     -6.93058        -51.4834
5.32                     -7.1153        -55.4681
5.34                    -7.29494        -59.4816
5.36                     -7.4688         -63.518
5.38                    -7.63623        -67.5712
5.4                     -7.79665        -71.6341
5.42                    -7.94958        -75.6994
5.44                     -8.0946        -79.7591
5.46                    -8.23144        -83.8052
5.48                     -8.3599        -87.8291
5.5                     -8.47993        -91.8225
5.52                    -8.59156        -95.7768
5.54                    -8.69495        -99.6837
5.56                    -8.79034        -103.535
5.58                    -8.87805        -107.323
5.6                     -8.95848        -111.041
5.62                    -9.03208        -114.682
5.64                    -9.09933         -118.24
5.66                    -9.16072        -121.709
5.68                    -9.21675        -125.084
5.7                     -9.26789         -128.36
5.72                    -9.31458        -131.535
5.74                     -9.3572        -134.605
5.76                    -9.39609        -137.567
5.78                     -9.4315        -140.419
5.8                     -9.46361         -143.16
5.82                     -9.4925        -145.788
5.84                    -9.51818        -148.303
5.86                    -9.54057        -150.705
5.88                    -9.55947        -152.994
5.9                     -9.57462        -155.171
5.92                    -9.58567        -157.238
5.94                    -9.59218        -159.196
5.96                    -9.59366        -161.049
5.98                    -9.58956          -162.8
6                       -9.57929        -164.452
6.02                    -9.56224        -166.011
6.04                    -9.53777        -167.481
6.06                    -9.50529         -168.87
6.08                    -9.46422        -170.184
6.1                     -9.41406         -171.43
6.12                    -9.35434        -172.617
6.14                    -9.28473        -173.752
6.16                    -9.20498        -174.846
6.18                    -9.11496        -175.906
6.2                     -9.01467        -176.943
6.22                    -8.90423        -177.964
6.24                    -8.78388         -178.98
6.26                    -8.65399        -179.998
6.28                    -8.51503         178.972
6.3                     -8.36755         177.924
6.32                    -8.21219         176.851
6.34                    -8.04966         175.745
6.36                    -7.88069         174.602
6.38                    -7.70607         173.416
6.4                     -7.52657         172.182
6.42                    -7.34301         170.896
6.44                    -7.15615         169.555
6.46                    -6.96678         168.157
6.48                    -6.77566         166.697
6.5                     -6.58353         165.173
