! TOUCHSTONE file generated by CST MICROWAVE STUDIO
! Date and time: Sat Oct 29 00:21:23 2022
! Project name: L.cst
! Parameters = {Di=1.27; Epsilon_r=1.56; InnerDiameter=1.27; Length=2; Lf=10; Lg=60; OuterConductorThickness=0.2921; OuterDiameter=3.6; Wf=3; Wp=41.2; de=1.5; df=6.8; g=0.8; gx=4.89098; gy=1.57449; h=2.34; hf=1.524; px=12.7382; py=8.55238; w=9.7; wx=7.84725; wy=6.97789}
! Header version: 2018
! Port assignment regex: !\s*Touchstone port\s*([0-9]+)\s*=\s*(CST MWS port|CST DS port)\s*([0-9]+|Zmin|Zmax)\s*\(\"(.*)\"\)(\s*mode\s*([0-9]+))?.*
! Touchstone port assignment:
! Touchstone port 1 = CST MWS port 1 ("")
# GHz S DB R 50
4.5                    -0.534589         84.0596
4.52                    -0.56387         82.2473
4.54                   -0.594646         80.4187
4.56                   -0.626577         78.5726
4.58                   -0.659369         76.7073
4.6                    -0.692776         74.8209
4.62                   -0.726602         72.9114
4.64                   -0.760702         70.9764
4.66                   -0.794985         69.0137
4.68                   -0.829398         67.0209
4.7                    -0.863939         64.9957
4.72                   -0.898641         62.9358
4.74                   -0.933567         60.8391
4.76                   -0.968809         58.7036
4.78                    -1.00448         56.5275
4.8                      -1.0407         54.3092
4.82                     -1.0776         52.0473
4.84                    -1.11533         49.7404
4.86                    -1.15402         47.3876
4.88                    -1.19378          44.988
4.9                     -1.23475          42.541
4.92                    -1.27701          40.046
4.94                    -1.32066         37.5027
4.96                    -1.36575          34.911
4.98                    -1.41233         32.2709
5                       -1.46042         29.5824
5.02                       -1.51         26.8458
5.04                    -1.56106         24.0616
5.06                    -1.61353         21.2302
5.08                    -1.66733         18.3523
5.1                     -1.72237         15.4286
5.12                    -1.77851           12.46
5.14                    -1.83561         9.44759
5.16                    -1.89349         6.39242
5.18                    -1.95196          3.2958
5.2                     -2.01084        0.159137
5.22                    -2.06988        -3.01601
5.24                    -2.12887        -6.22792
5.26                    -2.18757        -9.47466
5.28                    -2.24572        -12.7544
5.3                     -2.30308        -16.0647
5.32                    -2.35941        -19.4034
5.34                    -2.41445        -22.7679
5.36                    -2.46797        -26.1555
5.38                    -2.51974        -29.5634
5.4                     -2.56956        -32.9886
5.42                    -2.61722        -36.4279
5.44                    -2.66254         -39.878
5.46                    -2.70537        -43.3358
5.48                    -2.74559        -46.7975
5.5                     -2.78308        -50.2599
5.52                    -2.81777        -53.7192
5.54                    -2.84961        -57.1719
5.56                    -2.87858        -60.6144
5.58                    -2.90467        -64.0432
5.6                     -2.92793        -67.4547
5.62                     -2.9484        -70.8455
5.64                    -2.96615        -74.2124
5.66                     -2.9813        -77.5521
5.68                    -2.99393        -80.8615
5.7                     -3.00419        -84.1378
5.72                     -3.0122        -87.3783
5.74                    -3.01809        -90.5805
5.76                    -3.02202        -93.7418
5.78                    -3.02413        -96.8604
5.8                     -3.02454        -99.9343
5.82                     -3.0234        -102.962
5.84                    -3.02082        -105.942
5.86                    -3.01691        -108.872
5.88                    -3.01178        -111.753
5.9                     -3.00551        -114.583
5.92                    -2.99816        -117.361
5.94                    -2.98979        -120.088
5.96                    -2.98044        -122.763
5.98                    -2.97015        -125.387
6                       -2.95892         -127.96
6.02                    -2.94676        -130.483
6.04                    -2.93368        -132.956
6.06                    -2.91967         -135.38
6.08                    -2.90474        -137.758
6.1                     -2.88888         -140.09
6.12                    -2.87211        -142.378
6.14                    -2.85446        -144.624
6.16                    -2.83596        -146.831
6.18                    -2.81669        -148.999
6.2                     -2.79672        -151.132
6.22                    -2.77619        -153.231
6.24                    -2.75524        -155.298
6.26                    -2.73404        -157.336
6.28                    -2.71282        -159.347
6.3                     -2.69181        -161.333
6.32                     -2.6713        -163.294
6.34                    -2.65158        -165.233
6.36                    -2.63299         -167.15
6.38                    -2.61585        -169.047
6.4                     -2.60051        -170.922
6.42                    -2.58732        -172.777
6.44                     -2.5766         -174.61
6.46                    -2.56866        -176.419
6.48                    -2.56373        -178.204
6.5                     -2.56201        -179.961
