! TOUCHSTONE file generated by CST MICROWAVE STUDIO
! Date and time: Sat Oct 29 05:54:52 2022
! Project name: L.cst
! Parameters = {Di=1.27; Epsilon_r=1.56; InnerDiameter=1.27; Length=2; Lf=10; Lg=60; OuterConductorThickness=0.2921; OuterDiameter=3.6; Wf=3; Wp=41.2; de=1.5; df=6.8; g=0.8; gx=0.652297; gy=3.74101; h=2.34; hf=1.524; px=8.76171; py=9.22722; w=9.7; wx=8.10941; wy=5.48621}
! Header version: 2018
! Port assignment regex: !\s*Touchstone port\s*([0-9]+)\s*=\s*(CST MWS port|CST DS port)\s*([0-9]+|Zmin|Zmax)\s*\(\"(.*)\"\)(\s*mode\s*([0-9]+))?.*
! Touchstone port assignment:
! Touchstone port 1 = CST MWS port 1 ("")
# GHz S DB R 50
4.5                    -0.632463         88.5306
4.52                   -0.655938         86.9911
4.54                   -0.680539         85.4383
4.56                   -0.706262         83.8725
4.58                   -0.733098         82.2937
4.6                    -0.761033         80.7018
4.62                   -0.790055         79.0969
4.64                   -0.820153         77.4786
4.66                    -0.85132          75.847
4.68                   -0.883553         74.2017
4.7                    -0.916853         72.5424
4.72                    -0.95123          70.869
4.74                   -0.986696         69.1811
4.76                    -1.02327         67.4783
4.78                    -1.06099         65.7603
4.8                     -1.09988         64.0269
4.82                    -1.13998         62.2778
4.84                    -1.18133         60.5126
4.86                      -1.224         58.7313
4.88                    -1.26801         56.9334
4.9                     -1.31345         55.1189
4.92                    -1.36035         53.2877
4.94                     -1.4088         51.4396
4.96                    -1.45884         49.5745
4.98                    -1.51055         47.6926
5                       -1.56398         45.7937
5.02                     -1.6192         43.8779
5.04                    -1.67628         41.9455
5.06                    -1.73527         39.9964
5.08                    -1.79624          38.031
5.1                     -1.85925         36.0495
5.12                    -1.92434         34.0521
5.14                    -1.99157         32.0391
5.16                      -2.061         30.0109
5.18                    -2.13267          27.968
5.2                     -2.20662         25.9107
5.22                     -2.2829         23.8395
5.24                    -2.36154         21.7549
5.26                    -2.44258         19.6576
5.28                    -2.52605         17.5479
5.3                     -2.61198         15.4266
5.32                     -2.7004         13.2943
5.34                    -2.79132         11.1517
5.36                    -2.88476         8.99952
5.38                    -2.98075         6.83858
5.4                     -3.07928         4.66966
5.42                    -3.18038         2.49364
5.44                    -3.28405         0.31142
5.46                    -3.39029        -1.87605
5.48                    -3.49911        -4.06776
5.5                     -3.61049        -6.26266
5.52                    -3.72443        -8.45965
5.54                    -3.84093        -10.6575
5.56                    -3.95996        -12.8551
5.58                    -4.08152        -15.0511
5.6                     -4.20557        -17.2442
5.62                    -4.33209        -19.4329
5.64                    -4.46105        -21.6157
5.66                    -4.59241        -23.7912
5.68                    -4.72613        -25.9576
5.7                     -4.86215        -28.1133
5.72                    -5.00042        -30.2564
5.74                    -5.14087        -32.3852
5.76                    -5.28341        -34.4976
5.78                    -5.42796        -36.5917
5.8                     -5.57442        -38.6653
5.82                    -5.72267        -40.7163
5.84                    -5.87257        -42.7424
5.86                    -6.02398        -44.7412
5.88                    -6.17673        -46.7104
5.9                     -6.33061        -48.6474
5.92                    -6.48542        -50.5498
5.94                     -6.6409         -52.415
5.96                    -6.79679        -54.2404
5.98                    -6.95276        -56.0233
6                       -7.10848        -57.7613
6.02                    -7.26355        -59.4516
6.04                    -7.41756        -61.0918
6.06                    -7.57002        -62.6796
6.08                    -7.72041        -64.2125
6.1                     -7.86817        -65.6885
6.12                    -8.01268        -67.1058
6.14                    -8.15325        -68.4627
6.16                    -8.28916         -69.758
6.18                    -8.41963        -70.9909
6.2                     -8.54385         -72.161
6.22                    -8.66095        -73.2686
6.24                    -8.77002        -74.3144
6.26                    -8.87013           -75.3
6.28                    -8.96036        -76.2279
6.3                     -9.03974        -77.1009
6.32                    -9.10735        -77.9233
6.34                     -9.1623        -78.6999
6.36                    -9.20373        -79.4364
6.38                    -9.23086        -80.1398
6.4                     -9.24301        -80.8174
6.42                     -9.2396        -81.4779
6.44                    -9.22018        -82.1303
6.46                    -9.18445        -82.7844
6.48                    -9.13227        -83.4506
6.5                     -9.06365        -84.1397
