! TOUCHSTONE file generated by CST MICROWAVE STUDIO
! Date and time: Fri Oct 28 03:36:00 2022
! Project name: L.cst
! Parameters = {Di=1.27; Epsilon_r=1.56; InnerDiameter=1.27; Length=2; Lf=10; Lg=60; OuterConductorThickness=0.2921; OuterDiameter=3.6; Wf=3; Wp=41.2; de=1.5; df=6.8; g=0.8; gx=1.90827; gy=0.888107; h=2.34; hf=1.524; px=14.5161; py=11.1278; w=9.7; wx=12.6078; wy=10.2397}
! Header version: 2018
! Port assignment regex: !\s*Touchstone port\s*([0-9]+)\s*=\s*(CST MWS port|CST DS port)\s*([0-9]+|Zmin|Zmax)\s*\(\"(.*)\"\)(\s*mode\s*([0-9]+))?.*
! Touchstone port assignment:
! Touchstone port 1 = CST MWS port 1 ("")
# GHz S DB R 50
4.5                     -19.3691         95.5084
4.52                     -18.771         109.095
4.54                     -17.795         117.708
4.56                    -16.6116         124.163
4.58                    -15.6264         127.726
4.6                      -14.613         129.663
4.62                    -13.8232         130.773
4.64                    -13.0727         130.646
4.66                    -12.4566         130.504
4.68                    -11.9243          129.48
4.7                     -11.4482         128.597
4.72                      -11.08         127.203
4.74                    -10.7251         125.844
4.76                     -10.478         124.306
4.78                    -10.2365          122.64
4.8                     -10.0833         121.051
4.82                    -9.95172         119.215
4.84                    -9.88173         117.602
4.86                    -9.85937         115.731
4.88                    -9.87591         114.112
4.9                     -9.96731         112.351
4.92                    -10.0873         110.795
4.94                    -10.3053         109.331
4.96                    -10.5597          108.05
4.98                    -10.9258         107.217
5                       -11.3554         106.731
5.02                    -11.8879         107.281
5.04                     -12.499         108.805
5.06                     -13.112         112.372
5.08                    -13.6453         118.076
5.1                     -13.7802         126.087
5.12                     -13.375         134.903
5.14                    -12.3603         141.735
5.16                    -11.0475         145.398
5.18                    -9.73415         145.346
5.2                     -8.59088         142.832
5.22                    -7.74067         138.507
5.24                    -7.15449         133.391
5.26                     -6.8679         128.023
5.28                    -6.80157         122.825
5.3                     -6.97983         118.256
5.32                    -7.33616         114.407
5.34                    -7.88506         111.989
5.36                    -8.57035          111.13
5.38                     -9.2889         113.037
5.4                     -9.87202         117.715
5.42                    -9.92673         124.907
5.44                    -9.38369         132.023
5.46                    -8.30445         136.264
5.48                    -7.11971         137.502
5.5                     -6.02414          135.59
5.52                    -5.10485         132.404
5.54                    -4.45791         127.677
5.56                    -3.97252         122.515
5.58                    -4.22342         117.801
5.6                     -3.87667         120.304
5.62                    -2.92154         115.512
5.64                    -2.66378         110.182
5.66                    -2.44732         105.227
5.68                    -2.33746         100.825
5.7                     -2.23719         96.1674
5.72                    -2.16705         91.6883
5.74                    -2.13117         86.7053
5.76                    -2.11888         81.4312
5.78                    -2.19895         75.3758
5.8                     -2.36818         68.5691
5.82                    -2.72338         60.6871
5.84                    -3.29971         51.1773
5.86                     -4.3386         38.8994
5.88                    -6.34639         21.0521
5.9                     -11.0775        -10.8335
5.92                    -16.7409        -124.665
5.94                    -7.93527         163.634
5.96                    -4.38169         134.964
5.98                     -2.9412         116.623
6                       -2.32328         103.847
6.02                    -2.04143         94.1211
6.04                     -1.9234         86.3773
6.06                    -1.89533         79.6913
6.08                     -1.9074         73.7824
6.1                     -1.97033         68.2378
6.12                    -2.04664         62.7791
6.14                    -2.17413          57.272
6.16                     -2.4787         50.6164
6.18                    -3.12648         46.6308
6.2                     -3.31903         42.7183
6.22                    -3.84495         36.8655
6.24                    -4.61232         31.3056
6.26                    -5.84864         26.7636
6.28                    -7.51237         24.7225
6.3                     -9.60574         29.8595
6.32                    -11.0105         45.1181
6.34                    -10.0769         63.1939
6.36                    -8.04734         70.6611
6.38                    -6.14496          69.896
6.4                     -4.79574         65.7932
6.42                    -3.80554         59.8817
6.44                    -3.12142          53.926
6.46                    -2.63595         47.4375
6.48                    -2.27333         41.3904
6.5                     -2.04538         35.0199
