! TOUCHSTONE file generated by CST MICROWAVE STUDIO
! Date and time: Thu Oct 27 11:08:24 2022
! Project name: L.cst
! Parameters = {Di=1.27; Epsilon_r=1.56; InnerDiameter=1.27; Length=2; Lf=10; Lg=60; OuterConductorThickness=0.2921; OuterDiameter=3.6; Wf=3; Wp=41.2; de=1.5; df=6.8; g=0.8; gx=1.98646; gy=4.72204; h=2.34; hf=1.524; px=10.9304; py=12.5756; w=9.7; wx=8.94392; wy=7.85352}
! Header version: 2018
! Port assignment regex: !\s*Touchstone port\s*([0-9]+)\s*=\s*(CST MWS port|CST DS port)\s*([0-9]+|Zmin|Zmax)\s*\(\"(.*)\"\)(\s*mode\s*([0-9]+))?.*
! Touchstone port assignment:
! Touchstone port 1 = CST MWS port 1 ("")
# GHz S DB R 50
4.5                    -0.482552         94.5022
4.52                    -0.49798         93.0431
4.54                   -0.513996         91.5729
4.56                   -0.530614         90.0916
4.58                   -0.547834         88.5993
4.6                    -0.565656         87.0959
4.62                   -0.584077         85.5815
4.64                   -0.603095          84.056
4.66                   -0.622704         82.5193
4.68                   -0.642901         80.9713
4.7                    -0.663683         79.4118
4.72                    -0.68505         77.8408
4.74                      -0.707         76.2581
4.76                   -0.729538         74.6635
4.78                   -0.752668         73.0568
4.8                      -0.7764          71.438
4.82                   -0.800743         69.8067
4.84                    -0.82571         68.1629
4.86                   -0.851319         66.5064
4.88                   -0.877585          64.837
4.9                    -0.904529         63.1547
4.92                   -0.932174         61.4592
4.94                   -0.960542         59.7506
4.96                   -0.989655         58.0288
4.98                    -1.01954         56.2936
5                       -1.05023         54.5451
5.02                    -1.08174         52.7833
5.04                     -1.1141         51.0081
5.06                    -1.14734         49.2197
5.08                    -1.18148          47.418
5.1                     -1.21655         45.6032
5.12                    -1.25257         43.7754
5.14                    -1.28956         41.9347
5.16                    -1.32756         40.0813
5.18                    -1.36658         38.2153
5.2                     -1.40663          36.337
5.22                    -1.44774         34.4466
5.24                    -1.48993         32.5443
5.26                     -1.5332         30.6305
5.28                    -1.57758         28.7054
5.3                     -1.62308         26.7693
5.32                     -1.6697         24.8226
5.34                    -1.71745         22.8657
5.36                    -1.76634         20.8989
5.38                    -1.81639         18.9226
5.4                     -1.86758         16.9373
5.42                    -1.91992         14.9435
5.44                    -1.97341         12.9415
5.46                    -2.02806         10.9319
5.48                    -2.08385         8.91524
5.5                     -2.14079         6.89204
5.52                    -2.19886         4.86284
5.54                    -2.25807         2.82826
5.56                    -2.31839        0.788884
5.58                    -2.37982        -1.25464
5.6                     -2.44235        -3.30166
5.62                    -2.50595         -5.3515
5.64                    -2.57062        -7.40345
5.66                    -2.63633        -9.45679
5.68                    -2.70306        -11.5108
5.7                     -2.77078        -13.5646
5.72                    -2.83947        -15.6176
5.74                    -2.90909        -17.6688
5.76                    -2.97962        -19.7174
5.78                    -3.05101        -21.7626
5.8                     -3.12323        -23.8036
5.82                    -3.19622        -25.8394
5.84                    -3.26993        -27.8693
5.86                    -3.34432        -29.8922
5.88                    -3.41932        -31.9073
5.9                     -3.49485        -33.9137
5.92                    -3.57086        -35.9105
5.94                    -3.64725        -37.8969
5.96                    -3.72394         -39.872
5.98                    -3.80085        -41.8349
6                       -3.87785         -43.785
6.02                    -3.95486        -45.7213
6.04                    -4.03174        -47.6433
6.06                    -4.10838        -49.5503
6.08                    -4.18465        -51.4417
6.1                     -4.26041        -53.3171
6.12                    -4.33551        -55.1762
6.14                     -4.4098        -57.0186
6.16                    -4.48314        -58.8442
6.18                    -4.55537        -60.6531
6.2                     -4.62633        -62.4454
6.22                    -4.69588        -64.2215
6.24                    -4.76387        -65.9818
6.26                    -4.83016        -67.7271
6.28                    -4.89463        -69.4582
6.3                     -4.95716        -71.1764
6.32                    -5.01767        -72.8829
6.34                    -5.07609        -74.5791
6.36                     -5.1324        -76.2669
6.38                    -5.18659         -77.948
6.4                     -5.23872        -79.6247
6.42                    -5.28888        -81.2991
6.44                     -5.3372        -82.9735
6.46                    -5.38391        -84.6506
6.48                    -5.42925        -86.3327
6.5                     -5.47357        -88.0224
