! TOUCHSTONE file generated by CST MICROWAVE STUDIO
! Date and time: Fri Oct 28 12:00:45 2022
! Project name: L.cst
! Parameters = {Di=1.27; Epsilon_r=1.56; InnerDiameter=1.27; Length=2; Lf=10; Lg=60; OuterConductorThickness=0.2921; OuterDiameter=3.6; Wf=3; Wp=41.2; de=1.5; df=6.8; g=0.8; gx=4.14183; gy=1.19934; h=2.34; hf=1.524; px=14.0512; py=11.573; w=9.7; wx=9.9094; wy=10.3736}
! Header version: 2018
! Port assignment regex: !\s*Touchstone port\s*([0-9]+)\s*=\s*(CST MWS port|CST DS port)\s*([0-9]+|Zmin|Zmax)\s*\(\"(.*)\"\)(\s*mode\s*([0-9]+))?.*
! Touchstone port assignment:
! Touchstone port 1 = CST MWS port 1 ("")
# GHz S DB R 50
4.5                     -1.40214          65.329
4.52                    -1.49399         62.7133
4.54                    -1.59536         60.0504
4.56                    -1.70431         57.3418
4.58                    -1.81896         54.5824
4.6                     -1.93783         51.7614
4.62                    -2.06007         48.8639
4.64                     -2.1856         45.8733
4.66                    -2.31505         42.7732
4.68                     -2.4496         39.5492
4.7                     -2.59083         36.1897
4.72                     -2.7404         32.6865
4.74                    -2.89985         29.0345
4.76                    -3.07038         25.2311
4.78                    -3.25277         21.2752
4.8                     -3.44726         17.1659
4.82                    -3.65354         12.9019
4.84                    -3.87081          8.4806
4.86                    -4.09783         3.89753
4.88                    -4.33298       -0.853672
4.9                     -4.57434        -5.78099
4.92                    -4.81976        -10.8934
4.94                    -5.06688        -16.2001
4.96                    -5.31315         -21.709
4.98                    -5.55584        -27.4257
5                       -5.79203        -33.3519
5.02                    -6.01859        -39.4841
5.04                    -6.23227        -45.8125
5.06                    -6.42973        -52.3201
5.08                    -6.60771        -58.9823
5.1                     -6.76319        -65.7669
5.12                    -6.89363        -72.6354
5.14                    -6.99716        -79.5447
5.16                    -7.07272        -86.4484
5.18                    -7.12022        -93.3005
5.2                      -7.1405        -100.057
5.22                    -7.13527        -106.678
5.24                    -7.10695        -113.132
5.26                    -7.05847        -119.391
5.28                    -6.99312        -125.438
5.3                      -6.9143        -131.261
5.32                     -6.8254        -136.853
5.34                    -6.72969        -142.214
5.36                    -6.63015        -147.346
5.38                    -6.52947        -152.253
5.4                      -6.4299         -156.94
5.42                    -6.33324        -161.413
5.44                    -6.24077        -165.677
5.46                    -6.15322        -169.736
5.48                    -6.07076        -173.598
5.5                     -5.99304        -177.267
5.52                    -5.91925         179.248
5.54                    -5.84826         175.937
5.56                    -5.77875          172.79
5.58                    -5.70941         169.789
5.6                     -5.63915          166.92
5.62                    -5.56727         164.161
5.64                     -5.4936         161.495
5.66                    -5.41856         158.901
5.68                     -5.3431         156.363
5.7                     -5.26863         153.868
5.72                    -5.19678         151.407
5.74                    -5.12922         148.976
5.76                     -5.0674         146.574
5.78                    -5.01233         144.206
5.8                     -4.96448         141.876
5.82                    -4.92366         139.591
5.84                     -4.8891         137.356
5.86                    -4.85959         135.173
5.88                    -4.83367         133.041
5.9                     -4.80998         130.953
5.92                    -4.78753           128.9
5.94                    -4.76597          126.87
5.96                    -4.74578         124.851
5.98                    -4.72827         122.833
6                       -4.71538          120.81
6.02                    -4.70933         118.786
6.04                    -4.71214         116.771
6.06                    -4.72501         114.784
6.08                    -4.74773         112.849
6.1                     -4.77815         110.994
6.12                    -4.81183         109.242
6.14                    -4.84205         107.607
6.16                    -4.86033         106.084
6.18                    -4.85755         104.642
6.2                     -4.82568         103.223
6.22                    -4.75993         101.741
6.24                    -4.66052         100.091
6.26                    -4.53378         98.1699
6.28                     -4.3919         95.8841
6.3                     -4.25178         93.1688
6.32                    -4.13319         89.9933
6.34                    -4.05712         86.3618
6.36                     -4.0446         82.3114
6.38                     -4.1162         77.9087
6.4                     -4.29205         73.2491
6.42                    -4.59226         68.4603
6.44                    -5.03738         63.7134
6.46                    -5.64841         59.2454
6.48                    -6.44504         55.3993
6.5                     -7.43902         52.6919
