! TOUCHSTONE file generated by CST MICROWAVE STUDIO
! Date and time: Sat Oct 29 18:32:20 2022
! Project name: L.cst
! Parameters = {Di=1.27; Epsilon_r=1.56; InnerDiameter=1.27; Length=2; Lf=10; Lg=60; OuterConductorThickness=0.2921; OuterDiameter=3.6; Wf=3; Wp=41.2; de=1.5; df=6.8; g=0.8; gx=2.0853; gy=2.12043; h=2.34; hf=1.524; px=11.0195; py=9.50209; w=9.7; wx=8.93415; wy=7.38167}
! Header version: 2018
! Port assignment regex: !\s*Touchstone port\s*([0-9]+)\s*=\s*(CST MWS port|CST DS port)\s*([0-9]+|Zmin|Zmax)\s*\(\"(.*)\"\)(\s*mode\s*([0-9]+))?.*
! Touchstone port assignment:
! Touchstone port 1 = CST MWS port 1 ("")
# GHz S DB R 50
4.5                    -0.830534          75.177
4.52                   -0.872518         73.3581
4.54                    -0.91568          71.522
4.56                   -0.959876         69.6669
4.58                    -1.00501         67.7912
4.6                     -1.05102         65.8929
4.62                     -1.0979         63.9702
4.64                    -1.14568         62.0213
4.66                     -1.1944         60.0444
4.68                    -1.24416         58.0378
4.7                     -1.29506         56.0001
4.72                    -1.34723         53.9298
4.74                    -1.40079         51.8259
4.76                    -1.45591         49.6871
4.78                    -1.51272         47.5126
4.8                     -1.57137         45.3016
4.82                      -1.632         43.0535
4.84                    -1.69474         40.7677
4.86                    -1.75973          38.444
4.88                    -1.82706          36.082
4.9                     -1.89683         33.6817
4.92                    -1.96912          31.243
4.94                    -2.04399         28.7659
4.96                    -2.12148         26.2505
4.98                    -2.20162          23.697
5                       -2.28439         21.1057
5.02                     -2.3698         18.4768
5.04                     -2.4578         15.8108
5.06                    -2.54832         13.1079
5.08                    -2.64131         10.3686
5.1                     -2.73665         7.59357
5.12                    -2.83424         4.78322
5.14                    -2.93393         1.93821
5.16                    -3.03559       -0.940785
5.18                    -3.13904        -3.85301
5.2                      -3.2441        -6.79763
5.22                    -3.35057        -9.77374
5.24                    -3.45825        -12.7803
5.26                     -3.5669        -15.8163
5.28                     -3.6763        -18.8804
5.3                      -3.7862        -21.9715
5.32                    -3.89636        -25.0879
5.34                    -4.00652        -28.2282
5.36                    -4.11642        -31.3906
5.38                    -4.22581        -34.5733
5.4                     -4.33443        -37.7742
5.42                    -4.44203        -40.9912
5.44                    -4.54837        -44.2221
5.46                    -4.65321        -47.4644
5.48                    -4.75633        -50.7154
5.5                     -4.85751        -53.9726
5.52                    -4.95657        -57.2331
5.54                    -5.05333         -60.494
5.56                    -5.14763        -63.7522
5.58                    -5.23934        -67.0047
5.6                     -5.32835        -70.2483
5.62                    -5.41456        -73.4798
5.64                    -5.49791         -76.696
5.66                    -5.57835        -79.8937
5.68                    -5.65586        -83.0699
5.7                     -5.73043        -86.2212
5.72                    -5.80209        -89.3448
5.74                    -5.87086        -92.4376
5.76                    -5.93679        -95.4968
5.78                    -5.99994        -98.5198
5.8                     -6.06038        -101.504
5.82                    -6.11819        -104.447
5.84                    -6.17344        -107.347
5.86                    -6.22623        -110.201
5.88                    -6.27664        -113.008
5.9                     -6.32474        -115.766
5.92                    -6.37062        -118.473
5.94                    -6.41434         -121.13
5.96                    -6.45598        -123.733
5.98                    -6.49558        -126.284
6                       -6.53321         -128.78
6.02                     -6.5689        -131.222
6.04                    -6.60268         -133.61
6.06                    -6.63458        -135.944
6.08                    -6.66463        -138.223
6.1                     -6.69285        -140.449
6.12                    -6.71923        -142.621
6.14                    -6.74381        -144.741
6.16                    -6.76659         -146.81
6.18                    -6.78759        -148.827
6.2                     -6.80682        -150.795
6.22                    -6.82431        -152.715
6.24                    -6.84007        -154.587
6.26                    -6.85414        -156.412
6.28                    -6.86654        -158.192
6.3                      -6.8773        -159.927
6.32                    -6.88645        -161.619
6.34                    -6.89399        -163.269
6.36                    -6.89992        -164.876
6.38                    -6.90424        -166.442
6.4                     -6.90688        -167.966
6.42                    -6.90776         -169.45
6.44                    -6.90676        -170.893
6.46                    -6.90369        -172.296
6.48                     -6.8983        -173.659
6.5                     -6.89027        -174.981
