! TOUCHSTONE file generated by CST MICROWAVE STUDIO
! Date and time: Sun Oct 30 00:07:44 2022
! Project name: L.cst
! Parameters = {Di=1.27; Epsilon_r=1.56; InnerDiameter=1.27; Length=2; Lf=10; Lg=60; OuterConductorThickness=0.2921; OuterDiameter=3.6; Wf=3; Wp=41.2; de=1.5; df=6.8; g=0.8; gx=0.74369; gy=3.636; h=2.34; hf=1.524; px=10.1218; py=14.6884; w=9.7; wx=9.37815; wy=11.0524}
! Header version: 2018
! Port assignment regex: !\s*Touchstone port\s*([0-9]+)\s*=\s*(CST MWS port|CST DS port)\s*([0-9]+|Zmin|Zmax)\s*\(\"(.*)\"\)(\s*mode\s*([0-9]+))?.*
! Touchstone port assignment:
! Touchstone port 1 = CST MWS port 1 ("")
# GHz S DB R 50
4.5                     -1.12044         82.8031
4.52                    -1.16845         81.4276
4.54                    -1.19537         79.7411
4.56                    -1.27179         78.0197
4.58                    -1.33611         76.5609
4.6                      -1.3724         74.9047
4.62                    -1.44669         73.1303
4.64                    -1.52449         71.5841
4.66                    -1.57327           69.94
4.68                    -1.64814         68.1331
4.7                     -1.73742         66.5031
4.72                    -1.80074          64.856
4.74                    -1.87912         63.0315
4.76                    -1.97876         61.3264
4.78                    -2.05804         59.6656
4.8                     -2.14294         57.8355
4.82                    -2.25253         56.0681
4.84                    -2.34877         54.3881
4.86                    -2.44304         52.5639
4.88                    -2.56254         50.7507
4.9                     -2.67629          49.051
4.92                     -2.7825          47.244
4.94                    -2.91219         45.4052
4.96                    -3.04352         43.6914
4.98                    -3.16371         41.9144
5                       -3.30381         40.0729
5.02                    -3.45228         38.3559
5.04                    -3.58777         36.6237
5.06                    -3.73813         34.8056
5.08                    -3.90251         33.1008
5.1                     -4.05369         31.4301
5.12                     -4.2135          29.664
5.14                    -4.39145          27.991
5.16                    -4.55729         26.3992
5.18                    -4.72458         24.7134
5.2                     -4.91235         23.0919
5.22                    -5.09028         21.5937
5.24                    -5.26177         20.0135
5.26                    -5.45393         18.4605
5.28                    -5.63952         17.0633
5.3                     -5.81047         15.6046
5.32                     -6.0001         14.1276
5.34                    -6.18737         12.8251
5.36                    -6.35203         11.4879
5.38                    -6.53119         10.0774
5.4                     -6.71346         8.84192
5.42                    -6.86622         7.60337
5.44                    -7.02742          6.2276
5.46                    -7.19899         5.00471
5.48                    -7.33643         3.81586
5.5                     -7.47465         2.41943
5.52                    -7.63289         1.12678
5.54                    -7.75652      -0.0876565
5.56                    -7.87237        -1.57906
5.58                    -8.02114        -3.04302
5.6                     -8.14097        -4.37026
5.62                    -8.24395         -6.0305
5.64                    -8.39699        -7.76584
5.66                    -8.53593        -9.27557
5.68                     -8.6485        -11.1347
5.7                     -8.83359        -13.1893
5.72                    -9.03267        -14.8597
5.74                    -9.19369         -16.799
5.76                    -9.45624        -19.0377
5.78                    -9.77947        -20.5362
5.8                     -10.0376        -21.9381
5.82                    -10.4212        -23.5368
5.84                    -10.8945        -23.2845
5.86                    -11.0995        -21.7062
5.88                    -11.1784        -19.7343
5.9                     -10.6776        -14.9839
5.92                    -8.85167        -15.5834
5.94                    -7.19979        -28.6454
5.96                    -6.97561        -48.7244
5.98                    -8.38328        -69.0581
6                       -11.0669        -84.5174
6.02                    -14.3189        -94.6136
6.04                    -18.4336        -104.951
6.06                    -26.1943        -117.034
6.08                    -38.4294         62.7809
6.1                     -23.9441         53.9063
6.12                     -18.968         46.3965
6.14                    -16.5095          38.602
6.16                    -15.0223         34.7793
6.18                    -13.7547         30.7248
6.2                      -13.576         28.3137
6.22                    -12.9031         41.0366
6.24                    -8.95093         45.7495
6.26                    -5.78038         30.5498
6.28                    -4.69672         10.9169
6.3                     -5.07566        -3.15622
6.32                     -5.4679          -9.033
6.34                    -5.24188        -14.5481
6.36                    -5.28792        -21.5927
6.38                    -5.47993        -25.6331
6.4                     -5.24784        -29.3979
6.42                    -5.15905        -35.3396
6.44                    -5.33032        -39.4367
6.46                     -5.1552        -42.5588
6.48                    -4.99378        -48.0719
6.5                     -5.16638        -52.5746
