! TOUCHSTONE file generated by CST MICROWAVE STUDIO
! Date and time: Wed Oct 26 18:34:28 2022
! Project name: L.cst
! Parameters = {Di=1.27; Epsilon_r=1.56; InnerDiameter=1.27; Length=2; Lf=10; Lg=60; OuterConductorThickness=0.2921; OuterDiameter=3.6; Wf=3; Wp=41.2; de=1.5; df=6.8; g=0.8; gx=3.07418; gy=1.77726; h=2.34; hf=1.524; px=10.0496; py=13.0913; w=9.7; wx=6.97546; wy=11.314}
! Header version: 2018
! Port assignment regex: !\s*Touchstone port\s*([0-9]+)\s*=\s*(CST MWS port|CST DS port)\s*([0-9]+|Zmin|Zmax)\s*\(\"(.*)\"\)(\s*mode\s*([0-9]+))?.*
! Touchstone port assignment:
! Touchstone port 1 = CST MWS port 1 ("")
# GHz S DB R 50
4.5                    -0.566833         76.7541
4.52                   -0.571924         74.8548
4.54                   -0.614001           72.99
4.56                   -0.653739         71.3254
4.58                   -0.661688         69.6479
4.6                    -0.662739         67.7456
4.62                   -0.689952         65.7339
4.64                   -0.732534         63.8296
4.66                   -0.758196         62.0013
4.68                   -0.766018         60.0452
4.7                    -0.784113         57.9217
4.72                   -0.822404         55.7938
4.74                   -0.859429         53.7475
4.76                   -0.879213         51.6633
4.78                   -0.895771         49.4214
4.8                    -0.928044         47.0857
4.82                   -0.969911         44.7817
4.84                    -1.00217         42.4905
4.86                    -1.02387         40.0875
4.88                    -1.05224         37.5426
4.9                     -1.09415         34.9546
4.92                     -1.1363         32.3809
4.94                    -1.16762         29.7453
4.96                    -1.19658         26.9619
4.98                    -1.23653         24.0643
5                       -1.28448         21.1382
5.02                    -1.32694         18.1766
5.04                    -1.36181         15.0886
5.06                    -1.40117         11.8391
5.08                    -1.45169         8.49237
5.1                     -1.50459         5.09721
5.12                    -1.55031         1.60123
5.14                    -1.59391        -2.07282
5.16                    -1.64688        -5.91508
5.18                    -1.70939         -9.8576
5.2                     -1.77077         -13.893
5.22                     -1.8271        -18.0953
5.24                    -1.88787        -22.5128
5.26                    -1.96168         -27.102
5.28                    -2.04362        -31.8049
5.3                     -2.12366         -36.646
5.32                    -2.20293        -41.6998
5.34                    -2.29257        -46.9783
5.36                     -2.3968        -52.4138
5.38                     -2.5063        -57.9616
5.4                     -2.61204        -63.6691
5.42                    -2.71867        -69.6021
5.44                    -2.83693        -75.7406
5.46                    -2.96624        -82.0031
5.48                      -3.094        -88.3661
5.5                     -3.21356        -94.9009
5.52                    -3.33449        -101.664
5.54                    -3.46898        -108.604
5.56                    -3.61424        -115.622
5.58                    -3.75755        -122.709
5.6                     -3.89813        -129.947
5.62                    -4.05363        -137.361
5.64                    -4.23975        -144.834
5.66                    -4.45156        -152.221
5.68                    -4.67426        -159.495
5.7                     -4.91038        -166.723
5.72                    -5.18238        -173.865
5.74                    -5.50131         179.306
5.76                    -5.84316         173.016
5.78                    -6.17071         167.259
5.8                     -6.47617          161.89
5.82                    -6.77646         156.945
5.84                    -7.05632          152.68
5.86                    -7.24794         149.134
5.88                     -7.3022         145.863
5.9                     -7.25235         142.398
5.92                    -7.15133         138.782
5.94                    -6.97967         135.235
5.96                    -6.68394         131.472
5.98                    -6.29217         126.878
6                       -5.90413         121.337
6.02                    -5.56259         115.323
6.04                    -5.20759         109.097
6.06                    -4.78543         102.177
6.08                    -4.35656         93.9334
6.1                     -4.02889          84.431
6.12                    -3.81632         74.2003
6.14                    -3.62227         63.2235
6.16                    -3.39141         50.3848
6.18                    -3.24909          34.266
6.2                     -3.42781         14.2039
6.22                    -4.10098        -9.78937
6.24                    -5.27535        -37.7255
6.26                     -6.6798        -69.9483
6.28                    -7.65752         -106.03
6.3                     -7.53357        -142.503
6.32                    -6.42803        -175.102
6.34                    -5.02232         156.859
6.36                    -3.82609         132.318
6.38                    -2.99789         110.768
6.4                     -2.41311         91.8299
6.42                    -1.86318         73.8611
6.44                    -1.39664         53.9919
6.46                    -1.42883         30.1245
6.48                     -2.5779         1.51313
6.5                     -5.84717        -33.5806
