! TOUCHSTONE file generated by CST MICROWAVE STUDIO
! Date and time: Thu Oct 27 23:37:09 2022
! Project name: L.cst
! Parameters = {Di=1.27; Epsilon_r=1.56; InnerDiameter=1.27; Length=2; Lf=10; Lg=60; OuterConductorThickness=0.2921; OuterDiameter=3.6; Wf=3; Wp=41.2; de=1.5; df=6.8; g=0.8; gx=3.73047; gy=2.14013; h=2.34; hf=1.524; px=13.5829; py=10.4646; w=9.7; wx=9.8524; wy=8.32446}
! Header version: 2018
! Port assignment regex: !\s*Touchstone port\s*([0-9]+)\s*=\s*(CST MWS port|CST DS port)\s*([0-9]+|Zmin|Zmax)\s*\(\"(.*)\"\)(\s*mode\s*([0-9]+))?.*
! Touchstone port assignment:
! Touchstone port 1 = CST MWS port 1 ("")
# GHz S DB R 50
4.5                     -1.00941         76.2494
4.52                    -1.06195         74.2455
4.54                    -1.11698         72.2061
4.56                    -1.17452         70.1294
4.58                    -1.23463         68.0136
4.6                      -1.2974         65.8565
4.62                    -1.36295          63.656
4.64                    -1.43143         61.4102
4.66                      -1.503         59.1169
4.68                    -1.57785         56.7741
4.7                      -1.6562           54.38
4.72                    -1.73824         51.9326
4.74                    -1.82419         49.4302
4.76                    -1.91425         46.8712
4.78                    -2.00863         44.2538
4.8                     -2.10753         41.5765
4.82                     -2.2111         38.8378
4.84                    -2.31952         36.0363
4.86                    -2.43289         33.1705
4.88                    -2.55133         30.2391
4.9                     -2.67491         27.2407
4.92                    -2.80365          24.174
4.94                    -2.93755         21.0376
4.96                    -3.07657         17.8302
4.98                     -3.2206         14.5506
5                       -3.36951         11.1977
5.02                    -3.52309         7.77017
5.04                    -3.68109         4.26713
5.06                    -3.84317        0.687641
5.08                    -4.00895          -2.969
5.1                     -4.17798        -6.70329
5.12                     -4.3497        -10.5154
5.14                    -4.52353        -14.4053
5.16                    -4.69877        -18.3722
5.18                    -4.87467        -22.4153
5.2                      -5.0504        -26.5327
5.22                    -5.22507        -30.7223
5.24                    -5.39772        -34.9809
5.26                    -5.56737        -39.3045
5.28                    -5.73301        -43.6887
5.3                      -5.8936        -48.1275
5.32                    -6.04813        -52.6145
5.34                    -6.19562        -57.1419
5.36                    -6.33515        -61.7015
5.38                    -6.46588        -66.2838
5.4                     -6.58709         -70.879
5.42                    -6.69818        -75.4767
5.44                    -6.79869         -80.066
5.46                    -6.88832        -84.6362
5.48                    -6.96692        -89.1764
5.5                     -7.03451        -93.6763
5.52                    -7.09127         -98.126
5.54                    -7.13748        -102.516
5.56                    -7.17358        -106.839
5.58                     -7.2001        -111.088
5.6                     -7.21766        -115.256
5.62                    -7.22692        -119.339
5.64                    -7.22862        -123.333
5.66                    -7.22352        -127.236
5.68                    -7.21238        -131.046
5.7                     -7.19599        -134.763
5.72                    -7.17512        -138.389
5.74                    -7.15058        -141.923
5.76                    -7.12312        -145.368
5.78                    -7.09352        -148.727
5.8                     -7.06255        -152.003
5.82                    -7.03098        -155.197
5.84                    -6.99955        -158.314
5.86                    -6.96902        -161.357
5.88                    -6.94014        -164.327
5.9                     -6.91364        -167.227
5.92                    -6.89022        -170.059
5.94                    -6.87057        -172.825
5.96                    -6.85533        -175.524
5.98                    -6.84509        -178.157
6                       -6.84037         179.277
6.02                    -6.84159          176.78
6.04                     -6.8491         174.354
6.06                    -6.86309         172.002
6.08                    -6.88361         169.728
6.1                     -6.91056         167.536
6.12                    -6.94362         165.431
6.14                    -6.98227         163.417
6.16                    -7.02575           161.5
6.18                    -7.07307         159.685
6.2                     -7.12297         157.974
6.22                    -7.17396         156.371
6.24                    -7.22433         154.877
6.26                    -7.27216         153.491
6.28                    -7.31545          152.21
6.3                     -7.35212          151.03
6.32                    -7.38018          149.94
6.34                    -7.39781          148.93
6.36                    -7.40347         147.986
6.38                    -7.39606         147.091
6.4                     -7.37499         146.229
6.42                    -7.34022          145.38
6.44                    -7.29231         144.527
6.46                    -7.23235         143.654
6.48                    -7.16193         142.748
6.5                     -7.08294         141.799
