! TOUCHSTONE file generated by CST MICROWAVE STUDIO
! Date and time: Thu Oct 27 20:29:43 2022
! Project name: L.cst
! Parameters = {Di=1.27; Epsilon_r=1.56; InnerDiameter=1.27; Length=2; Lf=10; Lg=60; OuterConductorThickness=0.2921; OuterDiameter=3.6; Wf=3; Wp=41.2; de=1.5; df=6.8; g=0.8; gx=1.27116; gy=0.709502; h=2.34; hf=1.524; px=12.0534; py=14.1899; w=9.7; wx=10.7823; wy=13.4804}
! Header version: 2018
! Port assignment regex: !\s*Touchstone port\s*([0-9]+)\s*=\s*(CST MWS port|CST DS port)\s*([0-9]+|Zmin|Zmax)\s*\(\"(.*)\"\)(\s*mode\s*([0-9]+))?.*
! Touchstone port assignment:
! Touchstone port 1 = CST MWS port 1 ("")
# GHz S DB R 50
4.5                     -6.22594         24.6363
4.52                    -6.76081         20.6079
4.54                    -7.27832         15.4657
4.56                    -7.94953          10.608
4.58                    -8.65537           4.387
4.6                     -9.55885        -1.72209
4.62                    -10.5802          -9.584
4.64                    -11.9071        -17.5777
4.66                    -13.4847        -27.9547
4.68                    -15.5683        -38.9614
4.7                     -18.0381        -54.1376
4.72                    -21.1689        -72.9652
4.74                    -23.8432        -103.085
4.76                    -24.9956        -139.796
4.78                    -23.3549        -168.404
4.8                       -21.64         173.761
4.82                    -19.8356         164.217
4.84                    -18.5392         157.133
4.86                    -17.2526         152.849
4.88                    -16.2931         148.901
4.9                     -15.2919         146.004
4.92                    -14.5296             143
4.94                    -13.7145          140.34
4.96                    -13.0933         137.518
4.98                    -12.4278         134.669
5                       -11.9341         131.688
5.02                    -11.4173          128.43
5.04                     -11.079          125.05
5.06                    -10.7713         121.217
5.08                    -10.7165         117.341
5.1                     -10.8567         113.269
5.12                    -11.5052         110.731
5.14                    -12.5543         112.696
5.16                    -13.1397         125.278
5.18                     -11.493         137.631
5.2                     -9.15851         139.402
5.22                    -7.37929         134.464
5.24                    -6.09328         128.245
5.26                    -5.12271         121.208
5.28                    -4.31019         114.364
5.3                     -3.62393         106.861
5.32                    -3.00618         99.2872
5.34                    -2.48708         90.7538
5.36                    -2.04129         81.9154
5.38                    -1.71792         71.8987
5.4                     -1.49728         61.5195
5.42                    -1.42481         49.7317
5.44                     -1.4744         37.5028
5.46                     -1.6862         22.9246
5.48                    -2.10863         6.65509
5.5                     -3.24861        -17.0954
5.52                     -7.6615        -37.6326
5.54                    -10.4886        -18.7785
5.56                    -8.57342         -29.193
5.58                    -8.84087        -51.4137
5.6                     -9.00556        -79.5839
5.62                    -9.36613        -117.171
5.64                    -8.41916         -161.52
5.66                    -6.54309         138.849
5.68                    -6.15772         69.5295
5.7                     -7.94236        -0.12023
5.72                    -10.3971        -59.0093
5.74                    -10.6597        -103.318
5.76                    -9.99418        -139.463
5.78                     -9.1015        -163.242
5.8                     -8.07792         176.049
5.82                    -7.38027         160.689
5.84                    -6.57804         145.779
5.86                    -6.08898          133.26
5.88                    -5.43009         119.749
5.9                     -5.03718         106.627
5.92                    -4.36256         89.9325
5.94                    -3.95126          68.708
5.96                    -3.27013         32.6673
5.98                    -4.33274        -29.2842
6                       -6.04346        -106.034
6.02                    -6.17945        -160.646
6.04                    -4.85883         171.497
6.06                      -3.291         151.489
6.08                    -1.65967         133.589
6.1                     -0.63523         113.268
6.12                   -0.485787         94.4953
6.14                   -0.889572         78.7696
6.16                    -1.48066         66.6158
6.18                    -2.06652         56.1191
6.2                     -2.64551           46.96
6.22                     -3.2056         37.9107
6.24                    -3.80834         29.1199
6.26                    -4.46983         19.7209
6.28                     -5.2691         9.94718
6.3                     -6.25347        -1.05688
6.32                    -7.55422        -13.2242
6.34                     -9.3022        -27.8759
6.36                    -11.7816         -46.163
6.38                    -15.2409        -73.7634
6.4                     -18.7495        -123.529
6.42                    -17.2404         176.192
6.44                    -14.0882         143.705
6.46                    -11.2097         128.677
6.48                     -8.5662         113.936
6.5                     -6.94102         99.3988
