! TOUCHSTONE file generated by CST MICROWAVE STUDIO
! Date and time: Sat Oct 29 22:17:16 2022
! Project name: L.cst
! Parameters = {Di=1.27; Epsilon_r=1.56; InnerDiameter=1.27; Length=2; Lf=10; Lg=60; OuterConductorThickness=0.2921; OuterDiameter=3.6; Wf=3; Wp=41.2; de=1.5; df=6.8; g=0.8; gx=1.09839; gy=1.89179; h=2.34; hf=1.524; px=9.00772; py=8.52343; w=9.7; wx=7.90933; wy=6.63164}
! Header version: 2018
! Port assignment regex: !\s*Touchstone port\s*([0-9]+)\s*=\s*(CST MWS port|CST DS port)\s*([0-9]+|Zmin|Zmax)\s*\(\"(.*)\"\)(\s*mode\s*([0-9]+))?.*
! Touchstone port assignment:
! Touchstone port 1 = CST MWS port 1 ("")
# GHz S DB R 50
4.5                    -0.747816         76.2695
4.52                   -0.780266         74.5728
4.54                   -0.814031         72.8597
4.56                   -0.849016         71.1298
4.58                   -0.885142         69.3823
4.6                     -0.92235         67.6164
4.62                     -0.9606         65.8312
4.64                    -0.99987         64.0258
4.66                    -1.04016         62.1992
4.68                    -1.08147         60.3505
4.7                     -1.12385         58.4787
4.72                    -1.16733         56.5831
4.74                    -1.21197         54.6626
4.76                    -1.25783         52.7166
4.78                    -1.30498         50.7443
4.8                     -1.35351         48.7451
4.82                    -1.40349         46.7183
4.84                    -1.45501         44.6637
4.86                    -1.50814         42.5806
4.88                    -1.56297         40.4689
4.9                     -1.61957         38.3283
4.92                    -1.67801         36.1585
4.94                    -1.73835         33.9596
4.96                    -1.80064         31.7313
4.98                    -1.86494         29.4739
5                       -1.93128         27.1873
5.02                    -1.99969         24.8717
5.04                    -2.07019         22.5272
5.06                    -2.14278         20.1542
5.08                    -2.21747         17.7529
5.1                     -2.29423         15.3236
5.12                    -2.37304         12.8668
5.14                    -2.45388         10.3827
5.16                    -2.53668         7.87201
5.18                    -2.62141         5.33509
5.2                     -2.70798         2.77255
5.22                    -2.79633        0.184982
5.24                    -2.88636        -2.42695
5.26                      -2.978        -5.06249
5.28                    -3.07113        -7.72098
5.3                     -3.16565        -10.4015
5.32                    -3.26145        -13.1033
5.34                    -3.35839        -15.8253
5.36                    -3.45635        -18.5665
5.38                    -3.55521        -21.3258
5.4                     -3.65482        -24.1022
5.42                    -3.75504        -26.8942
5.44                    -3.85574        -29.7007
5.46                    -3.95676        -32.5202
5.48                    -4.05798        -35.3512
5.5                     -4.15925        -38.1922
5.52                    -4.26042        -41.0416
5.54                    -4.36137        -43.8976
5.56                    -4.46195        -46.7584
5.58                    -4.56204        -49.6222
5.6                     -4.66151        -52.4869
5.62                    -4.76025        -55.3507
5.64                    -4.85815        -58.2115
5.66                     -4.9551         -61.067
5.68                    -5.05102        -63.9153
5.7                      -5.1458         -66.754
5.72                    -5.23938        -69.5811
5.74                    -5.33167        -72.3941
5.76                    -5.42263         -75.191
5.78                     -5.5122        -77.9696
5.8                     -5.60032        -80.7276
5.82                    -5.68697        -83.4629
5.84                    -5.77211        -86.1734
5.86                    -5.85572        -88.8571
5.88                    -5.93777         -91.512
5.9                     -6.01825        -94.1361
5.92                    -6.09716        -96.7277
5.94                     -6.1745        -99.2851
5.96                    -6.25025        -101.807
5.98                    -6.32443        -104.291
6                       -6.39704        -106.737
6.02                     -6.4681        -109.143
6.04                    -6.53762        -111.508
6.06                    -6.60563        -113.831
6.08                    -6.67215        -116.112
6.1                      -6.7372        -118.349
6.12                    -6.80085        -120.542
6.14                    -6.86312        -122.691
6.16                    -6.92407        -124.794
6.18                    -6.98378        -126.853
6.2                      -7.0423        -128.866
6.22                    -7.09974        -130.833
6.24                    -7.15617        -132.754
6.26                    -7.21169        -134.628
6.28                    -7.26642        -136.455
6.3                     -7.32045        -138.234
6.32                     -7.3739        -139.965
6.34                    -7.42686        -141.646
6.36                     -7.4794        -143.277
6.38                    -7.53159        -144.856
6.4                     -7.58345         -146.38
6.42                    -7.63494        -147.849
6.44                    -7.68597        -149.259
6.46                    -7.73636        -150.608
6.48                    -7.78584        -151.893
6.5                     -7.83401        -153.111
