! TOUCHSTONE file generated by CST MICROWAVE STUDIO
! Date and time: Thu Oct 27 03:51:50 2022
! Project name: L.cst
! Parameters = {Di=1.27; Epsilon_r=1.56; InnerDiameter=1.27; Length=2; Lf=10; Lg=60; OuterConductorThickness=0.2921; OuterDiameter=3.6; Wf=3; Wp=41.2; de=1.5; df=6.8; g=0.8; gx=2.9397; gy=3.32753; h=2.34; hf=1.524; px=9.18709; py=14.3357; w=9.7; wx=6.24739; wy=11.0082}
! Header version: 2018
! Port assignment regex: !\s*Touchstone port\s*([0-9]+)\s*=\s*(CST MWS port|CST DS port)\s*([0-9]+|Zmin|Zmax)\s*\(\"(.*)\"\)(\s*mode\s*([0-9]+))?.*
! Touchstone port assignment:
! Touchstone port 1 = CST MWS port 1 ("")
# GHz S DB R 50
4.5                    -0.410073         90.0782
4.52                   -0.378675         88.5988
4.54                   -0.401032          86.905
4.56                   -0.445332         85.5489
4.58                   -0.438204          84.269
4.6                    -0.425579         82.6526
4.62                   -0.459116         81.0292
4.64                   -0.486386         79.6736
4.66                   -0.475209         78.2295
4.68                   -0.479728         76.5454
4.7                    -0.514533         74.9708
4.72                   -0.528363         73.5524
4.74                   -0.521029         71.9676
4.76                   -0.538202         70.2558
4.78                   -0.568671         68.6938
4.8                    -0.574272         67.1773
4.82                   -0.574691         65.4823
4.84                   -0.599432         63.7586
4.86                   -0.623343         62.1714
4.88                   -0.625771         60.5423
4.9                    -0.634993         58.7643
4.92                   -0.662881         57.0275
4.94                   -0.680412         55.3832
4.96                   -0.683767         53.6415
4.98                    -0.70091         51.8017
5                      -0.728429         50.0405
5.02                   -0.740942         48.3141
5.04                   -0.748014         46.4662
5.06                   -0.771238          44.577
5.08                    -0.79615         42.7742
5.1                    -0.805697         40.9489
5.12                   -0.818015         39.0052
5.14                   -0.844943         37.0712
5.16                   -0.865986         35.2072
5.18                   -0.874693         33.2729
5.2                    -0.892638         31.2437
5.22                   -0.920724         29.2622
5.24                   -0.937455         27.3162
5.26                   -0.947258         25.2668
5.28                   -0.970331         23.1596
5.3                    -0.997219         21.1206
5.32                    -1.00996         19.0717
5.34                    -1.02252          16.904
5.36                    -1.04953          14.722
5.38                    -1.07318         12.6089
5.4                     -1.08291         10.4352
5.42                    -1.09962         8.14596
5.44                    -1.12904         5.88578
5.46                    -1.14814          3.6739
5.48                    -1.15671         1.35231
5.5                     -1.17897        -1.06257
5.52                     -1.2093        -3.41171
5.54                    -1.22361        -5.75426
5.56                    -1.23393        -8.24814
5.58                    -1.26323        -10.7948
5.6                     -1.29322        -13.2526
5.62                    -1.30371        -15.7665
5.64                    -1.31982        -18.4598
5.66                    -1.35773        -21.1493
5.68                    -1.38627        -23.7495
5.7                     -1.39537        -26.4913
5.72                    -1.42264        -29.4221
5.74                    -1.47089        -32.2819
5.76                    -1.49758        -35.0902
5.78                    -1.51057        -38.1534
5.8                     -1.55787        -41.3927
5.82                    -1.62076        -44.4935
5.84                    -1.64941        -47.6458
5.86                    -1.68066        -51.2076
5.88                    -1.76913        -54.9062
5.9                      -1.8638        -58.4152
5.92                    -1.91643        -62.1966
5.94                    -2.01232        -66.6185
5.96                    -2.20915        -71.1009
5.98                    -2.40732        -75.3813
6                       -2.58278        -80.4142
6.02                    -2.92833        -86.5212
6.04                      -3.528        -92.4862
6.06                    -4.21851        -98.2285
6.08                    -5.18049        -106.099
6.1                     -7.43774        -115.651
6.12                    -12.7122        -111.592
6.14                    -12.9728        -52.9546
6.16                    -6.81426        -48.4041
6.18                    -4.05385        -63.6514
6.2                     -3.30931        -79.2809
6.22                    -3.52103        -90.4171
6.24                    -3.78168        -97.5277
6.26                    -3.84852        -104.488
6.28                    -4.02084        -112.468
6.3                     -4.31517        -120.432
6.32                     -4.5662        -129.101
6.34                    -4.83068        -140.012
6.36                    -5.14241        -154.216
6.38                    -5.42993        -174.958
6.4                     -5.79201         152.341
6.42                    -5.86951         104.857
6.44                    -4.72155         50.8593
6.46                     -3.0719         4.10686
6.48                    -2.22854        -32.1555
6.5                     -2.40917        -57.9528
