! TOUCHSTONE file generated by CST MICROWAVE STUDIO
! Date and time: Thu Oct 27 18:25:26 2022
! Project name: L.cst
! Parameters = {Di=1.27; Epsilon_r=1.56; InnerDiameter=1.27; Length=2; Lf=10; Lg=60; OuterConductorThickness=0.2921; OuterDiameter=3.6; Wf=3; Wp=41.2; de=1.5; df=6.8; g=0.8; gx=4.59911; gy=0.593434; h=2.34; hf=1.524; px=8.58019; py=11.6913; w=9.7; wx=3.98108; wy=11.0979}
! Header version: 2018
! Port assignment regex: !\s*Touchstone port\s*([0-9]+)\s*=\s*(CST MWS port|CST DS port)\s*([0-9]+|Zmin|Zmax)\s*\(\"(.*)\"\)(\s*mode\s*([0-9]+))?.*
! Touchstone port assignment:
! Touchstone port 1 = CST MWS port 1 ("")
# GHz S DB R 50
4.5                    -0.375528         77.7155
4.52                   -0.408082         76.0792
4.54                   -0.428873          74.565
4.56                   -0.427235         73.0059
4.58                   -0.421874         71.2875
4.6                    -0.433672         69.4805
4.62                   -0.459894         67.7271
4.64                   -0.480645         66.0571
4.66                    -0.48545         64.3637
4.68                    -0.48511         62.5512
4.7                    -0.495715          60.651
4.72                   -0.518211         58.7659
4.74                   -0.538991         56.9344
4.76                   -0.548274          55.089
4.78                   -0.551871         53.1491
4.8                    -0.562325          51.122
4.82                   -0.582673         49.0826
4.84                   -0.603625         47.0729
4.86                   -0.616205         45.0511
4.88                   -0.622923         42.9494
4.9                    -0.633631         40.7591
4.92                   -0.652615         38.5343
4.94                   -0.673698         36.3178
4.96                   -0.688687         34.0863
4.98                   -0.697748         31.7817
5                      -0.708601         29.3841
5.02                   -0.726328         26.9311
5.04                   -0.747157         24.4649
5.06                   -0.763633         21.9758
5.08                   -0.774124         19.4137
5.1                    -0.784542         16.7497
5.12                    -0.80052         14.0071
5.14                   -0.820335         11.2257
5.16                   -0.837312         8.40659
5.18                   -0.848363         5.50683
5.2                    -0.857768         2.48903
5.22                   -0.871632       -0.638025
5.24                   -0.890273        -3.83841
5.26                   -0.908086        -7.10187
5.28                   -0.920874        -10.4646
5.3                    -0.931427        -13.9716
5.32                   -0.946397        -17.6296
5.34                   -0.968558        -21.4085
5.36                   -0.994104        -25.2885
5.38                    -1.01828        -29.2947
5.4                     -1.04238        -33.4759
5.42                    -1.07345        -37.8529
5.44                    -1.11702        -42.4011
5.46                    -1.17161        -47.0868
5.48                    -1.23182        -51.9156
5.5                     -1.29615        -56.9329
5.52                     -1.3703        -62.1761
5.54                    -1.46171        -67.6352
5.56                    -1.57164        -73.2708
5.58                    -1.69449        -79.0708
5.6                     -1.82546          -85.08
5.62                    -1.96833        -91.3663
5.64                    -2.13402        -97.9587
5.66                    -2.33147         -104.83
5.68                    -2.56129        -111.945
5.7                      -2.8202        -119.324
5.72                    -3.11236        -127.043
5.74                    -3.45552        -135.168
5.76                    -3.87462        -143.675
5.78                    -4.38921        -152.459
5.8                      -5.0078        -161.406
5.82                    -5.73677        -170.468
5.84                    -6.59758        -179.649
5.86                    -7.63683          171.13
5.88                     -8.9179         162.174
5.9                     -10.4987         154.105
5.92                    -12.4112         147.845
5.94                    -14.6582         144.631
5.96                    -17.2082         146.465
5.98                    -19.7469         157.415
6                       -20.7171         179.746
6.02                    -18.9094        -161.621
6.04                    -16.3368        -156.414
6.06                     -14.236        -158.938
6.08                    -12.6654        -164.279
6.1                     -11.3995        -170.324
6.12                     -10.232        -176.868
6.14                    -9.11826         175.453
6.16                    -8.15758         166.418
6.18                    -7.44633         156.686
6.2                     -6.95967         147.315
6.22                    -6.53531         138.827
6.24                    -6.00471         130.404
6.26                    -5.41401         120.361
6.28                    -5.05546         107.826
6.3                     -5.29976         93.5629
6.32                    -6.51514         80.0339
6.34                     -9.0335         73.2737
6.36                    -11.7353         88.3196
6.38                    -9.48655         112.291
6.4                     -5.68699         110.527
6.42                    -3.21882         97.2046
6.44                    -1.94578         81.2478
6.46                    -1.53473         66.3208
6.48                    -1.61468         54.4552
6.5                     -1.71954         46.0209
