! TOUCHSTONE file generated by CST MICROWAVE STUDIO
! Date and time: Thu Oct 27 01:10:09 2022
! Project name: L.cst
! Parameters = {Di=1.27; Epsilon_r=1.56; InnerDiameter=1.27; Length=2; Lf=10; Lg=60; OuterConductorThickness=0.2921; OuterDiameter=3.6; Wf=3; Wp=41.2; de=1.5; df=6.8; g=0.8; gx=4.93138; gy=3.01189; h=2.34; hf=1.524; px=10.2355; py=10.5248; w=9.7; wx=5.30413; wy=7.51287}
! Header version: 2018
! Port assignment regex: !\s*Touchstone port\s*([0-9]+)\s*=\s*(CST MWS port|CST DS port)\s*([0-9]+|Zmin|Zmax)\s*\(\"(.*)\"\)(\s*mode\s*([0-9]+))?.*
! Touchstone port assignment:
! Touchstone port 1 = CST MWS port 1 ("")
# GHz S DB R 50
4.5                     -0.31878         93.3987
4.52                   -0.326604         91.9505
4.54                   -0.334714         90.4881
4.56                   -0.343135         89.0115
4.58                   -0.351881         87.5207
4.6                    -0.360958         86.0156
4.62                   -0.370368         84.4963
4.64                   -0.380105         82.9626
4.66                   -0.390164         81.4144
4.68                   -0.400532         79.8516
4.7                    -0.411196          78.274
4.72                   -0.422143         76.6815
4.74                   -0.433359         75.0738
4.76                   -0.444826         73.4508
4.78                   -0.456534         71.8121
4.8                    -0.468468         70.1576
4.82                   -0.480618         68.4869
4.84                   -0.492974         66.7998
4.86                   -0.505528          65.096
4.88                   -0.518273         63.3752
4.9                    -0.531208         61.6372
4.92                   -0.544327         59.8817
4.94                   -0.557631         58.1084
4.96                   -0.571119         56.3171
4.98                   -0.584793         54.5077
5                      -0.598655         52.6798
5.02                   -0.612709         50.8333
5.04                   -0.626958          48.968
5.06                   -0.641404         47.0839
5.08                    -0.65605         45.1807
5.1                    -0.670902         43.2585
5.12                   -0.685958         41.3171
5.14                   -0.701222         39.3566
5.16                   -0.716692         37.3769
5.18                    -0.73237         35.3781
5.2                     -0.74825         33.3602
5.22                   -0.764329         31.3234
5.24                   -0.780602         29.2677
5.26                    -0.79706         27.1934
5.28                   -0.813694         25.1006
5.3                    -0.830493         22.9895
5.32                   -0.847446         20.8604
5.34                   -0.864536         18.7135
5.36                   -0.881748         16.5493
5.38                   -0.899063         14.3679
5.4                    -0.916464         12.1699
5.42                   -0.933928         9.95555
5.44                   -0.951435         7.72538
5.46                   -0.968959         5.47984
5.48                    -0.98648         3.21942
5.5                     -1.00397        0.944664
5.52                    -1.02141        -1.34388
5.54                    -1.03876         -3.6456
5.56                    -1.05601         -5.9599
5.58                    -1.07313        -8.28611
5.6                     -1.09008        -10.6236
5.62                    -1.10686        -12.9715
5.64                    -1.12342        -15.3293
5.66                    -1.13976        -17.6962
5.68                    -1.15583        -20.0712
5.7                     -1.17163        -22.4538
5.72                    -1.18712         -24.843
5.74                     -1.2023         -27.238
5.76                    -1.21713        -29.6379
5.78                     -1.2316        -32.0419
5.8                     -1.24569        -34.4491
5.82                    -1.25939        -36.8586
5.84                    -1.27268        -39.2694
5.86                    -1.28554        -41.6808
5.88                    -1.29797        -44.0916
5.9                     -1.30996        -46.5012
5.92                    -1.32148        -48.9084
5.94                    -1.33253        -51.3125
5.96                     -1.3431        -53.7126
5.98                    -1.35319        -56.1077
6                       -1.36277        -58.4971
6.02                    -1.37185        -60.8799
6.04                    -1.38041        -63.2553
6.06                    -1.38844        -65.6225
6.08                    -1.39594        -67.9809
6.1                      -1.4029        -70.3296
6.12                     -1.4093        -72.6681
6.14                    -1.41514        -74.9958
6.16                    -1.42042        -77.3121
6.18                    -1.42512        -79.6165
6.2                     -1.42923        -81.9085
6.22                    -1.43276        -84.1879
6.24                     -1.4357        -86.4542
6.26                    -1.43804        -88.7071
6.28                     -1.4398        -90.9467
6.3                     -1.44098        -93.1727
6.32                    -1.44158         -95.385
6.34                    -1.44163        -97.5836
6.36                    -1.44114        -99.7686
6.38                    -1.44015         -101.94
6.4                      -1.4387        -104.098
6.42                    -1.43683        -106.243
6.44                     -1.4346        -108.375
6.46                    -1.43207        -110.494
6.48                    -1.42931          -112.6
6.5                     -1.42642        -114.694
