! TOUCHSTONE file generated by CST MICROWAVE STUDIO
! Date and time: Wed Oct 26 21:54:50 2022
! Project name: L.cst
! Parameters = {Di=1.27; Epsilon_r=1.56; InnerDiameter=1.27; Length=2; Lf=10; Lg=60; OuterConductorThickness=0.2921; OuterDiameter=3.6; Wf=3; Wp=41.2; de=1.5; df=6.8; g=0.8; gx=1.83915; gy=4.39276; h=2.34; hf=1.524; px=14.0786; py=11.3123; w=9.7; wx=12.2394; wy=6.91954}
! Header version: 2018
! Port assignment regex: !\s*Touchstone port\s*([0-9]+)\s*=\s*(CST MWS port|CST DS port)\s*([0-9]+|Zmin|Zmax)\s*\(\"(.*)\"\)(\s*mode\s*([0-9]+))?.*
! Touchstone port assignment:
! Touchstone port 1 = CST MWS port 1 ("")
# GHz S DB R 50
4.5                     -1.51849         86.1642
4.52                    -1.61358         84.4033
4.54                    -1.71837         82.6599
4.56                    -1.82924         80.9483
4.58                    -1.94193         79.2556
4.6                     -2.05624         77.5548
4.62                    -2.17431         75.8319
4.64                    -2.29923         74.0794
4.66                    -2.43512         72.3102
4.68                    -2.58258         70.5531
4.7                     -2.74028         68.8237
4.72                    -2.90628          67.136
4.74                    -3.07723         65.4862
4.76                    -3.25313         63.8582
4.78                    -3.43509         62.2493
4.8                     -3.62464         60.6561
4.82                    -3.82452          59.093
4.84                     -4.0342         57.5853
4.86                    -4.25204         56.1473
4.88                     -4.4755         54.7941
4.9                     -4.70075         53.5246
4.92                    -4.92628         52.3273
4.94                    -5.15149         51.1983
4.96                    -5.37601         50.1334
4.98                    -5.60024         49.1388
5                       -5.82204         48.2299
5.02                     -6.0376         47.4076
5.04                    -6.24319         46.6672
5.06                    -6.43396         45.9888
5.08                    -6.60793         45.3348
5.1                     -6.76509         44.6771
5.12                    -6.90578          43.984
5.14                    -7.03244         43.2334
5.16                    -7.14529         42.4116
5.18                    -7.24456         41.4878
5.2                     -7.33175         40.4308
5.22                    -7.40862         39.1961
5.24                    -7.48096          37.732
5.26                     -7.5569         36.0005
5.28                    -7.64602         33.9667
5.3                     -7.76036         31.6071
5.32                    -7.91237         28.9086
5.34                    -8.11659         25.8518
5.36                    -8.39275         22.4235
5.38                    -8.76607         18.6262
5.4                     -9.27159         14.4905
5.42                    -9.95613         10.1353
5.44                    -10.8752         5.82504
5.46                    -12.0889         2.06992
5.48                    -13.6357       -0.214106
5.5                      -15.466        0.330751
5.52                    -17.3291         4.97124
5.54                    -18.7805         12.8356
5.56                    -19.7368         19.6102
5.58                    -20.9672         21.6404
5.6                     -24.0974         18.6988
5.62                    -38.0071         15.5419
5.64                    -23.6378         177.969
5.66                    -15.3063         164.905
5.68                     -10.635         149.623
5.7                     -7.68199         133.858
5.72                    -5.81843         118.977
5.74                    -4.66059         105.727
5.76                    -3.94193         94.2184
5.78                    -3.49055          84.209
5.8                     -3.20318         75.3368
5.82                    -3.02488         67.2172
5.84                    -2.93621         59.4601
5.86                    -2.96309         51.5709
5.88                     -3.2859          42.802
5.9                     -4.91994         35.9276
5.92                    -4.50454         49.4526
5.94                    -3.13152         40.4235
5.96                    -2.91722         30.9195
5.98                    -2.99059          21.702
6                       -3.25338         11.4593
6.02                    -3.79544         -1.4036
6.04                    -4.92089        -19.9133
6.06                    -7.45047        -52.3044
6.08                    -11.2305        -129.559
6.1                     -6.82468         139.686
6.12                    -3.42503         97.4442
6.14                    -2.11104          73.792
6.16                    -1.55444         58.6034
6.18                    -1.27438         47.6895
6.2                     -1.11473         39.0616
6.22                    -1.02699         31.7122
6.24                    -1.00088         25.0963
6.26                    -1.03843         18.8574
6.28                    -1.15169         12.4644
6.3                     -1.45956         3.68087
6.32                    -14.0799        -20.1295
6.34                    -1.14532         18.7427
6.36                    -1.02971         10.2612
6.38                   -0.924653         5.61318
6.4                     -0.79085         1.64104
6.42                   -0.664558        -2.28812
6.44                   -0.580135        -6.25562
6.46                   -0.554438        -10.1276
6.48                   -0.581094        -13.7091
6.5                    -0.632498        -16.8597
