! TOUCHSTONE file generated by CST MICROWAVE STUDIO
! Date and time: Sat Oct 29 15:47:47 2022
! Project name: L.cst
! Parameters = {Di=1.27; Epsilon_r=1.56; InnerDiameter=1.27; Length=2; Lf=10; Lg=60; OuterConductorThickness=0.2921; OuterDiameter=3.6; Wf=3; Wp=41.2; de=1.5; df=6.8; g=0.8; gx=2.03078; gy=3.4532; h=2.34; hf=1.524; px=12.5766; py=8.40703; w=9.7; wx=10.5458; wy=4.95383}
! Header version: 2018
! Port assignment regex: !\s*Touchstone port\s*([0-9]+)\s*=\s*(CST MWS port|CST DS port)\s*([0-9]+|Zmin|Zmax)\s*\(\"(.*)\"\)(\s*mode\s*([0-9]+))?.*
! Touchstone port assignment:
! Touchstone port 1 = CST MWS port 1 ("")
# GHz S DB R 50
4.5                    -0.946569         83.5688
4.52                   -0.979033         81.8225
4.54                    -1.01362         80.0326
4.56                    -1.05121         78.2015
4.58                    -1.09251         76.3324
4.6                     -1.13801         74.4292
4.62                    -1.18797         72.4959
4.64                    -1.24251         70.5362
4.66                    -1.30157         68.5534
4.68                    -1.36496         66.5502
4.7                     -1.43244         64.5285
4.72                     -1.5037         62.4893
4.74                    -1.57842         60.4328
4.76                    -1.65632         58.3585
4.78                    -1.73715          56.265
4.8                     -1.82074         54.1508
4.82                    -1.90702         52.0135
4.84                    -1.99597         49.8511
4.86                    -2.08771         47.6611
4.88                    -2.18241         45.4413
4.9                     -2.28034         43.1898
4.92                    -2.38182         40.9049
4.94                    -2.48722         38.5856
4.96                    -2.59694         36.2311
4.98                    -2.71138         33.8412
5                       -2.83093         31.4163
5.02                    -2.95598         28.9571
5.04                    -3.08685         26.4646
5.06                    -3.22384         23.9403
5.08                    -3.36718          21.386
5.1                     -3.51706         18.8034
5.12                    -3.67359         16.1944
5.14                    -3.83683         13.5609
5.16                    -4.00678         10.9047
5.18                    -4.18342         8.22754
5.2                     -4.36666         5.53089
5.22                     -4.5564         2.81605
5.24                    -4.75249       0.0839621
5.26                    -4.95481        -2.66441
5.28                    -5.16323        -5.42863
5.3                     -5.37761        -8.20823
5.32                    -5.59787        -11.0029
5.34                    -5.82391        -13.8125
5.36                    -6.05571        -16.6366
5.38                    -6.29325        -19.4749
5.4                     -6.53656        -22.3267
5.42                     -6.7857        -25.1911
5.44                    -7.04073        -28.0665
5.46                    -7.30174         -30.951
5.48                     -7.5688        -33.8419
5.5                     -7.84193        -36.7358
5.52                    -8.12111        -39.6286
5.54                    -8.40622        -42.5153
5.56                    -8.69703        -45.3903
5.58                    -8.99315        -48.2471
5.6                       -9.294        -51.0788
5.62                    -9.59878        -53.8781
5.64                     -9.9064        -56.6377
5.66                    -10.2155        -59.3506
5.68                    -10.5245        -62.0106
5.7                     -10.8314        -64.6129
5.72                    -11.1339        -67.1545
5.74                    -11.4296        -69.6356
5.76                     -11.716        -72.0592
5.78                    -11.9905        -74.4327
5.8                     -12.2506        -76.7675
5.82                    -12.4944        -79.0796
5.84                    -12.7205        -81.3886
5.86                    -12.9283        -83.7174
5.88                     -13.118        -86.0908
5.9                      -13.291        -88.5339
5.92                      -13.45        -91.0703
5.94                    -13.5984        -93.7205
5.96                    -13.7408        -96.5005
5.98                    -13.8828        -99.4201
6                       -14.0304        -102.483
6.02                    -14.1904        -105.684
6.04                    -14.3699        -109.012
6.06                    -14.5766        -112.444
6.08                    -14.8186        -115.951
6.1                     -15.1044         -119.49
6.12                    -15.4432        -123.002
6.14                    -15.8447        -126.411
6.16                     -16.319        -129.612
6.18                    -16.8761         -132.46
6.2                     -17.5248        -134.753
6.22                    -18.2686        -136.201
6.24                    -19.0978        -136.397
6.26                    -19.9719        -134.801
6.28                    -20.7882         -130.82
6.3                      -21.351        -124.178
6.32                    -21.4094        -115.617
6.34                    -20.8307         -107.14
6.36                    -19.7346        -100.805
6.38                    -18.3727        -97.4447
6.4                     -16.9482        -96.8283
6.42                    -15.5707        -98.3759
6.44                    -14.2855        -101.548
6.46                    -13.1055        -105.939
6.48                    -12.0299        -111.266
6.5                     -11.0524        -117.335
