! TOUCHSTONE file generated by CST MICROWAVE STUDIO
! Date and time: Thu Oct 27 18:49:16 2022
! Project name: L.cst
! Parameters = {Di=1.27; Epsilon_r=1.56; InnerDiameter=1.27; Length=2; Lf=10; Lg=60; OuterConductorThickness=0.2921; OuterDiameter=3.6; Wf=3; Wp=41.2; de=1.5; df=6.8; g=0.8; gx=0.563312; gy=1.80988; h=2.34; hf=1.524; px=12.7402; py=10.8637; w=9.7; wx=12.1769; wy=9.05386}
! Header version: 2018
! Port assignment regex: !\s*Touchstone port\s*([0-9]+)\s*=\s*(CST MWS port|CST DS port)\s*([0-9]+|Zmin|Zmax)\s*\(\"(.*)\"\)(\s*mode\s*([0-9]+))?.*
! Touchstone port assignment:
! Touchstone port 1 = CST MWS port 1 ("")
# GHz S DB R 50
4.5                     -5.99609         107.643
4.52                     -5.8068         106.535
4.54                    -5.63266         105.301
4.56                    -5.47001         103.903
4.58                    -5.32643         102.331
4.6                     -5.20478         100.644
4.62                    -5.09814         98.8668
4.64                    -5.00338         96.9629
4.66                    -4.92605         94.9138
4.68                    -4.86889         92.7514
4.7                     -4.82726         90.4865
4.72                    -4.79925          88.079
4.74                    -4.79029         85.4997
4.76                    -4.80436         82.7597
4.78                    -4.83953         79.8541
4.8                     -4.89608         76.7312
4.82                    -4.98141         73.3402
4.84                    -5.10309         69.6617
4.86                    -5.26426         65.6579
4.88                    -5.47091         61.2336
4.9                     -5.73841         56.2707
4.92                    -6.08664         50.6555
4.94                     -6.5355         44.2202
4.96                    -7.11322         36.6598
4.98                    -7.86752         27.4962
5                       -8.86299         15.9944
5.02                    -10.1586        0.839933
5.04                    -11.7221        -20.4907
5.06                    -13.0851        -51.7187
5.08                    -12.9499        -91.7307
5.1                     -10.9819        -128.583
5.12                    -8.60331        -156.687
5.14                    -6.64656        -178.701
5.16                    -5.25669         162.851
5.18                    -4.38188         146.876
5.2                     -3.93759         132.798
5.22                    -3.85378         120.273
5.24                      -4.097         109.062
5.26                    -4.68043         99.1191
5.28                    -5.65628         90.8264
5.3                     -7.07727         85.3418
5.32                    -8.87412         85.0404
5.34                    -10.5092         92.9623
5.36                     -10.818         107.099
5.38                    -9.62278         117.643
5.4                      -8.0408         120.902
5.42                     -6.7003         119.573
5.44                    -5.69214         116.162
5.46                    -4.95554         111.956
5.48                    -4.42168         107.517
5.5                     -4.04553         103.116
5.52                    -3.79441         98.9907
5.54                    -3.62072         95.3713
5.56                    -3.45239         92.2906
5.58                    -3.22877         89.4035
5.6                     -2.95378         86.1767
5.62                    -2.69227         82.3496
5.64                    -2.50472         78.1134
5.66                     -2.3985          73.835
5.68                    -2.34032         69.6995
5.7                     -2.30211         65.6413
5.72                    -2.28242         61.5557
5.74                    -2.28601          57.448
5.76                      -2.304         53.3399
5.78                    -2.32576         49.1522
5.8                     -2.35615         44.7778
5.82                    -2.40549         40.1962
5.84                    -2.47132         35.4149
5.86                    -2.54556         30.3405
5.88                    -2.63421         24.8104
5.9                     -2.75355          18.716
5.92                    -2.91022         11.9716
5.94                    -3.10289         4.35524
5.96                    -3.34462        -4.53617
5.98                    -3.66827        -15.2127
6                       -4.11023        -28.3537
6.02                    -4.70263        -45.0395
6.04                    -5.45526        -66.8691
6.06                    -6.23953        -95.5999
6.08                      -6.607        -131.347
6.1                     -6.09222         -169.54
6.12                     -4.9799         156.293
6.14                    -3.91322         128.503
6.16                     -3.1842         106.545
6.18                    -2.75907         89.3542
6.2                     -2.50064         75.6919
6.22                    -2.32699         64.2846
6.24                    -2.23623         54.3277
6.26                    -2.22462         45.5876
6.28                     -2.2461         37.8956
6.3                     -2.26795         30.8452
6.32                    -2.31047         24.1254
6.34                    -2.39289         17.7929
6.36                    -2.48597         11.9218
6.38                    -2.56231         6.26609
6.4                     -2.65023        0.601661
6.42                    -2.77705        -4.88772
6.44                    -2.90257        -10.0157
6.46                     -2.9864        -15.1094
6.48                    -3.08124        -20.5033
6.5                     -3.24464        -25.7937
