! TOUCHSTONE file generated by CST MICROWAVE STUDIO
! Date and time: Thu Oct 27 12:18:24 2022
! Project name: L.cst
! Parameters = {Di=1.27; Epsilon_r=1.56; InnerDiameter=1.27; Length=2; Lf=10; Lg=60; OuterConductorThickness=0.2921; OuterDiameter=3.6; Wf=3; Wp=41.2; de=1.5; df=6.8; g=0.8; gx=2.39133; gy=2.04257; h=2.34; hf=1.524; px=14.0124; py=14.9322; w=9.7; wx=11.6211; wy=12.8896}
! Header version: 2018
! Port assignment regex: !\s*Touchstone port\s*([0-9]+)\s*=\s*(CST MWS port|CST DS port)\s*([0-9]+|Zmin|Zmax)\s*\(\"(.*)\"\)(\s*mode\s*([0-9]+))?.*
! Touchstone port assignment:
! Touchstone port 1 = CST MWS port 1 ("")
# GHz S DB R 50
4.5                     -3.32193         55.6224
4.52                    -3.55894         52.9664
4.54                    -3.80745         50.2849
4.56                    -4.07496         47.6004
4.58                    -4.36835          44.905
4.6                     -4.69338         42.1628
4.62                    -5.05228         39.3406
4.64                    -5.44315         36.4118
4.66                    -5.86449         33.3704
4.68                    -6.31604         30.2402
4.7                     -6.80096         27.0455
4.72                    -7.32827         23.8063
4.74                    -7.90853         20.5263
4.76                    -8.55352         17.1715
4.78                    -9.27537         13.6983
4.8                     -10.0833         10.0561
4.82                    -10.9893         6.19296
4.84                    -12.0105          2.0846
4.86                    -13.1734        -2.30256
4.88                    -14.5253        -7.03518
4.9                     -16.1408        -12.2571
4.92                    -18.1405        -18.3442
4.94                    -20.7362        -26.2053
4.96                    -24.3172        -38.4721
4.98                    -29.3908         -65.707
5                       -31.4801        -131.766
5.02                    -26.5674        -173.858
5.04                    -22.6909         169.612
5.06                    -20.0161         159.918
5.08                    -18.0553         152.757
5.1                     -16.5472         146.893
5.12                    -15.3551         141.851
5.14                    -14.3982         137.429
5.16                    -13.6202         133.485
5.18                    -12.9819         129.912
5.2                     -12.4491         126.645
5.22                    -11.9922         123.622
5.24                    -11.5879         120.818
5.26                    -11.2148         118.224
5.28                    -10.8554         115.821
5.3                     -10.4939         113.572
5.32                     -10.111         111.387
5.34                    -9.68615         109.084
5.36                    -9.19882         106.379
5.38                    -8.63481         102.843
5.4                     -7.99979         97.9056
5.42                    -7.32616         90.8416
5.44                    -6.68403         80.6322
5.46                    -6.21235         65.6169
5.48                    -6.21783         42.6831
5.5                     -7.38957         5.94059
5.52                    -10.1113        -54.6786
5.54                    -10.2004        -132.067
5.56                    -7.60176         177.824
5.58                    -5.63065         147.543
5.6                     -4.36711         123.966
5.62                     -3.8066         100.741
5.64                    -4.75889         74.0656
5.66                    -10.2568         53.3926
5.68                    -12.4192         114.547
5.7                     -6.03366         106.991
5.72                    -4.42532         81.5075
5.74                    -5.79589         60.5416
5.76                    -8.17866         54.8063
5.78                    -9.29771         58.9834
5.8                     -9.10952         60.9172
5.82                     -8.5666         57.4496
5.84                    -8.10505         49.3843
5.86                    -7.96078         36.6779
5.88                    -7.38444          23.271
5.9                      -7.5271        -32.6533
5.92                    -12.1214        -79.0447
5.94                     -11.571        -123.557
5.96                    -8.03636        -160.452
5.98                     -4.6738         169.257
6                       -2.24051          139.77
6.02                    -1.50366         102.885
6.04                    -8.09842         86.0679
6.06                    -5.80807         112.972
6.08                    -3.74706         104.423
6.1                     -2.89394         94.6931
6.12                    -2.46126         86.1027
6.14                    -2.20835         78.5363
6.16                    -2.04417         71.7738
6.18                    -1.93215         65.6315
6.2                     -1.86273         59.9304
6.22                    -1.83839         54.4323
6.24                    -1.87093         48.7025
6.26                    -2.01474         41.5659
6.28                    -3.37525         24.7475
6.3                     -2.30349         52.7491
6.32                    -1.91866         39.5082
6.34                     -1.8534         32.6478
6.36                    -1.77057         27.1953
6.38                    -1.67014         22.5126
6.4                     -1.57774         18.3913
6.42                    -1.51827         14.6402
6.44                    -1.50318         11.0354
6.46                    -1.52577         7.35875
6.48                    -1.56295         3.46883
6.5                     -1.58387       -0.643858
