! TOUCHSTONE file generated by CST MICROWAVE STUDIO
! Date and time: Fri Oct 28 16:49:38 2022
! Project name: L.cst
! Parameters = {Di=1.27; Epsilon_r=1.56; InnerDiameter=1.27; Length=2; Lf=10; Lg=60; OuterConductorThickness=0.2921; OuterDiameter=3.6; Wf=3; Wp=41.2; de=1.5; df=6.8; g=0.8; gx=4.33244; gy=4.60696; h=2.34; hf=1.524; px=13.9289; py=8.81484; w=9.7; wx=9.59647; wy=4.20788}
! Header version: 2018
! Port assignment regex: !\s*Touchstone port\s*([0-9]+)\s*=\s*(CST MWS port|CST DS port)\s*([0-9]+|Zmin|Zmax)\s*\(\"(.*)\"\)(\s*mode\s*([0-9]+))?.*
! Touchstone port assignment:
! Touchstone port 1 = CST MWS port 1 ("")
# GHz S DB R 50
4.5                    -0.437603         95.4887
4.52                   -0.451418         93.9671
4.54                   -0.465953         92.4315
4.56                   -0.481218         90.8822
4.58                   -0.497209         89.3192
4.6                    -0.513918         87.7427
4.62                   -0.531331         86.1527
4.64                   -0.549429         84.5491
4.66                   -0.568195         82.9319
4.68                   -0.587607         81.3009
4.7                    -0.607649          79.656
4.72                   -0.628305         77.9971
4.74                   -0.649561         76.3237
4.76                   -0.671408         74.6358
4.78                   -0.693843         72.9329
4.8                    -0.716862         71.2149
4.82                   -0.740471         69.4814
4.84                   -0.764676         67.7321
4.86                   -0.789489         65.9668
4.88                   -0.814925         64.1852
4.9                    -0.841004          62.387
4.92                   -0.867747          60.572
4.94                   -0.895178           58.74
4.96                   -0.923324         56.8909
4.98                   -0.952213         55.0244
5                      -0.981874         53.1404
5.02                    -1.01233         51.2388
5.04                    -1.04363         49.3197
5.06                    -1.07578         47.3828
5.08                    -1.10882         45.4284
5.1                     -1.14278         43.4563
5.12                    -1.17768         41.4667
5.14                    -1.21355         39.4596
5.16                    -1.25041         37.4353
5.18                    -1.28828         35.3938
5.2                     -1.32719         33.3353
5.22                    -1.36714         31.2601
5.24                    -1.40815         29.1685
5.26                    -1.45024         27.0606
5.28                    -1.49341         24.9368
5.3                     -1.53767         22.7975
5.32                    -1.58303         20.6429
5.34                    -1.62949         18.4735
5.36                    -1.67705         16.2896
5.38                     -1.7257         14.0918
5.4                     -1.77545         11.8804
5.42                    -1.82629         9.65591
5.44                    -1.87821         7.41885
5.46                    -1.93121         5.16973
5.48                    -1.98528         2.90909
5.5                      -2.0404          0.6375
5.52                    -2.09657        -1.64445
5.54                    -2.15377        -3.93615
5.56                    -2.21199        -6.23698
5.58                    -2.27123        -8.54627
5.6                     -2.33146        -10.8634
5.62                    -2.39268        -13.1875
5.64                    -2.45487        -15.5181
5.66                    -2.51803        -17.8543
5.68                    -2.58214        -20.1954
5.7                     -2.64719        -22.5406
5.72                    -2.71317        -24.8891
5.74                    -2.78008        -27.2402
5.76                    -2.84791        -29.5928
5.78                    -2.91665        -31.9463
5.8                     -2.98631        -34.2998
5.82                    -3.05687        -36.6524
5.84                    -3.12833        -39.0032
5.86                    -3.20071        -41.3512
5.88                    -3.27399        -43.6956
5.9                     -3.34818        -46.0355
5.92                    -3.42328        -48.3699
5.94                    -3.49931        -50.6979
5.96                    -3.57627        -53.0185
5.98                    -3.65417        -55.3307
6                       -3.73301        -57.6337
6.02                    -3.81283        -59.9265
6.04                    -3.89361        -62.2081
6.06                    -3.97539        -64.4775
6.08                    -4.05817        -66.7338
6.1                     -4.14197        -68.9761
6.12                    -4.22681        -71.2033
6.14                    -4.31271        -73.4146
6.16                    -4.39968         -75.609
6.18                    -4.48775        -77.7856
6.2                     -4.57694        -79.9434
6.22                    -4.66725        -82.0815
6.24                    -4.75872        -84.1989
6.26                    -4.85136        -86.2948
6.28                    -4.94519        -88.3682
6.3                     -5.04022        -90.4182
6.32                    -5.13647        -92.4439
6.34                    -5.23394        -94.4443
6.36                    -5.33264        -96.4185
6.38                    -5.43257        -98.3656
6.4                     -5.53374        -100.285
6.42                    -5.63611        -102.174
6.44                    -5.73968        -104.034
6.46                    -5.84441        -105.863
6.48                    -5.95026        -107.661
6.5                     -6.05716        -109.425
