! TOUCHSTONE file generated by CST MICROWAVE STUDIO
! Date and time: Sun Oct 30 00:02:54 2022
! Project name: L.cst
! Parameters = {Di=1.27; Epsilon_r=1.56; InnerDiameter=1.27; Length=2; Lf=10; Lg=60; OuterConductorThickness=0.2921; OuterDiameter=3.6; Wf=3; Wp=41.2; de=1.5; df=6.8; g=0.8; gx=0.687807; gy=4.00703; h=2.34; hf=1.524; px=14.5671; py=14.4756; w=9.7; wx=13.8793; wy=10.4686}
! Header version: 2018
! Port assignment regex: !\s*Touchstone port\s*([0-9]+)\s*=\s*(CST MWS port|CST DS port)\s*([0-9]+|Zmin|Zmax)\s*\(\"(.*)\"\)(\s*mode\s*([0-9]+))?.*
! Touchstone port assignment:
! Touchstone port 1 = CST MWS port 1 ("")
# GHz S DB R 50
4.5                     -4.69973         98.2231
4.52                    -5.36259         99.7294
4.54                    -5.99213         104.406
4.56                    -6.06819         112.058
4.58                    -5.26717         118.821
4.6                     -4.08182         121.054
4.62                    -3.06522         119.371
4.64                    -2.34346         115.865
4.66                    -1.86733         111.957
4.68                    -1.57376         108.127
4.7                     -1.39464         104.411
4.72                       -1.28         100.878
4.74                    -1.21812         97.5526
4.76                    -1.20567         94.2955
4.78                    -1.22525         91.0256
4.8                     -1.27468         87.7685
4.82                    -1.37348         84.4789
4.84                    -1.53174         81.0421
4.86                    -1.76108         77.4669
4.88                    -2.10289          73.892
4.9                     -2.60346         70.5079
4.92                    -3.28064         67.5421
4.94                    -4.22085         65.6005
4.96                     -5.4768         66.7675
4.98                    -6.65519         73.8268
5                       -6.80245         85.3833
5.02                    -5.77347         93.7584
5.04                    -4.49013         96.0921
5.06                    -3.45692         94.6841
5.08                    -2.71159         91.6843
5.1                     -2.18669         88.2102
5.12                    -1.82253         84.6435
5.14                    -1.56483         81.0633
5.16                    -1.37197         77.5409
5.18                    -1.23157         74.0944
5.2                     -1.13683         70.6197
5.22                    -1.06943         67.0175
5.24                     -1.0238         63.2703
5.26                    -1.01315         59.2608
5.28                    -1.04456         54.6963
5.3                     -1.12409         49.2488
5.32                     -1.3062         42.3774
5.34                     -1.7513         32.6512
5.36                    -2.94545          16.508
5.38                     -7.2735        -16.5159
5.4                     -13.8193          172.98
5.42                    -4.03064           113.4
5.44                    -1.94548          91.263
5.46                    -1.34264         78.9255
5.48                    -1.03708         71.9244
5.5                     -0.79515         65.9777
5.52                   -0.679765         61.2351
5.54                   -0.614739         57.2359
5.56                   -0.568687         53.6863
5.58                   -0.528779         50.4831
5.6                    -0.498057         47.5488
5.62                   -0.478779         44.7661
5.64                   -0.460069         42.0532
5.66                   -0.434663         39.4387
5.68                   -0.414825         36.9397
5.7                    -0.410289         34.4032
5.72                   -0.405001         31.6312
5.74                   -0.419388         28.4036
5.76                   -0.853009         27.6162
5.78                   -0.469213         26.7086
5.8                    -0.409192         24.1167
5.82                   -0.383191         21.5536
5.84                   -0.349076         19.1481
5.86                   -0.328451         16.8904
5.88                   -0.323835         14.5975
5.9                    -0.312749          12.242
5.92                   -0.294363         9.94237
5.94                   -0.286286         7.68533
5.96                   -0.285506         5.36079
5.98                   -0.277934         2.99359
6                      -0.270373        0.665814
6.02                   -0.276048        -1.67792
6.04                   -0.289516         -4.1166
6.06                   -0.308103        -6.59751
6.08                    -0.35812        -9.05342
6.1                    -0.481429        -11.3299
6.12                    -0.61081        -12.4593
6.14                   -0.439191        -13.5329
6.16                   -0.290656        -16.0921
6.18                   -0.243835        -18.8935
6.2                    -0.226845        -21.6873
6.22                   -0.221654        -24.4251
6.24                   -0.240788        -27.1962
6.26                   -0.291385        -30.2137
6.28                   -0.399039        -33.6501
6.3                    -0.765603        -37.3729
6.32                    -1.54132        -34.9522
6.34                   -0.746571        -33.4398
6.36                   -0.430913        -37.1192
6.38                   -0.346327         -40.505
6.4                    -0.319776         -43.587
6.42                   -0.313774        -46.5098
6.44                   -0.320691         -49.345
6.46                   -0.342287        -52.1694
6.48                   -0.372034        -55.0868
6.5                    -0.395279        -58.0854
