! TOUCHSTONE file generated by CST MICROWAVE STUDIO
! Date and time: Thu Oct 27 09:55:44 2022
! Project name: L.cst
! Parameters = {Di=1.27; Epsilon_r=1.56; InnerDiameter=1.27; Length=2; Lf=10; Lg=60; OuterConductorThickness=0.2921; OuterDiameter=3.6; Wf=3; Wp=41.2; de=1.5; df=6.8; g=0.8; gx=1.23548; gy=0.839991; h=2.34; hf=1.524; px=8.66954; py=9.69313; w=9.7; wx=7.43406; wy=8.85314}
! Header version: 2018
! Port assignment regex: !\s*Touchstone port\s*([0-9]+)\s*=\s*(CST MWS port|CST DS port)\s*([0-9]+|Zmin|Zmax)\s*\(\"(.*)\"\)(\s*mode\s*([0-9]+))?.*
! Touchstone port assignment:
! Touchstone port 1 = CST MWS port 1 ("")
# GHz S DB R 50
4.5                     -0.78213         67.5674
4.52                   -0.809791         65.6992
4.54                   -0.840485         63.8045
4.56                   -0.874042         61.8847
4.58                   -0.910264         59.9406
4.6                    -0.948934         57.9729
4.62                   -0.989832         55.9814
4.64                    -1.03274          53.966
4.66                    -1.07746         51.9259
4.68                     -1.1238         49.8603
4.7                     -1.17159         47.7679
4.72                    -1.22072         45.6474
4.74                    -1.27106         43.4974
4.76                    -1.32253         41.3162
4.78                    -1.37509         39.1022
4.8                      -1.4287         36.8537
4.82                    -1.48337          34.569
4.84                    -1.53912         32.2467
4.86                    -1.59597         29.8852
4.88                    -1.65397          27.483
4.9                     -1.71319         25.0389
4.92                    -1.77369         22.5517
4.94                    -1.83554         20.0203
4.96                     -1.8988         17.4439
4.98                    -1.96353         14.8218
5                       -2.02979         12.1533
5.02                    -2.09761         9.43805
5.04                    -2.16704         6.67571
5.06                    -2.23808         3.86618
5.08                    -2.31073         1.00948
5.1                     -2.38497        -1.89419
5.12                    -2.46077         -4.8445
5.14                    -2.53806        -7.84097
5.16                    -2.61677        -10.8829
5.18                     -2.6968        -13.9696
5.2                     -2.77804           -17.1
5.22                    -2.86035         -20.273
5.24                    -2.94358        -23.4873
5.26                    -3.02755        -26.7412
5.28                     -3.1121        -30.0334
5.3                     -3.19703        -33.3618
5.32                    -3.28214        -36.7245
5.34                     -3.3672        -40.1192
5.36                    -3.45202        -43.5434
5.38                    -3.53636        -46.9945
5.4                     -3.62002        -50.4698
5.42                    -3.70278        -53.9661
5.44                    -3.78443        -57.4804
5.46                    -3.86478        -61.0093
5.48                    -3.94363        -64.5492
5.5                     -4.02082        -68.0965
5.52                    -4.09618        -71.6475
5.54                    -4.16957        -75.1982
5.56                    -4.24086        -78.7447
5.58                    -4.30995        -82.2831
5.6                     -4.37673        -85.8093
5.62                    -4.44115        -89.3193
5.64                    -4.50312        -92.8091
5.66                    -4.56261         -96.275
5.68                    -4.61958         -99.713
5.7                     -4.67398         -103.12
5.72                     -4.7258        -106.492
5.74                      -4.775        -109.826
5.76                    -4.82156        -113.118
5.78                    -4.86544        -116.367
5.8                      -4.9066        -119.571
5.82                    -4.94499        -122.726
5.84                    -4.98055        -125.831
5.86                     -5.0132        -128.885
5.88                    -5.04285        -131.888
5.9                     -5.06942        -134.838
5.92                     -5.0928        -137.737
5.94                    -5.11289        -140.584
5.96                    -5.12959        -143.381
5.98                    -5.14281        -146.129
6                       -5.15247        -148.832
6.02                    -5.15854         -151.49
6.04                    -5.16102        -154.109
6.06                    -5.15995        -156.691
6.08                    -5.15543         -159.24
6.1                     -5.14766        -161.762
6.12                    -5.13688         -164.26
6.14                    -5.12345         -166.74
6.16                    -5.10782        -169.207
6.18                    -5.09056        -171.666
6.2                     -5.07233        -174.122
6.22                    -5.05393        -176.579
6.24                    -5.03624        -179.042
6.26                     -5.0203         178.486
6.28                    -5.00723             176
6.3                     -4.99828         173.498
6.32                     -4.9948         170.979
6.34                    -4.99825         168.441
6.36                    -5.01018         165.886
6.38                    -5.03226         163.314
6.4                     -5.06623         160.728
6.42                    -5.11394         158.133
6.44                    -5.17733         155.534
6.46                    -5.25842         152.941
6.48                     -5.3593         150.365
6.5                     -5.48213         147.818
