! TOUCHSTONE file generated by CST MICROWAVE STUDIO
! Date and time: Fri Oct 28 23:25:11 2022
! Project name: L.cst
! Parameters = {Di=1.27; Epsilon_r=1.56; InnerDiameter=1.27; Length=2; Lf=10; Lg=60; OuterConductorThickness=0.2921; OuterDiameter=3.6; Wf=3; Wp=41.2; de=1.5; df=6.8; g=0.8; gx=1.52042; gy=0.70093; h=2.34; hf=1.524; px=12.563; py=9.42204; w=9.7; wx=11.0425; wy=8.72111}
! Header version: 2018
! Port assignment regex: !\s*Touchstone port\s*([0-9]+)\s*=\s*(CST MWS port|CST DS port)\s*([0-9]+|Zmin|Zmax)\s*\(\"(.*)\"\)(\s*mode\s*([0-9]+))?.*
! Touchstone port assignment:
! Touchstone port 1 = CST MWS port 1 ("")
# GHz S DB R 50
4.5                     -5.84282         29.7038
4.52                    -6.28422         26.2568
4.54                    -6.76115         22.6708
4.56                    -7.28006         18.9531
4.58                    -7.84576         15.1186
4.6                     -8.46103         11.1818
4.62                    -9.12681         7.14642
4.64                    -9.84306         2.99811
4.66                    -10.6098        -1.30153
4.68                    -11.4285        -5.81708
4.7                     -12.3028        -10.6393
4.72                    -13.2386        -15.8845
4.74                    -14.2434        -21.6967
4.76                    -15.3236         -28.255
4.78                    -16.4804         -35.789
4.8                     -17.7014         -44.595
4.82                    -18.9477        -55.0354
4.84                    -20.1345         -67.466
4.86                    -21.1173         -82.002
4.88                    -21.7181        -98.1269
4.9                      -21.822        -114.536
4.92                    -21.4679        -129.722
4.94                    -20.8126        -142.805
4.96                    -20.0209          -153.7
4.98                    -19.2059        -162.742
5                       -18.4301        -170.351
5.02                    -17.7231        -176.881
5.04                    -17.0963         177.409
5.06                    -16.5518          172.34
5.08                    -16.0862         167.795
5.1                     -15.6933         163.689
5.12                    -15.3654         159.961
5.14                    -15.0951         156.555
5.16                    -14.8763          153.42
5.18                     -14.705         150.509
5.2                       -14.58         147.784
5.22                    -14.5025         145.219
5.24                    -14.4756          142.81
5.26                    -14.5028         140.572
5.28                    -14.5874         138.543
5.3                      -14.731         136.778
5.32                    -14.9334         135.348
5.34                    -15.1922          134.33
5.36                    -15.5031         133.814
5.38                    -15.8599         133.903
5.4                     -16.2532         134.725
5.42                     -16.667         136.447
5.44                    -17.0713         139.275
5.46                    -17.4107         143.406
5.48                    -17.5961         148.892
5.5                     -17.5178         155.416
5.52                    -17.0944         162.165
5.54                    -16.3316         168.068
5.56                    -15.3264         172.292
5.58                    -14.2102         174.532
5.6                      -13.094         174.911
5.62                    -12.0511          173.74
5.64                    -11.1228         171.368
5.66                    -10.3299          168.11
5.68                    -9.68103         164.229
5.7                      -9.1787         159.951
5.72                    -8.82197         155.464
5.74                    -8.60819         150.941
5.76                    -8.53368         146.541
5.78                    -8.59375         142.426
5.8                     -8.78207         138.768
5.82                    -9.08916          135.76
5.84                    -9.49937         133.627
5.86                    -9.98566         132.623
5.88                    -10.5016         133.015
5.9                     -10.9726         135.002
5.92                    -11.2946         138.566
5.94                    -11.3563         143.282
5.96                    -11.0904         148.292
5.98                    -10.5157         152.607
6                       -9.72398          155.54
6.02                    -8.82674         156.864
6.04                    -7.91407         156.689
6.06                    -7.04405         155.267
6.08                    -6.24863         152.876
6.1                     -5.54256         149.761
6.12                    -4.93026         146.128
6.14                    -4.41005          142.14
6.16                     -3.9766         137.928
6.18                    -3.62234         133.594
6.2                     -3.33835         129.212
6.22                    -3.11494         124.835
6.24                     -2.9423         120.492
6.26                    -2.81105         116.191
6.28                    -2.71287         111.922
6.3                     -2.64108         107.656
6.32                     -2.5912         103.347
6.34                    -2.56146         98.9409
6.36                    -2.55323          94.371
6.38                    -2.57149         89.5661
6.4                     -2.62519         84.4525
6.42                    -2.72773         78.9574
6.44                    -2.89737         73.0121
6.46                     -3.1579         66.5536
6.48                    -3.53971         59.5236
6.5                     -4.08189         51.8636
