! TOUCHSTONE file generated by CST MICROWAVE STUDIO
! Date and time: Sat Oct 29 00:35:15 2022
! Project name: L.cst
! Parameters = {Di=1.27; Epsilon_r=1.56; InnerDiameter=1.27; Length=2; Lf=10; Lg=60; OuterConductorThickness=0.2921; OuterDiameter=3.6; Wf=3; Wp=41.2; de=1.5; df=6.8; g=0.8; gx=2.76631; gy=4.20564; h=2.34; hf=1.524; px=11.0628; py=14.8247; w=9.7; wx=8.2965; wy=10.6191}
! Header version: 2018
! Port assignment regex: !\s*Touchstone port\s*([0-9]+)\s*=\s*(CST MWS port|CST DS port)\s*([0-9]+|Zmin|Zmax)\s*\(\"(.*)\"\)(\s*mode\s*([0-9]+))?.*
! Touchstone port assignment:
! Touchstone port 1 = CST MWS port 1 ("")
# GHz S DB R 50
4.5                    -0.474569         92.9922
4.52                   -0.462381         91.5171
4.54                   -0.480042         89.8997
4.56                   -0.517709          88.445
4.58                   -0.532067         87.1066
4.6                    -0.527927         85.6169
4.62                   -0.542951         83.9946
4.64                   -0.576191         82.4704
4.66                   -0.594949         81.0487
4.68                   -0.597222         79.5275
4.7                    -0.611489         77.8859
4.72                   -0.641968         76.2984
4.74                    -0.66399         74.7989
4.76                   -0.671625          73.235
4.78                   -0.686367         71.5631
4.8                    -0.715429         69.9148
4.82                   -0.740255          68.341
4.84                   -0.752625         66.7277
4.86                   -0.768614         65.0179
4.88                   -0.797148         63.3097
4.9                    -0.824463         61.6638
4.92                   -0.841068         59.9959
4.94                   -0.858766         58.2418
4.96                   -0.887433         56.4729
4.98                   -0.917141         54.7552
5                      -0.937743         53.0284
5.02                   -0.957581         51.2249
5.04                   -0.986987         49.3944
5.06                    -1.01916         47.6053
5.08                    -1.04363         45.8174
5.1                     -1.06586         43.9612
5.12                    -1.09634         42.0683
5.14                    -1.13094          40.208
5.16                    -1.15911         38.3569
5.18                    -1.18381         36.4451
5.2                     -1.21559         34.4884
5.22                    -1.25263          32.556
5.24                    -1.28442         30.6396
5.26                    -1.31165         28.6698
5.28                    -1.34485         26.6474
5.3                     -1.38442         24.6413
5.32                    -1.41991         22.6581
5.34                    -1.44979         20.6286
5.36                    -1.48445          18.539
5.38                    -1.52658         16.4572
5.4                     -1.56592         14.4048
5.42                    -1.59858         12.3141
5.44                    -1.63474         10.1553
5.46                    -1.67956         7.99455
5.48                     -1.7231         5.86988
5.5                     -1.75891         3.71622
5.52                    -1.79673         1.48601
5.54                    -1.84451       -0.757982
5.56                    -1.89291        -2.95867
5.58                    -1.93247        -5.17693
5.6                     -1.97219        -7.48135
5.62                    -2.02339        -9.81481
5.64                    -2.07768        -12.0972
5.66                    -2.12188        -14.3824
5.68                    -2.16378        -16.7658
5.7                     -2.21893        -19.2001
5.72                    -2.28071        -21.5761
5.74                    -2.33111        -23.9355
5.76                    -2.37578        -26.4093
5.78                    -2.43608        -28.9684
5.8                     -2.50853        -31.4643
5.82                    -2.56867        -33.9178
5.84                     -2.6185        -36.5097
5.86                    -2.68782        -39.2436
5.88                    -2.77911        -41.9154
5.9                      -2.8589        -44.5066
5.92                    -2.92281        -47.2746
5.94                    -3.01462        -50.2841
5.96                    -3.14942        -53.2418
5.98                    -3.28037        -56.0493
6                       -3.39236        -59.0966
6.02                    -3.55993        -62.5714
6.04                    -3.83315        -65.9809
6.06                    -4.14747        -68.9906
6.08                    -4.48219        -72.2211
6.1                     -5.04942        -75.8649
6.12                    -6.06422        -77.4159
6.14                    -7.06239        -72.3833
6.16                    -6.72183        -63.4156
6.18                    -5.28192        -61.6401
6.2                     -4.17509        -67.6229
6.22                    -3.85445        -75.9125
6.24                    -4.05989        -82.7333
6.26                    -4.33884        -87.7103
6.28                    -4.57888        -92.8368
6.3                     -5.02128        -98.4893
6.32                    -5.66673        -103.083
6.34                    -6.22794        -107.381
6.36                     -7.0098        -115.018
6.38                    -9.29757        -125.472
6.4                     -15.4945        -121.122
6.42                    -14.3851        -48.0193
6.44                    -7.41692         -49.774
6.46                    -4.51496        -67.7983
6.48                    -3.80904        -85.5076
6.5                     -4.32794        -97.4412
