! TOUCHSTONE file generated by CST MICROWAVE STUDIO
! Date and time: Thu Oct 27 06:15:45 2022
! Project name: L.cst
! Parameters = {Di=1.27; Epsilon_r=1.56; InnerDiameter=1.27; Length=2; Lf=10; Lg=60; OuterConductorThickness=0.2921; OuterDiameter=3.6; Wf=3; Wp=41.2; de=1.5; df=6.8; g=0.8; gx=0.714881; gy=1.07072; h=2.34; hf=1.524; px=14.5303; py=9.76956; w=9.7; wx=13.8154; wy=8.69884}
! Header version: 2018
! Port assignment regex: !\s*Touchstone port\s*([0-9]+)\s*=\s*(CST MWS port|CST DS port)\s*([0-9]+|Zmin|Zmax)\s*\(\"(.*)\"\)(\s*mode\s*([0-9]+))?.*
! Touchstone port assignment:
! Touchstone port 1 = CST MWS port 1 ("")
# GHz S DB R 50
4.5                     -3.43805         96.3481
4.52                    -3.47627         93.5793
4.54                    -3.52185         90.2976
4.56                    -3.61265         87.0851
4.58                    -3.73237          83.334
4.6                     -3.87891         79.5015
4.62                    -4.08701         74.9932
4.64                    -4.33374         70.1424
4.66                    -4.68792         64.4784
4.68                       -5.11         58.1188
4.7                     -5.69176           50.58
4.72                    -6.40312          41.544
4.74                    -7.37126          30.258
4.76                    -8.56636         15.5487
4.78                    -10.0399        -4.54928
4.8                      -11.311        -32.7537
4.82                    -11.4802         -68.459
4.84                    -9.97994        -102.558
4.86                     -7.8765        -129.347
4.88                    -5.93292        -149.795
4.9                     -4.40645        -166.564
4.92                    -3.27007         179.184
4.94                    -2.52764         166.439
4.96                    -2.20504         155.444
4.98                    -2.18871         147.441
5                       -2.07837         141.978
5.02                    -1.88554         137.019
5.04                    -1.67587         132.266
5.06                    -1.51543         127.695
5.08                    -1.37085         123.317
5.1                     -1.27632          119.18
5.12                    -1.19543         115.152
5.14                    -1.15591         111.382
5.16                     -1.1298         107.635
5.18                    -1.13235         104.135
5.2                     -1.15742         100.522
5.22                     -1.2115         97.0571
5.24                    -1.35159         93.2784
5.26                     -1.6352         89.7242
5.28                    -2.32858         87.9568
5.3                     -2.47997         92.8201
5.32                    -1.50963         92.5552
5.34                    -1.07342         87.4425
5.36                    -0.94165         82.9306
5.38                   -0.940621         78.5692
5.4                    -0.954226         74.5446
5.42                    -1.15107         70.1559
5.44                    -1.31997         68.1505
5.46                    -1.13491         64.6561
5.48                    -1.14876         59.8022
5.5                     -1.19146         54.7435
5.52                    -1.29459         49.0182
5.54                    -1.41988         42.3153
5.56                      -1.614          34.075
5.58                    -1.89955         23.2344
5.6                      -2.3632         7.93906
5.62                     -3.1535         -15.806
5.64                    -4.29467        -55.9479
5.66                    -4.64012         -118.43
5.68                     -3.0961        -178.689
5.7                     -1.83231         142.371
5.72                    -1.22495         118.678
5.74                   -0.978088         103.143
5.76                   -0.853732         92.1459
5.78                   -0.810243         83.7532
5.8                    -0.778969         76.9448
5.82                   -0.778753         71.2085
5.84                   -0.776704         66.1249
5.86                   -0.790634          61.617
5.88                   -0.800577         57.3979
5.9                    -0.814961         53.5371
5.92                   -0.826814         49.7715
5.94                   -0.837558         46.2315
5.96                   -0.852563         42.6865
5.98                   -0.861527         39.3234
6                      -0.873359         35.8113
6.02                   -0.913557         32.4791
6.04                   -0.926137         29.2688
6.06                   -0.938901         25.8945
6.08                   -0.958448         22.5885
6.1                     -0.97871         19.1736
6.12                     -1.0032         15.8201
6.14                    -1.03127         12.3531
6.16                    -1.05796         8.93218
6.18                    -1.09341         5.38314
6.2                     -1.12441         1.85034
6.22                    -1.17218        -1.79256
6.24                    -1.21217        -5.43692
6.26                     -1.2724         -9.1486
6.28                    -1.32075        -12.9051
6.3                     -1.39105        -16.6905
6.32                    -1.45091        -20.5763
6.34                    -1.53295        -24.4271
6.36                     -1.6078        -28.4142
6.38                    -1.69751        -32.3032
6.4                     -1.78522        -36.3735
6.42                    -1.87777        -40.3136
6.44                     -1.9801        -44.4577
6.46                    -2.07459        -48.4424
6.48                    -2.18918        -52.6061
6.5                     -2.27739          -56.64
