! TOUCHSTONE file generated by CST MICROWAVE STUDIO
! Date and time: Wed Oct 26 17:49:24 2022
! Project name: L.cst
! Parameters = {Di=1.27; Epsilon_r=1.56; InnerDiameter=1.27; Length=2; Lf=10; Lg=60; OuterConductorThickness=0.2921; OuterDiameter=3.6; Wf=3; Wp=41.2; de=1.5; df=6.8; g=0.8; gx=4.36475; gy=4.11619; h=2.34; hf=1.524; px=14.0839; py=13.1431; w=9.7; wx=9.71911; wy=9.02692}
! Header version: 2018
! Port assignment regex: !\s*Touchstone port\s*([0-9]+)\s*=\s*(CST MWS port|CST DS port)\s*([0-9]+|Zmin|Zmax)\s*\(\"(.*)\"\)(\s*mode\s*([0-9]+))?.*
! Touchstone port assignment:
! Touchstone port 1 = CST MWS port 1 ("")
# GHz S DB R 50
4.5                    -0.516031         94.5751
4.52                   -0.532635         93.0704
4.54                   -0.550121         91.5491
4.56                   -0.568563         90.0115
4.58                   -0.588013          88.458
4.6                    -0.608497         86.8889
4.62                   -0.630027         85.3044
4.64                   -0.652596         83.7047
4.66                    -0.67619         82.0897
4.68                   -0.700787         80.4596
4.7                    -0.726363         78.8142
4.72                   -0.752892         77.1532
4.74                   -0.780352         75.4764
4.76                   -0.808726         73.7834
4.78                   -0.838005         72.0737
4.8                     -0.86819         70.3469
4.82                   -0.899286         68.6024
4.84                   -0.931313         66.8397
4.86                   -0.964299         65.0583
4.88                   -0.998281         63.2576
4.9                      -1.0333          61.437
4.92                    -1.06942         59.5962
4.94                     -1.1067         57.7346
4.96                    -1.14519         55.8519
4.98                    -1.18498         53.9476
5                       -1.22613         52.0214
5.02                    -1.26872         50.0731
5.04                    -1.31283         48.1024
5.06                    -1.35853         46.1091
5.08                    -1.40589         44.0931
5.1                     -1.45499         42.0543
5.12                     -1.5059         39.9927
5.14                    -1.55868         37.9082
5.16                    -1.61339         35.8008
5.18                    -1.67011         33.6706
5.2                     -1.72887         31.5176
5.22                    -1.78974          29.342
5.24                    -1.85277         27.1437
5.26                      -1.918          24.923
5.28                    -1.98548           22.68
5.3                     -2.05526         20.4147
5.32                    -2.12737         18.1273
5.34                    -2.20185         15.8181
5.36                    -2.27876         13.4873
5.38                    -2.35812         11.1349
5.4                     -2.43998         8.76131
5.42                     -2.5244         6.36676
5.44                     -2.6114         3.95154
5.46                    -2.70104         1.51598
5.48                    -2.79337       -0.939518
5.5                     -2.88845        -3.41453
5.52                    -2.98632        -5.90856
5.54                    -3.08704        -8.42103
5.56                    -3.19067        -10.9513
5.58                    -3.29728        -13.4987
5.6                     -3.40693        -16.0623
5.62                    -3.51967        -18.6413
5.64                    -3.63557        -21.2345
5.66                    -3.75469        -23.8409
5.68                    -3.87708        -26.4592
5.7                     -4.00279         -29.088
5.72                    -4.13186        -31.7256
5.74                    -4.26433        -34.3705
5.76                    -4.40021        -37.0206
5.78                     -4.5395        -39.6743
5.8                     -4.68219        -42.3291
5.82                    -4.82823         -44.983
5.84                    -4.97757        -47.6333
5.86                    -5.13009        -50.2778
5.88                    -5.28566        -52.9136
5.9                     -5.44409        -55.5382
5.92                    -5.60516        -58.1488
5.94                    -5.76858        -60.7426
5.96                    -5.93402        -63.3171
5.98                    -6.10106        -65.8697
6                       -6.26925        -68.3981
6.02                    -6.43802        -70.9003
6.04                    -6.60679        -73.3747
6.06                    -6.77486        -75.8203
6.08                    -6.94152        -78.2366
6.1                     -7.10596        -80.6241
6.12                    -7.26736        -82.9841
6.14                    -7.42488         -85.319
6.16                     -7.5777        -87.6324
6.18                    -7.72501        -89.9292
6.2                      -7.8661        -92.2156
6.22                    -8.00036        -94.4991
6.24                    -8.12735        -96.7886
6.26                    -8.24682        -99.0942
6.28                    -8.35874        -101.427
6.3                     -8.46339        -103.799
6.32                     -8.5613        -106.223
6.34                    -8.65335        -108.712
6.36                    -8.74072        -111.278
6.38                    -8.82492        -113.935
6.4                     -8.90777        -116.693
6.42                    -8.99137        -119.566
6.44                    -9.07811        -122.562
6.46                     -9.1706        -125.691
6.48                    -9.27171        -128.963
6.5                     -9.38451        -132.384
