! TOUCHSTONE file generated by CST MICROWAVE STUDIO
! Date and time: Sat Oct 29 20:05:02 2022
! Project name: L.cst
! Parameters = {Di=1.27; Epsilon_r=1.56; InnerDiameter=1.27; Length=2; Lf=10; Lg=60; OuterConductorThickness=0.2921; OuterDiameter=3.6; Wf=3; Wp=41.2; de=1.5; df=6.8; g=0.8; gx=2.25201; gy=2.64432; h=2.34; hf=1.524; px=14.9512; py=12.8749; w=9.7; wx=12.6992; wy=10.2306}
! Header version: 2018
! Port assignment regex: !\s*Touchstone port\s*([0-9]+)\s*=\s*(CST MWS port|CST DS port)\s*([0-9]+|Zmin|Zmax)\s*\(\"(.*)\"\)(\s*mode\s*([0-9]+))?.*
! Touchstone port assignment:
! Touchstone port 1 = CST MWS port 1 ("")
# GHz S DB R 50
4.5                     -5.09667         66.0286
4.52                     -5.4871          64.643
4.54                    -5.89536         63.5258
4.56                    -6.33661         62.5498
4.58                    -6.77952         61.7714
4.6                      -7.2417         61.3335
4.62                    -7.71854         61.0922
4.64                    -8.18284         61.1853
4.66                    -8.65382         61.6532
4.68                    -9.10819         62.3673
4.7                     -9.52722         63.4732
4.72                    -9.92507         64.8873
4.74                    -10.2682         66.4873
4.76                    -10.5538          68.355
4.78                    -10.7922         70.2965
4.8                      -10.957         72.2067
4.82                    -11.0666          74.111
4.84                    -11.1317         75.7898
4.86                    -11.1423         77.2265
4.88                    -11.1297         78.4415
4.9                     -11.0998         79.2776
4.92                     -11.054         79.8234
4.94                    -11.0227         80.0858
4.96                    -11.0035         79.9879
4.98                    -11.0065         79.6684
5                       -11.0558         79.1018
5.02                    -11.1464         78.2904
5.04                    -11.2994         77.3874
5.06                     -11.535         76.3637
5.08                    -11.8571         75.3482
5.1                     -12.3026         74.5695
5.12                    -12.8932         74.1758
5.14                    -13.6442         74.7152
5.16                    -14.5773         76.9753
5.18                    -15.6049         82.0565
5.2                     -16.4408         91.3714
5.22                    -16.5681         104.154
5.24                      -15.69         115.874
5.26                    -14.2537         122.766
5.28                    -12.8749         124.915
5.3                     -11.8238          124.35
5.32                    -11.1362         123.234
5.34                    -10.6992         123.029
5.36                    -10.2625         124.457
5.38                    -9.57893         126.929
5.4                     -8.56761         128.568
5.42                    -7.37586         127.995
5.44                    -6.23884         125.119
5.46                    -5.28569         120.601
5.48                    -4.54314         115.296
5.5                     -3.99543         109.734
5.52                    -3.59278         104.204
5.54                    -3.29726         98.8745
5.56                    -3.07864         93.6951
5.58                    -2.90784         88.5767
5.6                     -2.79411         83.4676
5.62                    -2.72604         78.2498
5.64                    -2.70822         72.8846
5.66                    -2.75642         67.2495
5.68                     -2.8716         61.1981
5.7                     -3.08353         54.5053
5.72                    -3.44744         46.5778
5.74                    -4.09788         36.5027
5.76                    -5.45388          22.087
5.78                    -8.95287        -2.51612
5.8                     -20.7585         -104.84
5.82                    -7.79704          141.41
5.84                     -3.9079          109.49
5.86                    -2.67616         90.9282
5.88                    -2.26295         78.8055
5.9                     -2.08274         69.6653
5.92                     -1.9993         62.6627
5.94                    -2.04708         56.3001
5.96                    -2.08792         49.7518
5.98                    -2.73703         47.4834
6                       -2.09487          45.551
6.02                     -2.0882         39.6713
6.04                    -2.04963         34.9647
6.06                    -2.11079         30.7833
6.08                      -2.167          26.254
6.1                     -2.20035         22.0667
6.12                    -2.29501         17.8091
6.14                    -2.36572         13.3059
6.16                    -2.45654         8.99675
6.18                    -2.59183         4.36077
6.2                     -2.71097       -0.399621
6.22                    -2.88987        -5.17517
6.24                     -3.1036        -10.4191
6.26                    -3.34423        -15.7098
6.28                    -3.69642        -21.3124
6.3                     -4.11718        -27.3828
6.32                    -4.69875        -33.4195
6.34                    -5.55135        -39.7514
6.36                    -6.74172          -45.15
6.38                    -8.52045         -46.235
6.4                     -9.96216        -36.2994
6.42                    -8.27075        -25.1746
6.44                    -6.06761        -34.4683
6.46                    -5.43324        -53.0011
6.48                    -5.97378        -72.6211
6.5                     -7.32543        -94.7925
