! TOUCHSTONE file generated by CST MICROWAVE STUDIO
! Date and time: Fri Oct 28 21:09:14 2022
! Project name: L.cst
! Parameters = {Di=1.27; Epsilon_r=1.56; InnerDiameter=1.27; Length=2; Lf=10; Lg=60; OuterConductorThickness=0.2921; OuterDiameter=3.6; Wf=3; Wp=41.2; de=1.5; df=6.8; g=0.8; gx=2.07315; gy=2.27021; h=2.34; hf=1.524; px=13.8431; py=11.5941; w=9.7; wx=11.77; wy=9.32388}
! Header version: 2018
! Port assignment regex: !\s*Touchstone port\s*([0-9]+)\s*=\s*(CST MWS port|CST DS port)\s*([0-9]+|Zmin|Zmax)\s*\(\"(.*)\"\)(\s*mode\s*([0-9]+))?.*
! Touchstone port assignment:
! Touchstone port 1 = CST MWS port 1 ("")
# GHz S DB R 50
4.5                     -3.55393         58.9936
4.52                    -3.80298         56.6806
4.54                    -4.09322          54.231
4.56                     -4.3935         51.9415
4.58                    -4.71272         49.4768
4.6                     -5.06875         47.1552
4.62                     -5.4277         44.7666
4.64                    -5.83611         42.4018
4.66                    -6.25084         40.1332
4.68                    -6.70821         37.7828
4.7                     -7.19261         35.6341
4.72                     -7.7022         33.4094
4.74                    -8.26282         31.3746
4.76                    -8.83723         29.4005
4.78                    -9.47367         27.5208
4.8                      -10.132         25.8983
4.82                    -10.8433         24.3098
4.84                    -11.6022         23.1201
4.86                    -12.3943         22.0564
4.88                    -13.2598         21.4267
4.9                     -14.1457         21.1941
4.92                    -15.1096          21.395
4.94                     -16.095         22.3738
4.96                    -17.1276         23.8877
4.98                    -18.1795         26.5589
5                       -19.2009         30.0209
5.02                    -20.1987         34.8238
5.04                    -21.0362         40.5812
5.06                    -21.7561          47.225
5.08                    -22.2062         54.3708
5.1                     -22.4961         61.1615
5.12                    -22.5742         67.6597
5.14                    -22.5703         72.8802
5.16                    -22.5346         77.5974
5.18                    -22.5056         81.1502
5.2                     -22.5998         84.4534
5.22                    -22.7578         87.4061
5.24                    -23.1277         90.6007
5.26                    -23.6094         94.8394
5.28                    -24.2899         100.593
5.3                     -24.9747         109.871
5.32                    -25.3709         122.842
5.34                    -24.9239         139.239
5.36                    -23.4151         153.499
5.38                    -21.3217         162.954
5.4                     -19.1133         166.896
5.42                    -17.1167         167.088
5.44                     -15.364         164.551
5.46                    -13.9423         160.167
5.48                    -12.8148         154.774
5.5                     -11.9943         148.671
5.52                    -11.4673         142.586
5.54                    -11.1877         136.721
5.56                    -11.1635         131.516
5.58                    -11.3278         127.369
5.6                     -11.6731         124.487
5.62                     -12.129         123.602
5.64                    -12.5814         124.906
5.66                    -12.8746         128.911
5.68                    -12.7213         134.742
5.7                     -12.0397         140.605
5.72                    -10.8714         144.452
5.74                    -9.52465         145.182
5.76                     -8.1869         143.274
5.78                    -7.00126         139.107
5.8                     -6.02815         133.694
5.82                    -5.24452          127.39
5.84                    -4.67807         120.707
5.86                     -4.2553         114.003
5.88                    -3.99005         107.191
5.9                     -3.83675         100.936
5.92                    -3.66935         94.6175
5.94                    -3.61202         87.6509
5.96                    -3.69663         80.7773
5.98                    -3.85104         73.9219
6                       -4.08685         66.7666
6.02                    -4.43845         59.0324
6.04                    -4.96891         50.5687
6.06                    -5.73761         40.8767
6.08                    -6.97345         29.0765
6.1                      -9.0744         13.9663
6.12                    -13.2021        -9.82392
6.14                    -21.9094        -86.7183
6.16                    -13.3886          173.02
6.18                    -7.90669         141.937
6.2                     -5.39796         120.121
6.22                    -4.24008         103.895
6.24                    -3.62362         91.0384
6.26                    -3.41091         80.3109
6.28                    -3.30961         71.8822
6.3                     -3.28739         63.6133
6.32                    -3.44177         56.9672
6.34                    -3.41962         50.3313
6.36                     -3.7464         43.3679
6.38                    -3.82368          38.571
6.4                     -4.21343         28.1829
6.42                    -6.30174         27.6618
6.44                    -5.04018         38.4549
6.46                    -3.55721         25.3728
6.48                     -4.4124         15.0014
6.5                     -4.47865         11.9153
