! TOUCHSTONE file generated by CST MICROWAVE STUDIO
! Date and time: Sat Oct 29 00:08:58 2022
! Project name: L.cst
! Parameters = {Di=1.27; Epsilon_r=1.56; InnerDiameter=1.27; Length=2; Lf=10; Lg=60; OuterConductorThickness=0.2921; OuterDiameter=3.6; Wf=3; Wp=41.2; de=1.5; df=6.8; g=0.8; gx=4.71309; gy=0.698917; h=2.34; hf=1.524; px=13.3621; py=13.6513; w=9.7; wx=8.64901; wy=12.9524}
! Header version: 2018
! Port assignment regex: !\s*Touchstone port\s*([0-9]+)\s*=\s*(CST MWS port|CST DS port)\s*([0-9]+|Zmin|Zmax)\s*\(\"(.*)\"\)(\s*mode\s*([0-9]+))?.*
! Touchstone port assignment:
! Touchstone port 1 = CST MWS port 1 ("")
# GHz S DB R 50
4.5                     -1.20001         65.7129
4.52                    -1.16093         62.7875
4.54                    -1.28995          59.523
4.56                    -1.33725         56.9271
4.58                    -1.35772         53.1923
4.6                     -1.50283         49.6543
4.62                    -1.53798         46.0906
4.64                    -1.63616         41.4926
4.66                    -1.79766         37.1906
4.68                    -1.88449         32.2372
4.7                     -2.09167         26.4416
4.72                     -2.3303         20.6879
4.74                    -2.57318          13.819
4.76                    -2.98985         6.20806
4.78                    -3.46558        -1.73047
4.8                     -4.05972        -11.0391
4.82                    -4.90806        -20.9542
4.84                    -5.87787        -31.3156
4.86                    -7.06029        -43.0552
4.88                    -8.52934        -55.1464
4.9                     -10.0464        -67.8501
4.92                    -11.6615        -82.6136
4.94                    -13.3091        -98.2184
4.96                    -14.4909         -115.08
4.98                    -15.2015        -133.944
5                       -15.4433        -151.144
5.02                    -14.9915        -165.982
5.04                    -14.3075        -179.575
5.06                     -13.614         169.806
5.08                    -12.7649         160.708
5.1                     -12.0868         151.807
5.12                    -11.6073         144.427
5.14                    -11.2455          137.48
5.16                    -11.3004         131.411
5.18                    -11.6889         129.028
5.2                     -12.0555         131.908
5.22                    -11.5486         140.868
5.24                    -9.46535         146.557
5.26                    -7.17261         143.184
5.28                    -5.38972         135.259
5.3                     -4.07683         125.424
5.32                    -3.18285         115.048
5.34                    -2.54601         104.994
5.36                    -2.06134          94.865
5.38                    -1.75264         84.6691
5.4                     -1.54808          74.581
5.42                    -1.42901         64.0343
5.44                     -1.4522         53.0787
5.46                    -1.56603         41.7461
5.48                    -1.79177         29.4032
5.5                     -2.20143         16.1035
5.52                    -2.75061         1.66695
5.54                    -3.48588        -14.8523
5.56                    -4.48711        -33.7319
5.58                    -5.64349        -55.7411
5.6                      -6.8184        -82.8047
5.62                    -7.73485        -115.213
5.64                     -7.8131        -150.223
5.66                    -6.95383         176.036
5.68                    -5.77452         145.972
5.7                     -4.69129         119.998
5.72                     -3.7714         96.3624
5.74                    -3.16431         73.1779
5.76                    -2.93925         50.1536
5.78                    -2.97204         26.2574
5.8                     -3.31567       -0.736293
5.82                    -4.07496        -32.1741
5.84                    -4.96517        -70.0058
5.86                    -5.36037        -116.956
5.88                    -4.77108        -169.628
5.9                     -3.64164         140.489
5.92                     -2.7658          96.184
5.94                    -2.50585         54.9546
5.96                    -3.01983         13.9975
5.98                    -4.14559        -27.9911
6                       -5.06066        -72.6655
6.02                    -4.88493        -121.444
6.04                    -3.91886        -169.784
6.06                    -2.92399         148.451
6.08                    -1.79449         111.274
6.1                    -0.896525         68.0127
6.12                     -1.4781         10.5515
6.14                    -3.09025        -69.6067
6.16                    -1.93167        -158.498
6.18                   -0.324453         138.531
6.2                    -0.480284         99.6277
6.22                   -0.721347         78.0169
6.24                   -0.501935         58.4191
6.26                    -1.08379         40.7919
6.28                    -1.53233         30.0582
6.3                     -1.53709         17.3971
6.32                    -2.22955         5.45811
6.34                    -2.56715        -1.57639
6.36                     -2.6332        -12.2557
6.38                    -3.38309        -21.0764
6.4                     -3.50279        -26.4325
6.42                    -3.65167        -36.5586
6.44                     -4.3975        -42.7393
6.46                    -4.25358        -47.7353
6.48                    -4.57026        -57.5829
6.5                     -5.19394        -61.1134
