! TOUCHSTONE file generated by CST MICROWAVE STUDIO
! Date and time: Fri Oct 28 23:17:06 2022
! Project name: L.cst
! Parameters = {Di=1.27; Epsilon_r=1.56; InnerDiameter=1.27; Length=2; Lf=10; Lg=60; OuterConductorThickness=0.2921; OuterDiameter=3.6; Wf=3; Wp=41.2; de=1.5; df=6.8; g=0.8; gx=4.28308; gy=1.77519; h=2.34; hf=1.524; px=11.2442; py=13.7682; w=9.7; wx=6.96108; wy=11.993}
! Header version: 2018
! Port assignment regex: !\s*Touchstone port\s*([0-9]+)\s*=\s*(CST MWS port|CST DS port)\s*([0-9]+|Zmin|Zmax)\s*\(\"(.*)\"\)(\s*mode\s*([0-9]+))?.*
! Touchstone port assignment:
! Touchstone port 1 = CST MWS port 1 ("")
# GHz S DB R 50
4.5                    -0.554048         80.3504
4.52                    -0.59573         78.7158
4.54                   -0.591302         76.9998
4.56                   -0.612577         75.0112
4.58                   -0.654086          73.219
4.6                     -0.65842         71.3976
4.62                   -0.677648         69.3199
4.64                   -0.718967         67.3631
4.66                   -0.731055         65.4081
4.68                   -0.749975         63.2146
4.7                    -0.791334         61.0774
4.72                   -0.810519         58.9573
4.74                   -0.830587         56.6152
4.76                    -0.87249         54.2725
4.78                   -0.898517         51.9496
4.8                    -0.921068         49.4179
4.82                    -0.96419         46.8332
4.84                   -0.997145          44.259
4.86                    -1.02363         41.4842
4.88                    -1.06907         38.6052
4.9                     -1.10969         35.7155
4.92                    -1.14204         32.6263
4.94                    -1.19163          29.379
4.96                    -1.24174         26.0862
4.98                    -1.28318         22.5856
5                       -1.34035         18.8669
5.02                    -1.40386         15.0513
5.04                    -1.46023         11.0069
5.06                    -1.53172         6.67579
5.08                     -1.6167         2.17713
5.1                     -1.69899        -2.58367
5.12                    -1.79756        -7.70717
5.14                    -1.91895         -13.085
5.16                    -2.04607        -18.7643
5.18                    -2.19271         -24.876
5.2                     -2.37312        -31.3311
5.22                    -2.57072        -38.1141
5.24                    -2.79056         -45.366
5.26                    -3.05174        -53.0282
5.28                    -3.33916        -61.0125
5.3                     -3.64423        -69.4414
5.32                    -3.98561        -78.3057
5.34                    -4.35223        -87.4469
5.36                    -4.72018        -96.9247
5.38                    -5.10247        -106.783
5.4                     -5.49886        -116.801
5.42                    -5.87599        -126.899
5.44                    -6.23667        -137.144
5.46                    -6.59802        -147.289
5.48                    -6.92922        -157.079
5.5                     -7.21631        -166.579
5.52                    -7.48862        -175.644
5.54                    -7.72518         176.065
5.56                    -7.88707         168.447
5.58                    -8.00017         161.395
5.6                     -8.05754         155.161
5.62                    -8.00356         149.567
5.64                    -7.86184         144.212
5.66                    -7.65681         139.205
5.68                    -7.34565          134.39
5.7                     -6.95882         129.278
5.72                    -6.55304         123.959
5.74                     -6.1029         118.477
5.76                    -5.62603         112.443
5.78                    -5.18593         105.928
5.8                     -4.76646         99.1414
5.82                    -4.35961         91.7894
5.84                    -4.02245         83.8149
5.86                     -3.7536         75.4756
5.88                    -3.51985         66.5627
5.9                     -3.34471         56.7773
5.92                    -3.20942         45.9357
5.94                    -3.07141         32.8484
5.96                    -3.08747         15.3862
5.98                    -3.60668        -8.39476
6                       -4.94828        -41.0703
6.02                    -6.89997        -88.1402
6.04                      -7.349          -150.3
6.06                    -5.45237         155.709
6.08                    -3.72275         118.775
6.1                     -2.71114         93.3346
6.12                    -1.99607         74.0271
6.14                    -1.53821         56.7655
6.16                    -1.48129         41.3847
6.18                    -1.54973          28.669
6.2                     -1.49449         16.3806
6.22                    -1.56532         3.17786
6.24                     -1.7471        -9.62158
6.26                    -1.76077        -23.7554
6.28                    -1.96284        -41.7514
6.3                     -2.58886        -61.4232
6.32                    -2.90059        -83.7944
6.34                    -2.77824        -119.239
6.36                    -2.99686        -174.451
6.38                    -3.06073         112.879
6.4                     -2.30279         34.9431
6.42                    -1.48214        -40.2542
6.44                   -0.878283        -111.751
6.46                   -0.485487        -174.332
6.48                   -0.594302          138.34
6.5                    -0.738411         107.309
