! TOUCHSTONE file generated by CST MICROWAVE STUDIO
! Date and time: Thu Oct 27 14:30:01 2022
! Project name: L.cst
! Parameters = {Di=1.27; Epsilon_r=1.56; InnerDiameter=1.27; Length=2; Lf=10; Lg=60; OuterConductorThickness=0.2921; OuterDiameter=3.6; Wf=3; Wp=41.2; de=1.5; df=6.8; g=0.8; gx=1.77654; gy=0.743188; h=2.34; hf=1.524; px=11.2296; py=9.17881; w=9.7; wx=9.45302; wy=8.43562}
! Header version: 2018
! Port assignment regex: !\s*Touchstone port\s*([0-9]+)\s*=\s*(CST MWS port|CST DS port)\s*([0-9]+|Zmin|Zmax)\s*\(\"(.*)\"\)(\s*mode\s*([0-9]+))?.*
! Touchstone port assignment:
! Touchstone port 1 = CST MWS port 1 ("")
# GHz S DB R 50
4.5                     -1.77918         54.1641
4.52                    -1.85879          51.783
4.54                    -1.94182         49.3275
4.56                    -2.02906         46.7964
4.58                    -2.12124         44.1892
4.6                     -2.21898          41.506
4.62                    -2.32284         38.7469
4.64                    -2.43324         35.9125
4.66                    -2.55054         33.0032
4.68                    -2.67499         30.0198
4.7                     -2.80677         26.9626
4.72                    -2.94595         23.8322
4.74                    -3.09253         20.6288
4.76                    -3.24641         17.3527
4.78                    -3.40743         14.0038
4.8                     -3.57534          10.582
4.82                     -3.7498         7.08698
4.84                     -3.9304         3.51843
4.86                    -4.11663       -0.124135
4.88                    -4.30792        -3.84119
4.9                     -4.50361        -7.63319
4.92                    -4.70293        -11.5005
4.94                    -4.90504        -15.4432
4.96                    -5.10903        -19.4612
4.98                    -5.31388         -23.554
5                       -5.51852        -27.7205
5.02                    -5.72179        -31.9591
5.04                    -5.92248        -36.2674
5.06                    -6.11936        -40.6422
5.08                    -6.31114        -45.0792
5.1                     -6.49659        -49.5731
5.12                    -6.67447        -54.1177
5.14                    -6.84362        -58.7055
5.16                    -7.00298        -63.3279
5.18                    -7.15162        -67.9754
5.2                     -7.28877        -72.6376
5.22                    -7.41383        -77.3034
5.24                    -7.52643        -81.9613
5.26                    -7.62642        -86.5993
5.28                    -7.71384        -91.2058
5.3                     -7.78898        -95.7693
5.32                    -7.85231        -100.279
5.34                    -7.90449        -104.724
5.36                    -7.94633        -109.095
5.38                    -7.97874        -113.385
5.4                     -8.00274        -117.585
5.42                     -8.0194        -121.691
5.44                    -8.02979        -125.695
5.46                    -8.03499        -129.596
5.48                    -8.03605        -133.389
5.5                     -8.03397        -137.073
5.52                    -8.02967        -140.646
5.54                    -8.02399        -144.108
5.56                    -8.01771        -147.458
5.58                    -8.01149        -150.696
5.6                     -8.00591        -153.823
5.62                    -8.00145         -156.84
5.64                     -7.9985        -159.748
5.66                    -7.99735        -162.547
5.68                    -7.99822         -165.24
5.7                     -8.00121        -167.827
5.72                    -8.00637         -170.31
5.74                    -8.01366        -172.691
5.76                    -8.02296         -174.97
5.78                    -8.03409         -177.15
5.8                     -8.04679        -179.231
5.82                    -8.06075         178.784
5.84                    -8.07559         176.893
5.86                    -8.09089         175.095
5.88                    -8.10617         173.388
5.9                     -8.12094         171.769
5.92                    -8.13464         170.235
5.94                     -8.1467         168.783
5.96                    -8.15655         167.411
5.98                     -8.1636         166.114
6                       -8.16727         164.889
6.02                      -8.167         163.731
6.04                    -8.16227         162.635
6.06                    -8.15258         161.597
6.08                     -8.1375          160.61
6.1                     -8.11665         159.669
6.12                    -8.08975         158.769
6.14                    -8.05657         157.902
6.16                    -8.01697         157.063
6.18                    -7.97092         156.247
6.2                     -7.91845         155.446
6.22                    -7.85969         154.655
6.24                    -7.79486         153.868
6.26                    -7.72424          153.08
6.28                    -7.64818         152.286
6.3                     -7.56709         151.483
6.32                    -7.48143         150.665
6.34                    -7.39169         149.829
6.36                    -7.29839         148.973
6.38                    -7.20205         148.095
6.4                      -7.1032         147.191
6.42                    -7.00237         146.261
6.44                    -6.90008         145.304
6.46                     -6.7968          144.32
6.48                      -6.693         143.307
6.5                     -6.58911         142.267
