! TOUCHSTONE file generated by CST MICROWAVE STUDIO
! Date and time: Sat Oct 29 15:51:36 2022
! Project name: L.cst
! Parameters = {Di=1.27; Epsilon_r=1.56; InnerDiameter=1.27; Length=2; Lf=10; Lg=60; OuterConductorThickness=0.2921; OuterDiameter=3.6; Wf=3; Wp=41.2; de=1.5; df=6.8; g=0.8; gx=4.81403; gy=2.46488; h=2.34; hf=1.524; px=11.9394; py=10.038; w=9.7; wx=7.12538; wy=7.57314}
! Header version: 2018
! Port assignment regex: !\s*Touchstone port\s*([0-9]+)\s*=\s*(CST MWS port|CST DS port)\s*([0-9]+|Zmin|Zmax)\s*\(\"(.*)\"\)(\s*mode\s*([0-9]+))?.*
! Touchstone port assignment:
! Touchstone port 1 = CST MWS port 1 ("")
# GHz S DB R 50
4.5                    -0.419772         91.2859
4.52                   -0.430491         89.7372
4.54                   -0.442358         88.1677
4.56                   -0.455379         86.5782
4.58                   -0.469532          84.969
4.6                    -0.484774         83.3407
4.62                   -0.501048         81.6933
4.64                   -0.518283         80.0271
4.66                   -0.536404         78.3418
4.68                   -0.555334         76.6372
4.7                    -0.574997          74.913
4.72                   -0.595321         73.1687
4.74                   -0.616239         71.4037
4.76                   -0.637694         69.6175
4.78                   -0.659639         67.8091
4.8                    -0.682036         65.9778
4.82                   -0.704857         64.1229
4.84                   -0.728085         62.2435
4.86                   -0.751712         60.3387
4.88                   -0.775739         58.4078
4.9                    -0.800177           56.45
4.92                   -0.825043         54.4644
4.94                   -0.850357         52.4503
4.96                   -0.876149         50.4072
4.98                   -0.902447         48.3343
5                      -0.929282         46.2311
5.02                   -0.956688         44.0971
5.04                   -0.984695         41.9319
5.06                    -1.01333         39.7351
5.08                    -1.04262         37.5065
5.1                     -1.07259         35.2458
5.12                    -1.10325         32.9529
5.14                    -1.13461         30.6277
5.16                    -1.16667         28.2703
5.18                    -1.19944         25.8806
5.2                      -1.2329          23.459
5.22                    -1.26703         21.0055
5.24                     -1.3018         18.5205
5.26                    -1.33718         16.0044
5.28                    -1.37312         13.4574
5.3                     -1.40958         10.8803
5.32                     -1.4465         8.27348
5.34                    -1.48381         5.63767
5.36                    -1.52143         2.97358
5.38                     -1.5593        0.282001
5.4                     -1.59733        -2.43619
5.42                    -1.63543        -5.18004
5.44                     -1.6735        -7.94852
5.46                    -1.71147        -10.7405
5.48                    -1.74922        -13.5549
5.5                     -1.78666        -16.3904
5.52                    -1.82371        -19.2455
5.54                    -1.86024        -22.1191
5.56                    -1.89619        -25.0095
5.58                    -1.93144        -27.9151
5.6                     -1.96591        -30.8345
5.62                    -1.99953        -33.7658
5.64                    -2.03221        -36.7073
5.66                    -2.06387        -39.6572
5.68                    -2.09446        -42.6137
5.7                     -2.12391        -45.5748
5.72                    -2.15217        -48.5387
5.74                     -2.1792        -51.5032
5.76                    -2.20497        -54.4665
5.78                    -2.22943        -57.4266
5.8                     -2.25258        -60.3815
5.82                     -2.2744        -63.3292
5.84                    -2.29488        -66.2678
5.86                    -2.31402        -69.1952
5.88                    -2.33182        -72.1096
5.9                      -2.3483        -75.0092
5.92                    -2.36346        -77.8922
5.94                    -2.37732        -80.7568
5.96                    -2.38991        -83.6014
5.98                    -2.40122        -86.4245
6                       -2.41129        -89.2247
6.02                    -2.42013        -92.0006
6.04                    -2.42776        -94.7509
6.06                    -2.43419        -97.4747
6.08                    -2.43943        -100.171
6.1                     -2.44349        -102.839
6.12                    -2.44638        -105.477
6.14                     -2.4481        -108.087
6.16                    -2.44867        -110.666
6.18                    -2.44808        -113.215
6.2                     -2.44634        -115.734
6.22                    -2.44347        -118.223
6.24                    -2.43946        -120.682
6.26                    -2.43435        -123.112
6.28                    -2.42817        -125.514
6.3                     -2.42095        -127.887
6.32                    -2.41275        -130.234
6.34                    -2.40364        -132.554
6.36                    -2.39371        -134.849
6.38                    -2.38308         -137.12
6.4                     -2.37186        -139.369
6.42                    -2.36023        -141.595
6.44                    -2.34836        -143.801
6.46                    -2.33644        -145.987
6.48                    -2.32472        -148.154
6.5                     -2.31343        -150.303
