! TOUCHSTONE file generated by CST MICROWAVE STUDIO
! Date and time: Fri Oct 28 09:33:55 2022
! Project name: L.cst
! Parameters = {Di=1.27; Epsilon_r=1.56; InnerDiameter=1.27; Length=2; Lf=10; Lg=60; OuterConductorThickness=0.2921; OuterDiameter=3.6; Wf=3; Wp=41.2; de=1.5; df=6.8; g=0.8; gx=3.33759; gy=1.06053; h=2.34; hf=1.524; px=12.8223; py=11.6772; w=9.7; wx=9.48473; wy=10.6166}
! Header version: 2018
! Port assignment regex: !\s*Touchstone port\s*([0-9]+)\s*=\s*(CST MWS port|CST DS port)\s*([0-9]+|Zmin|Zmax)\s*\(\"(.*)\"\)(\s*mode\s*([0-9]+))?.*
! Touchstone port assignment:
! Touchstone port 1 = CST MWS port 1 ("")
# GHz S DB R 50
4.5                     -1.29438         62.8689
4.52                    -1.35591         60.2819
4.54                    -1.43322         57.6271
4.56                    -1.52435          54.936
4.58                    -1.62543         52.2267
4.6                     -1.73188         49.5018
4.62                     -1.8396         46.7481
4.64                    -1.94584         43.9412
4.66                    -2.04979         41.0516
4.68                    -2.15252         38.0508
4.7                     -2.25656         34.9168
4.72                    -2.36515         31.6376
4.74                    -2.48144         28.2106
4.76                    -2.60787         24.6417
4.78                    -2.74574         20.9408
4.8                     -2.89505          17.119
4.82                    -3.05468         13.1845
4.84                    -3.22266         9.14049
4.86                    -3.39663         4.98348
4.88                    -3.57429        0.703968
4.9                     -3.75374        -3.71213
4.92                    -3.93372        -8.28098
4.94                    -4.11364        -13.0179
4.96                    -4.29343        -17.9348
4.98                    -4.47326        -23.0381
5                       -4.65325        -28.3275
5.02                    -4.83309        -33.7963
5.04                    -5.01187        -39.4319
5.06                    -5.18796        -45.2168
5.08                    -5.35902        -51.1307
5.1                     -5.52218        -57.1514
5.12                     -5.6743        -63.2561
5.14                    -5.81231        -69.4225
5.16                    -5.93359         -75.629
5.18                    -6.03622        -81.8541
5.2                     -6.11928         -88.077
5.22                    -6.18286        -94.2756
5.24                    -6.22805        -100.427
5.26                    -6.25673        -106.507
5.28                    -6.27126         -112.49
5.3                     -6.27412        -118.349
5.32                    -6.26756        -124.059
5.34                    -6.25334        -129.595
5.36                    -6.23249        -134.938
5.38                    -6.20534        -140.072
5.4                     -6.17155        -144.991
5.42                    -6.13043        -149.697
5.44                    -6.08126        -154.197
5.46                    -6.02368         -158.51
5.48                    -5.95801        -162.657
5.5                     -5.88547        -166.662
5.52                    -5.80815        -170.548
5.54                    -5.72885        -174.332
5.56                    -5.65071        -178.028
5.58                    -5.57678         178.361
5.6                     -5.50964         174.834
5.62                    -5.45103         171.397
5.64                    -5.40176          168.06
5.66                    -5.36167         164.828
5.68                    -5.32985         161.707
5.7                     -5.30497         158.699
5.72                    -5.28565         155.798
5.74                    -5.27085         152.998
5.76                    -5.26006         150.291
5.78                    -5.25333          147.67
5.8                     -5.25104         145.133
5.82                    -5.25348          142.68
5.84                    -5.26036         140.321
5.86                    -5.27027         138.064
5.88                    -5.28047         135.917
5.9                     -5.28697         133.882
5.92                    -5.28503         131.947
5.94                    -5.27022         130.086
5.96                     -5.2396          128.26
5.98                    -5.19286         126.421
6                       -5.13297         124.519
6.02                    -5.06597         122.521
6.04                    -4.99993         120.412
6.06                    -4.94321         118.204
6.08                    -4.90246         115.941
6.1                     -4.88054         113.684
6.12                    -4.87482         111.508
6.14                    -4.87612          109.48
6.16                    -4.86883         107.637
6.18                    -4.83294         105.962
6.2                      -4.7485         104.363
6.22                    -4.60182         102.679
6.24                    -4.39138         100.698
6.26                    -4.13037         98.2113
6.28                    -3.84474         95.0549
6.3                     -3.56783         91.1412
6.32                    -3.33474         86.4605
6.34                    -3.17835         81.0679
6.36                    -3.12773         75.0653
6.38                    -3.20826         68.5887
6.4                     -3.44256         61.8038
6.42                    -3.85155         54.9127
6.44                    -4.45481         48.1733
6.46                    -5.26881         41.9349
6.48                    -6.30014         36.6949
6.5                     -7.52631         33.1651
