! TOUCHSTONE file generated by CST MICROWAVE STUDIO
! Date and time: Thu Oct 27 03:59:41 2022
! Project name: L.cst
! Parameters = {Di=1.27; Epsilon_r=1.56; InnerDiameter=1.27; Length=2; Lf=10; Lg=60; OuterConductorThickness=0.2921; OuterDiameter=3.6; Wf=3; Wp=41.2; de=1.5; df=6.8; g=0.8; gx=3.03721; gy=0.448713; h=2.34; hf=1.524; px=8.07317; py=9.88239; w=9.7; wx=5.03597; wy=9.43368}
! Header version: 2018
! Port assignment regex: !\s*Touchstone port\s*([0-9]+)\s*=\s*(CST MWS port|CST DS port)\s*([0-9]+|Zmin|Zmax)\s*\(\"(.*)\"\)(\s*mode\s*([0-9]+))?.*
! Touchstone port assignment:
! Touchstone port 1 = CST MWS port 1 ("")
# GHz S DB R 50
4.5                    -0.394266         72.2893
4.52                   -0.419172         70.5447
4.54                   -0.446651         68.8153
4.56                   -0.474733         67.1008
4.58                   -0.501689         65.3966
4.6                    -0.526189         63.6953
4.62                   -0.547384         61.9875
4.64                   -0.564941         60.2632
4.66                   -0.579008         58.5129
4.68                   -0.590131         56.7284
4.7                    -0.599143         54.9034
4.72                   -0.607029         53.0344
4.74                   -0.614801         51.1197
4.76                   -0.623388         49.1602
4.78                    -0.63355         47.1579
4.8                    -0.645815         45.1166
4.82                    -0.66046         43.0403
4.84                   -0.677507         40.9332
4.86                   -0.696754         38.7989
4.88                   -0.717811         36.6402
4.9                    -0.740166         34.4588
4.92                   -0.763235         32.2551
4.94                   -0.786441         30.0283
4.96                   -0.809256         27.7763
4.98                   -0.831258         25.4962
5                      -0.852163         23.1843
5.02                   -0.871839         20.8369
5.04                   -0.890306         18.4499
5.06                   -0.907725         16.0199
5.08                   -0.924365          13.544
5.1                    -0.940571         11.0199
5.12                   -0.956716          8.4464
5.14                   -0.973168         5.82295
5.16                   -0.990248         3.14984
5.18                     -1.0082        0.427952
5.2                     -1.02716        -2.34144
5.22                    -1.04719        -5.15688
5.24                     -1.0682        -8.01694
5.26                    -1.09004        -10.9204
5.28                    -1.11248        -13.8668
5.3                     -1.13524        -16.8558
5.32                    -1.15802        -19.8879
5.34                    -1.18055        -22.9645
5.36                    -1.20264         -26.087
5.38                    -1.22415        -29.2579
5.4                     -1.24508        -32.4795
5.42                    -1.26555        -35.7542
5.44                    -1.28581        -39.0844
5.46                    -1.30625        -42.4719
5.48                    -1.32736        -45.9177
5.5                     -1.34971         -49.422
5.52                    -1.37394         -52.984
5.54                     -1.4007        -56.6017
5.56                     -1.4306         -60.272
5.58                    -1.46421        -63.9907
5.6                     -1.50197        -67.7527
5.62                    -1.54419         -71.552
5.64                    -1.59101        -75.3821
5.66                    -1.64235        -79.2364
5.68                    -1.69797        -83.1084
5.7                     -1.75739        -86.9919
5.72                    -1.81993        -90.8821
5.74                    -1.88475        -94.7751
5.76                     -1.9509        -98.6689
5.78                    -2.01736        -102.564
5.8                     -2.08313        -106.463
5.82                    -2.14731        -110.371
5.84                    -2.20926        -114.295
5.86                    -2.26864        -118.247
5.88                    -2.32557        -122.238
5.9                     -2.38069        -126.281
5.92                    -2.43522        -130.392
5.94                    -2.49106        -134.584
5.96                    -2.55071        -138.872
5.98                    -2.61735        -143.266
6                       -2.69475        -147.776
6.02                    -2.78722        -152.409
6.04                    -2.89963        -157.169
6.06                    -3.03731        -162.054
6.08                     -3.2061        -167.062
6.1                      -3.4124        -172.183
6.12                    -3.66321        -177.405
6.14                    -3.96631         177.289
6.16                     -4.3305         171.924
6.18                     -4.7659         166.531
6.2                      -5.2845         161.154
6.22                    -5.90079          155.85
6.24                    -6.63274         150.702
6.26                    -7.50318         145.835
6.28                    -8.54168         141.437
6.3                     -9.78639         137.825
6.32                    -11.2844         135.549
6.34                     -13.081         135.639
6.36                    -15.1564         140.067
6.38                    -17.1693         152.016
6.4                     -18.0085         172.216
6.42                    -16.8595        -168.626
6.44                     -14.764        -158.293
6.46                    -12.7108        -155.054
6.48                    -10.9608        -155.858
6.5                     -9.51729        -158.918
