! TOUCHSTONE file generated by CST MICROWAVE STUDIO
! Date and time: Thu Oct 27 13:39:58 2022
! Project name: L.cst
! Parameters = {Di=1.27; Epsilon_r=1.56; InnerDiameter=1.27; Length=2; Lf=10; Lg=60; OuterConductorThickness=0.2921; OuterDiameter=3.6; Wf=3; Wp=41.2; de=1.5; df=6.8; g=0.8; gx=2.02348; gy=1.45413; h=2.34; hf=1.524; px=10.4512; py=11.7208; w=9.7; wx=8.42769; wy=10.2666}
! Header version: 2018
! Port assignment regex: !\s*Touchstone port\s*([0-9]+)\s*=\s*(CST MWS port|CST DS port)\s*([0-9]+|Zmin|Zmax)\s*\(\"(.*)\"\)(\s*mode\s*([0-9]+))?.*
! Touchstone port assignment:
! Touchstone port 1 = CST MWS port 1 ("")
# GHz S DB R 50
4.5                    -0.924425         67.9975
4.52                    -0.95023          66.002
4.54                   -0.982004         63.9512
4.56                    -1.02017         61.8554
4.58                    -1.06458         59.7239
4.6                     -1.11464         57.5643
4.62                    -1.16942         55.3817
4.64                    -1.22784         53.1783
4.66                    -1.28878         50.9534
4.68                    -1.35121         48.7041
4.7                     -1.41432         46.4252
4.72                    -1.47754           44.11
4.74                    -1.54062         41.7511
4.76                     -1.6036         39.3412
4.78                    -1.66679         36.8733
4.8                     -1.73071         34.3415
4.82                      -1.796         31.7411
4.84                    -1.86336         29.0691
4.86                     -1.9335         26.3236
4.88                    -2.00701         23.5041
4.9                     -2.08438         20.6109
4.92                    -2.16593         17.6451
4.94                    -2.25179         14.6081
4.96                    -2.34193         11.5012
4.98                    -2.43615         8.32535
5                       -2.53413         5.08109
5.02                    -2.63543         1.76822
5.04                    -2.73956        -1.61417
5.06                    -2.84598        -5.06769
5.08                     -2.9542        -8.59458
5.1                     -3.06373        -12.1975
5.12                    -3.17418        -15.8792
5.14                    -3.28519        -19.6425
5.16                    -3.39652        -23.4898
5.18                    -3.50797        -27.4227
5.2                     -3.61941        -31.4422
5.22                    -3.73073        -35.5478
5.24                    -3.84185         -39.738
5.26                    -3.95264        -44.0095
5.28                    -4.06294        -48.3582
5.3                     -4.17251        -52.7778
5.32                      -4.281        -57.2613
5.34                    -4.38796        -61.7999
5.36                    -4.49284        -66.3843
5.38                    -4.59494        -71.0041
5.4                     -4.69346        -75.6484
5.42                     -4.7875        -80.3065
5.44                    -4.87608        -84.9677
5.46                    -4.95816        -89.6217
5.48                    -5.03271        -94.2594
5.5                     -5.09873        -98.8731
5.52                    -5.15529        -103.456
5.54                    -5.20161        -108.004
5.56                    -5.23711        -112.515
5.58                    -5.26146        -116.987
5.6                     -5.27462        -121.421
5.62                     -5.2769        -125.821
5.64                    -5.26895        -130.188
5.66                    -5.25181        -134.529
5.68                    -5.22686        -138.845
5.7                     -5.19582        -143.143
5.72                    -5.16068        -147.425
5.74                    -5.12363        -151.692
5.76                    -5.08703        -155.945
5.78                    -5.05329        -160.183
5.8                     -5.02482        -164.401
5.82                    -5.00395        -168.594
5.84                    -4.99286        -172.755
5.86                     -4.9935        -176.873
5.88                    -5.00756         179.064
5.9                     -5.03638         175.069
5.92                    -5.08089         171.158
5.94                    -5.14155         167.348
5.96                    -5.21831         163.657
5.98                    -5.31049         160.105
6                       -5.41672          156.71
6.02                    -5.53486         153.493
6.04                    -5.66195          150.47
6.06                    -5.79412         147.656
6.08                    -5.92658         145.064
6.1                     -6.05373         142.697
6.12                    -6.16926         140.552
6.14                    -6.26648         138.616
6.16                     -6.3387         136.863
6.18                    -6.37982         135.256
6.2                     -6.38487         133.747
6.22                     -6.3506         132.276
6.24                    -6.27589         130.782
6.26                    -6.16189         129.198
6.28                    -6.01189         127.465
6.3                     -5.83104         125.529
6.32                    -5.62582         123.345
6.34                    -5.40352         120.879
6.36                    -5.17174         118.107
6.38                    -4.93813         115.015
6.4                     -4.71007         111.592
6.42                    -4.49464         107.837
6.44                    -4.29862         103.748
6.46                    -4.12852         99.3291
6.48                    -3.99077         94.5829
6.5                     -3.89183         89.5134
