! TOUCHSTONE file generated by CST MICROWAVE STUDIO
! Date and time: Fri Oct 28 15:32:34 2022
! Project name: L.cst
! Parameters = {Di=1.27; Epsilon_r=1.56; InnerDiameter=1.27; Length=2; Lf=10; Lg=60; OuterConductorThickness=0.2921; OuterDiameter=3.6; Wf=3; Wp=41.2; de=1.5; df=6.8; g=0.8; gx=4.61614; gy=0.6644; h=2.34; hf=1.524; px=13.3719; py=9.40916; w=9.7; wx=8.75579; wy=8.74476}
! Header version: 2018
! Port assignment regex: !\s*Touchstone port\s*([0-9]+)\s*=\s*(CST MWS port|CST DS port)\s*([0-9]+|Zmin|Zmax)\s*\(\"(.*)\"\)(\s*mode\s*([0-9]+))?.*
! Touchstone port assignment:
! Touchstone port 1 = CST MWS port 1 ("")
# GHz S DB R 50
4.5                     -0.92389           70.93
4.52                   -0.992583         68.6933
4.54                    -1.06147         66.4268
4.56                    -1.13009         64.1226
4.58                    -1.19821         61.7724
4.6                      -1.2658         59.3679
4.62                      -1.333          56.901
4.64                    -1.40011         54.3643
4.66                    -1.46756         51.7507
4.68                    -1.53585          49.054
4.7                     -1.60555         46.2688
4.72                    -1.67724         43.3904
4.74                    -1.75149         40.4148
4.76                    -1.82882         37.3389
4.78                    -1.90972           34.16
4.8                     -1.99457         30.8762
4.82                    -2.08367          27.486
4.84                    -2.17721         23.9884
4.86                    -2.27526         20.3828
4.88                    -2.37777         16.6689
4.9                     -2.48456         12.8469
4.92                    -2.59531          8.9171
4.94                    -2.70958         4.88039
4.96                    -2.82681        0.737971
4.98                    -2.94628        -3.50845
5                        -3.0672        -7.85662
5.02                    -3.18863        -12.3036
5.04                    -3.30956        -16.8459
5.06                    -3.42891        -21.4788
5.08                    -3.54551        -26.1971
5.1                     -3.65821        -30.9942
5.12                    -3.76583        -35.8627
5.14                    -3.86725        -40.7939
5.16                    -3.96139         -45.778
5.18                    -4.04731        -50.8046
5.2                     -4.12418        -55.8618
5.22                    -4.19137        -60.9373
5.24                    -4.24842        -66.0185
5.26                    -4.29509        -71.0919
5.28                    -4.33134        -76.1448
5.3                     -4.35735        -81.1643
5.32                    -4.37351        -86.1381
5.34                    -4.38038        -91.0545
5.36                    -4.37866        -95.9032
5.38                    -4.36918        -100.674
5.4                     -4.35287         -105.36
5.42                    -4.33067        -109.953
5.44                    -4.30359        -114.447
5.46                     -4.2726        -118.838
5.48                    -4.23864        -123.122
5.5                     -4.20258        -127.297
5.52                    -4.16525         -131.36
5.54                    -4.12738        -135.311
5.56                    -4.08959         -139.15
5.58                    -4.05244        -142.878
5.6                     -4.01637        -146.494
5.62                    -3.98174        -150.002
5.64                    -3.94881        -153.402
5.66                    -3.91778        -156.697
5.68                    -3.88874         -159.89
5.7                     -3.86175        -162.983
5.72                    -3.83678        -165.979
5.74                    -3.81378        -168.883
5.76                    -3.79266        -171.696
5.78                    -3.77327        -174.424
5.8                     -3.75549         -177.07
5.82                    -3.73917        -179.638
5.84                    -3.72417         177.868
5.86                    -3.71036         175.442
5.88                    -3.69763         173.082
5.9                     -3.68591         170.782
5.92                    -3.67516         168.538
5.94                    -3.66539         166.346
5.96                    -3.65665         164.202
5.98                    -3.64902           162.1
6                       -3.64265         160.039
6.02                    -3.63772         158.014
6.04                    -3.63445         156.021
6.06                    -3.63311          154.06
6.08                    -3.63398         152.126
6.1                     -3.63736         150.219
6.12                    -3.64356         148.336
6.14                    -3.65288         146.478
6.16                    -3.66564         144.644
6.18                    -3.68208         142.835
6.2                     -3.70245          141.05
6.22                    -3.72692         139.292
6.24                    -3.75562         137.561
6.26                    -3.78858          135.86
6.28                    -3.82576         134.192
6.3                     -3.86703         132.557
6.32                    -3.91216         130.959
6.34                    -3.96079           129.4
6.36                    -4.01248         127.883
6.38                    -4.06667         126.407
6.4                     -4.12272         124.976
6.42                    -4.17989         123.588
6.44                    -4.23739         122.244
6.46                    -4.29439         120.941
6.48                    -4.35008         119.677
6.5                     -4.40368         118.448
