! TOUCHSTONE file generated by CST MICROWAVE STUDIO
! Date and time: Fri Oct 28 07:31:51 2022
! Project name: L.cst
! Parameters = {Di=1.27; Epsilon_r=1.56; InnerDiameter=1.27; Length=2; Lf=10; Lg=60; OuterConductorThickness=0.2921; OuterDiameter=3.6; Wf=3; Wp=41.2; de=1.5; df=6.8; g=0.8; gx=1.04124; gy=0.53736; h=2.34; hf=1.524; px=13.1837; py=8.3272; w=9.7; wx=12.1425; wy=7.78984}
! Header version: 2018
! Port assignment regex: !\s*Touchstone port\s*([0-9]+)\s*=\s*(CST MWS port|CST DS port)\s*([0-9]+|Zmin|Zmax)\s*\(\"(.*)\"\)(\s*mode\s*([0-9]+))?.*
! Touchstone port assignment:
! Touchstone port 1 = CST MWS port 1 ("")
# GHz S DB R 50
4.5                     -15.7274         128.614
4.52                    -14.6022         131.544
4.54                     -13.587         132.778
4.56                    -12.7156         132.857
4.58                    -11.9824          132.29
4.6                     -11.3542         131.395
4.62                    -10.7967         130.262
4.64                    -10.2948         128.858
4.66                    -9.85112         127.175
4.68                    -9.47105         125.286
4.7                     -9.15028         123.303
4.72                    -8.87473          121.29
4.74                    -8.63055         119.238
4.76                    -8.41295         117.094
4.78                      -8.226         114.827
4.8                      -8.0747         112.461
4.82                    -7.95799         110.044
4.84                    -7.86889         107.598
4.86                    -7.80067         105.098
4.88                    -7.75258         102.495
4.9                     -7.72973          99.757
4.92                    -7.73788         96.8865
4.94                    -7.77866         93.9026
4.96                    -7.84981          90.804
4.98                    -7.94989         87.5514
5                       -8.08278         84.0841
5.02                    -8.25793         80.3505
5.04                     -8.4866         76.3226
5.06                     -8.7783         71.9782
5.08                    -9.14118         67.2667
5.1                     -9.58663         62.0845
5.12                    -10.1347          56.273
5.14                     -10.817         49.6237
5.16                    -11.6761         41.8548
5.18                    -12.7635         32.5188
5.2                     -14.1351         20.7925
5.22                    -15.8201         5.06342
5.24                    -17.6614        -17.6398
5.26                    -18.8351        -50.2027
5.28                    -18.0614        -86.8394
5.3                     -15.8553        -116.237
5.32                    -13.5349        -137.536
5.34                    -11.5823        -154.041
5.36                    -10.0484        -167.881
5.38                    -8.88776         179.893
5.4                     -8.04528         168.844
5.42                    -7.47376         158.646
5.44                    -7.13734          149.16
5.46                    -7.01212         140.276
5.48                      -7.086         131.914
5.5                     -7.35913         124.019
5.52                    -7.84657         116.555
5.54                    -8.58603         109.522
5.56                    -9.65433         103.007
5.58                    -11.1999         97.3678
5.6                     -13.5123         93.8122
5.62                    -17.1607         96.9112
5.64                    -21.9906          127.89
5.66                    -18.9696        -178.877
5.68                    -13.6072        -167.886
5.7                     -9.97695         -170.79
5.72                    -7.44933        -177.621
5.74                    -5.63203         174.179
5.76                    -4.31579         165.602
5.78                    -3.37051          157.15
5.8                     -2.70216         149.109
5.82                     -2.2359         141.618
5.84                    -1.91184         134.699
5.86                    -1.68612         128.287
5.88                    -1.53174         122.281
5.9                     -1.43501           116.6
5.92                    -1.38777         111.206
5.94                       -1.38          106.09
5.96                     -1.3978         101.226
5.98                    -1.42867         96.5345
6                       -1.46976          91.901
6.02                    -1.53089         87.2406
6.04                    -1.62676         82.5649
6.06                    -1.76199         77.9826
6.08                    -1.91927         73.6116
6.1                     -2.06207         69.4364
6.12                    -2.15672         65.2125
6.14                    -2.20187         60.5312
6.16                    -2.23858         55.0342
6.18                    -2.32931         48.5924
6.2                     -2.52475         41.2993
6.22                    -2.84374         33.3026
6.24                     -3.2765         24.5818
6.26                     -3.8101         14.7746
6.28                    -4.46302         3.13791
6.3                     -5.29991        -11.3769
6.32                    -6.39625        -30.1364
6.34                    -7.71568        -55.0221
6.36                    -8.83866        -87.8611
6.38                    -8.89354        -126.331
6.4                     -7.70395        -162.094
6.42                    -6.14317         169.343
6.44                     -4.8307         146.898
6.46                    -3.90744         128.843
6.48                     -3.3141         114.083
6.5                     -2.93762         101.848
