! TOUCHSTONE file generated by CST MICROWAVE STUDIO
! Date and time: Fri Oct 28 10:04:01 2022
! Project name: L.cst
! Parameters = {Di=1.27; Epsilon_r=1.56; InnerDiameter=1.27; Length=2; Lf=10; Lg=60; OuterConductorThickness=0.2921; OuterDiameter=3.6; Wf=3; Wp=41.2; de=1.5; df=6.8; g=0.8; gx=1.87435; gy=0.591304; h=2.34; hf=1.524; px=8.34332; py=12.7208; w=9.7; wx=6.46897; wy=12.1295}
! Header version: 2018
! Port assignment regex: !\s*Touchstone port\s*([0-9]+)\s*=\s*(CST MWS port|CST DS port)\s*([0-9]+|Zmin|Zmax)\s*\(\"(.*)\"\)(\s*mode\s*([0-9]+))?.*
! Touchstone port assignment:
! Touchstone port 1 = CST MWS port 1 ("")
# GHz S DB R 50
4.5                    -0.912067         59.6892
4.52                   -0.962173         57.7357
4.54                   -0.987716         55.7511
4.56                     -1.0298         53.6072
4.58                    -1.07599         51.5714
4.6                     -1.10532         49.4158
4.62                    -1.15483         47.1842
4.64                      -1.196         45.0184
4.66                    -1.23096         42.6931
4.68                     -1.2817         40.3571
4.7                     -1.31722          38.015
4.72                    -1.35536         35.5128
4.74                    -1.39992         33.0253
4.76                    -1.42759         30.4502
4.78                    -1.46217         27.7289
4.8                     -1.49252         24.9947
4.82                     -1.5086         22.0874
4.84                    -1.53199         19.0321
4.86                     -1.5441         15.8814
4.88                    -1.54924         12.4708
4.9                      -1.5621         8.87794
4.92                    -1.56472         5.07346
4.94                    -1.57252        0.932438
4.96                    -1.59153        -3.44953
4.98                    -1.60918        -8.16449
5                       -1.64636         -13.286
5.02                    -1.70157        -18.7407
5.04                    -1.77065        -24.6731
5.06                    -1.87794        -31.1279
5.08                    -2.02105        -38.0908
5.1                     -2.21084        -45.7567
5.12                    -2.48276        -54.1649
5.14                    -2.84938        -63.3561
5.16                    -3.35314        -73.5339
5.18                    -4.06357        -84.6609
5.2                     -5.03291        -96.6677
5.22                      -6.357        -109.564
5.24                    -8.16892         -122.98
5.26                    -10.5984        -136.515
5.28                    -13.9427        -150.117
5.3                     -19.0178        -163.316
5.32                    -29.4427        -175.365
5.34                    -29.5404        -7.41726
5.36                    -20.8627        -19.2381
5.38                    -17.2492        -30.6392
5.4                     -15.0835        -41.1936
5.42                    -13.5687        -51.7635
5.44                     -12.496        -62.2321
5.46                    -11.6455        -72.2474
5.48                    -10.9149        -82.4017
5.5                      -10.327        -92.4982
5.52                    -9.77782        -102.243
5.54                    -9.24513        -112.183
5.56                    -8.78411        -121.997
5.58                     -8.3048        -131.468
5.6                     -7.82303        -141.171
5.62                    -7.40065        -150.641
5.64                    -6.93947        -159.795
5.66                     -6.4904        -169.263
5.68                    -6.10981        -178.394
5.7                     -5.67889          172.68
5.72                    -5.29764         163.261
5.74                    -5.00608         154.301
5.76                    -4.65437         145.255
5.78                    -4.44972         135.322
5.8                     -4.41753         126.076
5.82                    -4.42928         115.873
5.84                    -5.34277         104.799
5.86                    -7.25844          106.75
5.88                    -5.90016         120.242
5.9                     -3.16504          112.57
5.92                     -2.1303         97.4013
5.94                     -1.9259         85.7853
5.96                    -1.61855         75.5601
5.98                    -1.51378         64.4654
6                       -1.55123         54.7787
6.02                    -1.44474          44.637
6.04                    -1.54191          33.249
6.06                    -1.72378         22.3928
6.08                    -1.83518         9.54458
6.1                     -2.32954        -6.02677
6.12                    -3.13008         -23.848
6.14                    -4.55539        -50.9466
6.16                     -8.5771        -99.2326
6.18                    -11.8468         152.597
6.2                     -6.16828           75.97
6.22                    -3.70447          36.362
6.24                     -2.9729         9.53042
6.26                    -2.68006        -13.3805
6.28                    -2.81358        -37.1209
6.3                     -3.10111        -63.7483
6.32                    -3.30056        -101.632
6.34                    -3.48591        -157.482
6.36                    -2.72995         137.325
6.38                    -1.58178         81.9243
6.4                     -1.30129         42.4771
6.42                    -1.48893         17.0875
6.44                     -1.4477        -1.54169
6.46                    -1.54926        -18.1166
6.48                    -1.79652        -31.1143
6.5                     -1.79128        -42.6536
