! TOUCHSTONE file generated by CST MICROWAVE STUDIO
! Date and time: Sat Oct 29 21:20:59 2022
! Project name: L.cst
! Parameters = {Di=1.27; Epsilon_r=1.56; InnerDiameter=1.27; Length=2; Lf=10; Lg=60; OuterConductorThickness=0.2921; OuterDiameter=3.6; Wf=3; Wp=41.2; de=1.5; df=6.8; g=0.8; gx=2.51796; gy=4.44572; h=2.34; hf=1.524; px=9.96676; py=13.2488; w=9.7; wx=7.44881; wy=8.80309}
! Header version: 2018
! Port assignment regex: !\s*Touchstone port\s*([0-9]+)\s*=\s*(CST MWS port|CST DS port)\s*([0-9]+|Zmin|Zmax)\s*\(\"(.*)\"\)(\s*mode\s*([0-9]+))?.*
! Touchstone port assignment:
! Touchstone port 1 = CST MWS port 1 ("")
# GHz S DB R 50
4.5                    -0.378235         95.3768
4.52                   -0.388796         93.9625
4.54                   -0.399656         92.5386
4.56                   -0.410815          91.105
4.58                   -0.422265         89.6615
4.6                    -0.434004         88.2082
4.62                   -0.446025          86.745
4.64                   -0.458321         85.2716
4.66                   -0.470889         83.7881
4.68                   -0.483721         82.2943
4.7                    -0.496815           80.79
4.72                   -0.510167         79.2752
4.74                   -0.523775         77.7496
4.76                    -0.53764         76.2133
4.78                   -0.551761         74.6659
4.8                     -0.56614         73.1074
4.82                   -0.580782         71.5376
4.84                   -0.595689         69.9565
4.86                   -0.610866         68.3638
4.88                    -0.62632         66.7596
4.9                    -0.642057         65.1436
4.92                   -0.658082         63.5159
4.94                   -0.674405         61.8763
4.96                   -0.691032         60.2248
4.98                   -0.707971         58.5614
5                      -0.725228          56.886
5.02                    -0.74281         55.1985
5.04                   -0.760725         53.4991
5.06                   -0.778978         51.7878
5.08                   -0.797574         50.0644
5.1                    -0.816519         48.3292
5.12                   -0.835814         46.5821
5.14                   -0.855466         44.8232
5.16                   -0.875475         43.0526
5.18                   -0.895843         41.2704
5.2                    -0.916571         39.4766
5.22                   -0.937657         37.6715
5.24                   -0.959102         35.8552
5.26                   -0.980901         34.0278
5.28                    -1.00305         32.1894
5.3                     -1.02556         30.3403
5.32                     -1.0484         28.4806
5.34                    -1.07159         26.6105
5.36                     -1.0951         24.7302
5.38                    -1.11895           22.84
5.4                     -1.14311           20.94
5.42                    -1.16759         19.0306
5.44                    -1.19237         17.1119
5.46                    -1.21744         15.1843
5.48                     -1.2428         13.2481
5.5                     -1.26844         11.3034
5.52                    -1.29435         9.35071
5.54                    -1.32052         7.39025
5.56                    -1.34693         5.42237
5.58                    -1.37359         3.44742
5.6                     -1.40048         1.46574
5.62                    -1.42758       -0.522292
5.64                     -1.4549         -2.5163
5.66                    -1.48242         -4.5159
5.68                    -1.51013        -6.52069
5.7                     -1.53802        -8.53025
5.72                    -1.56608        -10.5442
5.74                    -1.59429         -12.562
5.76                    -1.62266        -14.5833
5.78                    -1.65116        -16.6077
5.8                     -1.67979        -18.6347
5.82                    -1.70853        -20.6638
5.84                    -1.73737        -22.6946
5.86                    -1.76629        -24.7266
5.88                    -1.79529        -26.7593
5.9                     -1.82434        -28.7924
5.92                    -1.85343        -30.8253
5.94                    -1.88254        -32.8576
5.96                    -1.91166        -34.8888
5.98                    -1.94075        -36.9186
6                        -1.9698        -38.9465
6.02                    -1.99878        -40.9722
6.04                    -2.02768        -42.9953
6.06                    -2.05645        -45.0155
6.08                    -2.08509        -47.0326
6.1                     -2.11355        -49.0462
6.12                    -2.14181        -51.0562
6.14                    -2.16984        -53.0625
6.16                    -2.19762        -55.0649
6.18                    -2.22511        -57.0636
6.2                      -2.2523        -59.0586
6.22                    -2.27917          -61.05
6.24                     -2.3057        -63.0382
6.26                    -2.33188        -65.0233
6.28                    -2.35772        -67.0059
6.3                     -2.38323        -68.9866
6.32                    -2.40844        -70.9659
6.34                    -2.43339        -72.9447
6.36                    -2.45814        -74.9238
6.38                    -2.48278        -76.9042
6.4                     -2.50742        -78.8868
6.42                    -2.53219         -80.873
6.44                    -2.55729        -82.8639
6.46                    -2.58292        -84.8608
6.48                    -2.60933        -86.8651
6.5                     -2.63684        -88.8781
