! TOUCHSTONE file generated by CST MICROWAVE STUDIO
! Date and time: Fri Oct 28 23:20:58 2022
! Project name: L.cst
! Parameters = {Di=1.27; Epsilon_r=1.56; InnerDiameter=1.27; Length=2; Lf=10; Lg=60; OuterConductorThickness=0.2921; OuterDiameter=3.6; Wf=3; Wp=41.2; de=1.5; df=6.8; g=0.8; gx=1.02446; gy=3.64073; h=2.34; hf=1.524; px=8.9942; py=8.82309; w=9.7; wx=7.96974; wy=5.18236}
! Header version: 2018
! Port assignment regex: !\s*Touchstone port\s*([0-9]+)\s*=\s*(CST MWS port|CST DS port)\s*([0-9]+|Zmin|Zmax)\s*\(\"(.*)\"\)(\s*mode\s*([0-9]+))?.*
! Touchstone port assignment:
! Touchstone port 1 = CST MWS port 1 ("")
# GHz S DB R 50
4.5                    -0.543858         88.7875
4.52                   -0.562435         87.2667
4.54                   -0.581775         85.7329
4.56                   -0.601879         84.1861
4.58                   -0.622741         82.6263
4.6                    -0.644353         81.0535
4.62                   -0.666705         79.4676
4.64                   -0.689789         77.8684
4.66                   -0.713597         76.2558
4.68                   -0.738124         74.6296
4.7                    -0.763365         72.9896
4.72                    -0.78932         71.3355
4.74                   -0.815993         69.6672
4.76                    -0.84339         67.9843
4.78                   -0.871521         66.2866
4.8                    -0.900401         64.5738
4.82                   -0.930045         62.8458
4.84                   -0.960474         61.1024
4.86                   -0.991709         59.3432
4.88                    -1.02378         57.5682
4.9                      -1.0567         55.7772
4.92                    -1.09051           53.97
4.94                    -1.12524         52.1466
4.96                    -1.16091         50.3069
4.98                    -1.19755         48.4508
5                        -1.2352         46.5783
5.02                    -1.27387         44.6895
5.04                    -1.31361         42.7844
5.06                    -1.35442          40.863
5.08                    -1.39635         38.9255
5.1                      -1.4394          36.972
5.12                    -1.48361         35.0027
5.14                    -1.52899         33.0178
5.16                    -1.57554         31.0175
5.18                     -1.6233         29.0021
5.2                     -1.67226         26.9719
5.22                    -1.72244         24.9272
5.24                    -1.77384         22.8683
5.26                    -1.82646         20.7955
5.28                     -1.8803         18.7094
5.3                     -1.93536         16.6102
5.32                    -1.99164         14.4985
5.34                    -2.04912         12.3748
5.36                    -2.10779         10.2394
5.38                    -2.16765         8.09299
5.4                     -2.22867         5.93608
5.42                    -2.29085         3.76925
5.44                    -2.35415          1.5931
5.46                    -2.41857       -0.591744
5.48                    -2.48407        -2.78462
5.5                     -2.55064        -4.98485
5.52                    -2.61824        -7.19173
5.54                    -2.68685        -9.40451
5.56                    -2.75645        -11.6224
5.58                    -2.82699        -13.8447
5.6                     -2.89845        -16.0706
5.62                     -2.9708        -18.2991
5.64                    -3.04401        -20.5295
5.66                    -3.11804        -22.7609
5.68                    -3.19285        -24.9923
5.7                     -3.26841        -27.2228
5.72                    -3.34469        -29.4515
5.74                    -3.42164        -31.6773
5.76                    -3.49923        -33.8994
5.78                    -3.57742        -36.1166
5.8                     -3.65617         -38.328
5.82                    -3.73543        -40.5326
5.84                    -3.81518        -42.7292
5.86                    -3.89536        -44.9169
5.88                    -3.97593        -47.0945
5.9                     -4.05685        -49.2611
5.92                    -4.13807        -51.4155
5.94                    -4.21954        -53.5567
5.96                    -4.30123        -55.6837
5.98                    -4.38308        -57.7954
6                       -4.46504        -59.8909
6.02                    -4.54707         -61.969
6.04                    -4.62912        -64.0289
6.06                    -4.71114        -66.0696
6.08                    -4.79309        -68.0901
6.1                     -4.87491        -70.0895
6.12                    -4.95655         -72.067
6.14                    -5.03799        -74.0217
6.16                    -5.11916        -75.9527
6.18                    -5.20004        -77.8593
6.2                     -5.28058        -79.7407
6.22                    -5.36076        -81.5961
6.24                    -5.44053        -83.4248
6.26                    -5.51987        -85.2259
6.28                    -5.59876        -86.9988
6.3                     -5.67718        -88.7427
6.32                     -5.7551        -90.4568
6.34                    -5.83251        -92.1401
6.36                    -5.90939        -93.7919
6.38                    -5.98571        -95.4111
6.4                     -6.06144        -96.9966
6.42                    -6.13656        -98.5473
6.44                      -6.211        -100.062
6.46                     -6.2847        -101.539
6.48                    -6.35755        -102.977
6.5                     -6.42944        -104.375
