! TOUCHSTONE file generated by CST MICROWAVE STUDIO
! Date and time: Sat Oct 29 15:00:09 2022
! Project name: L.cst
! Parameters = {Di=1.27; Epsilon_r=1.56; InnerDiameter=1.27; Length=2; Lf=10; Lg=60; OuterConductorThickness=0.2921; OuterDiameter=3.6; Wf=3; Wp=41.2; de=1.5; df=6.8; g=0.8; gx=3.125; gy=4.61525; h=2.34; hf=1.524; px=11.1002; py=9.67339; w=9.7; wx=7.97519; wy=5.05814}
! Header version: 2018
! Port assignment regex: !\s*Touchstone port\s*([0-9]+)\s*=\s*(CST MWS port|CST DS port)\s*([0-9]+|Zmin|Zmax)\s*\(\"(.*)\"\)(\s*mode\s*([0-9]+))?.*
! Touchstone port assignment:
! Touchstone port 1 = CST MWS port 1 ("")
# GHz S DB R 50
4.5                    -0.369062         96.3368
4.52                   -0.379595         94.8928
4.54                    -0.39044         93.4381
4.56                   -0.401604         91.9726
4.58                    -0.41309         90.4964
4.6                      -0.4249         89.0094
4.62                   -0.437031         87.5116
4.64                   -0.449483         86.0029
4.66                    -0.46225         84.4832
4.68                   -0.475327         82.9525
4.7                    -0.488709         81.4107
4.72                   -0.502395         79.8575
4.74                   -0.516376         78.2931
4.76                   -0.530652         76.7172
4.78                    -0.54522         75.1297
4.8                    -0.560078         73.5306
4.82                   -0.575226         71.9196
4.84                   -0.590665         70.2968
4.86                   -0.606397         68.6619
4.88                   -0.622423          67.015
4.9                     -0.63875         65.3559
4.92                   -0.655379         63.6846
4.94                   -0.672316          62.001
4.96                   -0.689568         60.3051
4.98                   -0.707139         58.5968
5                      -0.725036         56.8762
5.02                   -0.743263         55.1432
5.04                   -0.761827          53.398
5.06                   -0.780734         51.6404
5.08                   -0.799989         49.8706
5.1                    -0.819596         48.0888
5.12                   -0.839559         46.2949
5.14                   -0.859882          44.489
5.16                   -0.880566         42.6715
5.18                   -0.901612         40.8423
5.2                    -0.923022         39.0017
5.22                   -0.944795         37.1498
5.24                   -0.966928          35.287
5.26                   -0.989419         33.4133
5.28                    -1.01227         31.5291
5.3                     -1.03546         29.6346
5.32                      -1.059         27.7302
5.34                    -1.08288          25.816
5.36                    -1.10709         23.8924
5.38                    -1.13162         21.9599
5.4                     -1.15646         20.0186
5.42                     -1.1816          18.069
5.44                    -1.20702         16.1115
5.46                    -1.23273         14.1464
5.48                     -1.2587         12.1743
5.5                     -1.28492         10.1954
5.52                    -1.31138         8.21026
5.54                    -1.33806         6.21934
5.56                    -1.36495          4.2231
5.58                    -1.39203         2.22202
5.6                     -1.41929        0.216594
5.62                     -1.4467        -1.79266
5.64                    -1.47426        -3.80523
5.66                    -1.50195        -5.82058
5.68                    -1.52975        -7.83818
5.7                     -1.55764        -9.85747
5.72                     -1.5856        -11.8779
5.74                    -1.61362        -13.8989
5.76                    -1.64168        -15.9198
5.78                    -1.66975        -17.9403
5.8                     -1.69783        -19.9595
5.82                    -1.72589        -21.9771
5.84                    -1.75392        -23.9923
5.86                    -1.78189        -26.0047
5.88                    -1.80978        -28.0136
5.9                     -1.83757        -30.0185
5.92                    -1.86525        -32.0188
5.94                    -1.89279        -34.0139
5.96                    -1.92017        -36.0034
5.98                    -1.94737        -37.9866
6                       -1.97437        -39.9632
6.02                    -2.00115        -41.9325
6.04                    -2.02768        -43.8941
6.06                    -2.05395        -45.8476
6.08                    -2.07993        -47.7925
6.1                     -2.10561        -49.7284
6.12                    -2.13096        -51.6549
6.14                    -2.15597        -53.5718
6.16                    -2.18062        -55.4785
6.18                     -2.2049         -57.375
6.2                     -2.22878        -59.2609
6.22                    -2.25228         -61.136
6.24                    -2.27537        -63.0001
6.26                    -2.29805         -64.853
6.28                    -2.32033        -66.6946
6.3                      -2.3422        -68.5248
6.32                    -2.36368        -70.3435
6.34                    -2.38479        -72.1507
6.36                    -2.40554        -73.9462
6.38                    -2.42596          -75.73
6.4                     -2.44608        -77.5022
6.42                    -2.46594        -79.2626
6.44                    -2.48559        -81.0112
6.46                    -2.50506         -82.748
6.48                    -2.52442        -84.4728
6.5                     -2.54373        -86.1855
