! TOUCHSTONE file generated by CST MICROWAVE STUDIO
! Date and time: Sat Oct 29 12:37:14 2022
! Project name: L.cst
! Parameters = {Di=1.27; Epsilon_r=1.56; InnerDiameter=1.27; Length=2; Lf=10; Lg=60; OuterConductorThickness=0.2921; OuterDiameter=3.6; Wf=3; Wp=41.2; de=1.5; df=6.8; g=0.8; gx=0.819714; gy=2.22074; h=2.34; hf=1.524; px=13.3906; py=13.9727; w=9.7; wx=12.5709; wy=11.752}
! Header version: 2018
! Port assignment regex: !\s*Touchstone port\s*([0-9]+)\s*=\s*(CST MWS port|CST DS port)\s*([0-9]+|Zmin|Zmax)\s*\(\"(.*)\"\)(\s*mode\s*([0-9]+))?.*
! Touchstone port assignment:
! Touchstone port 1 = CST MWS port 1 ("")
# GHz S DB R 50
4.5                     -6.28757         92.0812
4.52                    -6.23343         91.6298
4.54                    -6.16052         90.8442
4.56                     -6.0707         89.9123
4.58                    -5.98752         88.9333
4.6                     -5.93506          87.837
4.62                    -5.91589         86.4984
4.64                    -5.91485         84.8669
4.66                    -5.92259         83.0245
4.68                    -5.94705         81.0935
4.7                     -6.00942         79.0933
4.72                    -6.12696         76.9529
4.74                     -6.3008         74.5918
4.76                    -6.52896         72.0155
4.78                    -6.82079         69.3396
4.8                     -7.20445         66.6822
4.82                    -7.72244          64.128
4.84                    -8.41532         61.7994
4.86                    -9.32102         60.0215
4.88                    -10.4765         59.5968
4.9                     -11.8811         62.0868
4.92                    -13.3347         69.9035
4.94                    -14.1127         84.2531
4.96                    -13.4152         99.5644
4.98                    -11.7387         108.227
5                       -10.0184          109.96
5.02                     -8.6412          107.53
5.04                    -7.66973         103.029
5.06                    -7.07663         97.5845
5.08                     -6.8259         91.7802
5.1                     -6.89559         86.0368
5.12                    -7.29151         80.8785
5.14                    -8.04069         77.2247
5.16                    -9.11602         76.6841
5.18                    -10.2387         81.3692
5.2                     -10.6991         91.3373
5.22                    -10.0082         101.298
5.24                     -8.6611         106.381
5.26                    -7.29015         106.866
5.28                    -6.14044         104.604
5.3                     -5.24261         100.913
5.32                    -4.55892         96.5303
5.34                    -4.03959         91.8653
5.36                    -3.64285         87.1638
5.38                    -3.33915         82.5426
5.4                     -3.10945         78.0118
5.42                    -2.93658         73.5302
5.44                    -2.80336         69.0437
5.46                    -2.69821          64.528
5.48                    -2.61628         59.9674
5.5                     -2.55992         55.3063
5.52                    -2.53177         50.4539
5.54                     -2.5298         45.2975
5.56                    -2.55294         39.7368
5.58                    -2.60705         33.6716
5.6                     -2.71019         26.9236
5.62                    -2.89262         19.1688
5.64                    -3.19942         9.87655
5.66                    -3.71837        -1.80024
5.68                     -4.6641        -17.3786
5.7                      -6.6173        -40.2164
5.72                     -11.256        -81.6847
5.74                    -14.8057         161.998
5.76                      -7.899         88.1275
5.78                    -5.30327         48.2473
5.8                     -4.99183         13.8727
5.82                     -6.5882        -24.8188
5.84                    -11.0686        -81.6437
5.86                    -13.3066        -179.278
5.88                    -9.41405         120.299
5.9                     -7.29318         89.4168
5.92                    -6.53319         67.0647
5.94                    -7.11365         47.0584
5.96                    -11.4246          32.644
5.98                    -10.1434         103.395
6                       -3.36138         76.4028
6.02                    -2.18997         51.3698
6.04                    -2.07561         33.3736
6.06                     -2.2761         18.3553
6.08                    -2.70653         4.03006
6.1                     -3.38191        -11.3321
6.12                    -4.33283        -29.1987
6.14                    -5.69102        -51.0504
6.16                    -7.78647        -80.3363
6.18                    -10.3884        -127.753
6.2                     -9.66521         163.847
6.22                    -9.52207         133.274
6.24                    -4.98318         101.921
6.26                    -3.38362         76.6619
6.28                    -2.33076         54.5863
6.3                     -1.51696         33.6578
6.32                    -1.21528         6.88197
6.34                    -6.12951        -79.9352
6.36                    -3.80832         71.2036
6.38                    -2.45273         33.3592
6.4                      -2.1278         10.5617
6.42                    -1.79031        -8.58593
6.44                     -1.6284         -27.208
6.46                    -1.86622         -50.385
6.48                    -2.28445        -85.4776
6.5                     -2.10683        -136.451
