! TOUCHSTONE file generated by CST MICROWAVE STUDIO
! Date and time: Fri Oct 28 02:51:04 2022
! Project name: L.cst
! Parameters = {Di=1.27; Epsilon_r=1.56; InnerDiameter=1.27; Length=2; Lf=10; Lg=60; OuterConductorThickness=0.2921; OuterDiameter=3.6; Wf=3; Wp=41.2; de=1.5; df=6.8; g=0.8; gx=4.53278; gy=4.46806; h=2.34; hf=1.524; px=9.16172; py=12.4706; w=9.7; wx=4.62893; wy=8.00255}
! Header version: 2018
! Port assignment regex: !\s*Touchstone port\s*([0-9]+)\s*=\s*(CST MWS port|CST DS port)\s*([0-9]+|Zmin|Zmax)\s*\(\"(.*)\"\)(\s*mode\s*([0-9]+))?.*
! Touchstone port assignment:
! Touchstone port 1 = CST MWS port 1 ("")
# GHz S DB R 50
4.5                    -0.277172         97.9077
4.52                   -0.283846         96.5167
4.54                   -0.290641         95.1165
4.56                   -0.297563         93.7071
4.58                   -0.304617         92.2885
4.6                    -0.311805         90.8605
4.62                   -0.319128         89.4231
4.64                   -0.326586         87.9763
4.66                   -0.334178           86.52
4.68                   -0.341902          85.054
4.7                    -0.349755         83.5784
4.72                   -0.357737         82.0931
4.74                   -0.365843         80.5979
4.76                   -0.374071          79.093
4.78                    -0.38242          77.578
4.8                    -0.390885          76.053
4.82                   -0.399466         74.5179
4.84                   -0.408159         72.9727
4.86                   -0.416965         71.4173
4.88                   -0.425881         69.8516
4.9                    -0.434907         68.2755
4.92                   -0.444042         66.6892
4.94                   -0.453285         65.0924
4.96                   -0.462637         63.4853
4.98                   -0.472097         61.8677
5                      -0.481665         60.2397
5.02                   -0.491341         58.6013
5.04                   -0.501125         56.9525
5.06                   -0.511017         55.2933
5.08                   -0.521017         53.6238
5.1                    -0.531122          51.944
5.12                   -0.541335          50.254
5.14                   -0.551651         48.5539
5.16                   -0.562072         46.8438
5.18                   -0.572594         45.1237
5.2                    -0.583216         43.3937
5.22                   -0.593935         41.6541
5.24                   -0.604747         39.9049
5.26                   -0.615651         38.1463
5.28                   -0.626641         36.3785
5.3                    -0.637713         34.6016
5.32                   -0.648863         32.8158
5.34                   -0.660086         31.0213
5.36                   -0.671377         29.2183
5.38                   -0.682729         27.4072
5.4                    -0.694136          25.588
5.42                   -0.705591         23.7611
5.44                   -0.717089         21.9266
5.46                   -0.728621          20.085
5.48                   -0.740181         18.2364
5.5                    -0.751761         16.3812
5.52                   -0.763353         14.5196
5.54                    -0.77495         12.6521
5.56                   -0.786543         10.7788
5.58                   -0.798125         8.90012
5.6                    -0.809686         7.01645
5.62                    -0.82122         5.12811
5.64                   -0.832717         3.23546
5.66                   -0.844169         1.33887
5.68                   -0.855568       -0.561283
5.7                    -0.866905        -2.46462
5.72                   -0.878171        -4.37074
5.74                   -0.889358        -6.27925
5.76                   -0.900457        -8.18972
5.78                    -0.91146        -10.1018
5.8                    -0.922358        -12.0151
5.82                   -0.933142        -13.9292
5.84                   -0.943801        -15.8436
5.86                   -0.954329        -17.7579
5.88                   -0.964715        -19.6719
5.9                     -0.97495        -21.5849
5.92                   -0.985024        -23.4967
5.94                   -0.994928        -25.4068
5.96                    -1.00465        -27.3148
5.98                    -1.01418        -29.2204
6                       -1.02352        -31.1231
6.02                    -1.03264        -33.0227
6.04                    -1.04154        -34.9187
6.06                    -1.05021        -36.8108
6.08                    -1.05863        -38.6986
6.1                     -1.06681        -40.5819
6.12                    -1.07472        -42.4604
6.14                    -1.08236        -44.3337
6.16                    -1.08973        -46.2017
6.18                     -1.0968         -48.064
6.2                     -1.10359        -49.9205
6.22                    -1.11007        -51.7709
6.24                    -1.11625        -53.6151
6.26                    -1.12212        -55.4529
6.28                    -1.12768        -57.2843
6.3                     -1.13294         -59.109
6.32                     -1.1379         -60.927
6.34                    -1.14257        -62.7383
6.36                    -1.14695        -64.5427
6.38                    -1.15106        -66.3402
6.4                     -1.15491        -68.1309
6.42                    -1.15852        -69.9146
6.44                    -1.16193        -71.6913
6.46                    -1.16514        -73.4611
6.48                     -1.1682        -75.2239
6.5                     -1.17113        -76.9798
