! TOUCHSTONE file generated by CST MICROWAVE STUDIO
! Date and time: Thu Oct 27 18:20:47 2022
! Project name: L.cst
! Parameters = {Di=1.27; Epsilon_r=1.56; InnerDiameter=1.27; Length=2; Lf=10; Lg=60; OuterConductorThickness=0.2921; OuterDiameter=3.6; Wf=3; Wp=41.2; de=1.5; df=6.8; g=0.8; gx=4.84908; gy=1.69028; h=2.34; hf=1.524; px=11.0389; py=14.9151; w=9.7; wx=6.18977; wy=13.2248}
! Header version: 2018
! Port assignment regex: !\s*Touchstone port\s*([0-9]+)\s*=\s*(CST MWS port|CST DS port)\s*([0-9]+|Zmin|Zmax)\s*\(\"(.*)\"\)(\s*mode\s*([0-9]+))?.*
! Touchstone port assignment:
! Touchstone port 1 = CST MWS port 1 ("")
# GHz S DB R 50
4.5                    -0.522975         82.3442
4.52                   -0.581931         80.5892
4.54                   -0.600424         78.5538
4.56                   -0.583772         76.7113
4.58                   -0.597455         75.0586
4.6                    -0.646688         73.1835
4.62                   -0.674728         71.0288
4.64                   -0.669053         68.9348
4.66                   -0.678992         66.9886
4.68                   -0.720583         64.8955
4.7                    -0.753088         62.5201
4.72                   -0.757206         60.1028
4.74                   -0.766123          57.772
4.76                   -0.802427         55.3073
4.78                   -0.838354         52.5495
4.8                    -0.850414         49.6437
4.82                   -0.862896         46.7231
4.84                   -0.899572         43.6263
4.86                   -0.942983         40.1597
4.88                   -0.971434         36.3981
4.9                     -1.00264         32.4484
4.92                    -1.06472         28.1557
4.94                    -1.15088         23.2954
4.96                    -1.24639         17.8598
4.98                    -1.37628         11.9036
5                       -1.58292         5.24211
5.02                    -1.88152        -2.40365
5.04                    -2.28348        -11.0765
5.06                    -2.84736        -20.7124
5.08                    -3.65536        -31.4762
5.1                     -4.75447        -43.5994
5.12                    -6.17782        -57.0028
5.14                      -8.007        -71.6501
5.16                    -10.3154        -88.3575
5.18                    -13.0005        -108.805
5.2                     -15.6867        -134.686
5.22                    -17.6192        -166.373
5.24                    -17.9097         161.894
5.26                    -17.0609         139.088
5.28                    -16.1556          125.25
5.3                     -15.4243         116.884
5.32                    -14.6809         112.337
5.34                    -13.8089         110.786
5.36                    -12.7934         110.601
5.38                     -11.621         109.838
5.4                     -10.3086          107.56
5.42                    -8.96767         103.845
5.44                    -7.74954         98.7692
5.46                     -6.7222         92.2108
5.48                    -5.87007         84.3697
5.5                     -5.20834         75.7575
5.52                    -4.80988         66.5912
5.54                    -4.72994          56.788
5.56                    -4.98671         47.0631
5.58                    -5.33482         39.8718
5.6                     -4.80746         29.9149
5.62                    -4.98941         4.59801
5.64                    -7.28391        -35.3364
5.66                    -10.5224        -109.031
5.68                    -7.31813         167.998
5.7                     -3.91659         124.726
5.72                    -2.33473         98.0739
5.74                    -1.56767          79.013
5.76                    -1.15579          64.492
5.78                     -0.9885         52.5926
5.8                    -0.936483         41.8977
5.82                   -0.892332         31.3722
5.84                   -0.870973          21.553
5.86                    -0.97892         11.5959
5.88                    -1.18046       -0.163664
5.9                      -1.3087        -14.4982
5.92                     -1.5187        -32.1015
5.94                    -2.55852        -61.1378
5.96                    -5.76675        -151.649
5.98                    -2.75354         31.2006
6                       -1.94964        -51.9036
6.02                    -1.47257        -116.187
6.04                    -1.16313         177.434
6.06                   -0.540975          124.87
6.08                   -0.345156         92.0442
6.1                    -0.464896         69.6527
6.12                   -0.490638         53.1906
6.14                   -0.478774         41.4368
6.16                   -0.593774         32.2988
6.18                   -0.735825         23.9539
6.2                    -0.761906         16.5294
6.22                     -0.7622         10.6066
6.24                   -0.864455         5.41861
6.26                   -0.988597     -0.00445832
6.28                    -1.00593        -5.24738
6.3                    -0.992278        -9.52157
6.32                    -1.07908        -13.3492
6.34                    -1.20083        -17.6637
6.36                    -1.21494        -22.0871
6.38                    -1.18127        -25.6637
6.4                     -1.25275        -28.7742
6.42                    -1.38206        -32.4906
6.44                    -1.39834        -36.5543
6.46                    -1.33887        -39.7802
6.48                    -1.39157        -42.3827
6.5                     -1.53717        -45.6687
