! TOUCHSTONE file generated by CST MICROWAVE STUDIO
! Date and time: Wed Oct 26 19:26:58 2022
! Project name: L.cst
! Parameters = {Di=1.27; Epsilon_r=1.56; InnerDiameter=1.27; Length=2; Lf=10; Lg=60; OuterConductorThickness=0.2921; OuterDiameter=3.6; Wf=3; Wp=41.2; de=1.5; df=6.8; g=0.8; gx=2.88223; gy=1.76817; h=2.34; hf=1.524; px=14.8953; py=11.406; w=9.7; wx=12.0131; wy=9.63783}
! Header version: 2018
! Port assignment regex: !\s*Touchstone port\s*([0-9]+)\s*=\s*(CST MWS port|CST DS port)\s*([0-9]+|Zmin|Zmax)\s*\(\"(.*)\"\)(\s*mode\s*([0-9]+))?.*
! Touchstone port assignment:
! Touchstone port 1 = CST MWS port 1 ("")
# GHz S DB R 50
4.5                     -4.84492         49.4224
4.52                    -5.25459         46.4865
4.54                    -5.72668         43.4554
4.56                    -6.22122         40.4888
4.58                    -6.77616         37.3586
4.6                     -7.37551         34.3564
4.62                    -8.03179         31.1692
4.64                    -8.76122         28.1219
4.66                    -9.54798         24.9249
4.68                    -10.4428         21.8142
4.7                     -11.4093         18.6507
4.72                    -12.5257         15.4551
4.74                    -13.7602         12.3354
4.76                    -15.2081         9.02587
4.78                    -16.8886         5.89263
4.8                     -18.9306         2.35236
4.82                    -21.5286        -1.08074
4.84                    -25.0607        -5.60839
4.86                    -30.9165        -12.2455
4.88                    -46.4037        -68.5189
4.9                      -32.579        -179.172
4.92                    -26.5803         172.951
4.94                    -23.1294          168.86
4.96                    -20.8252         165.377
4.98                    -19.0803         162.602
5                       -17.7207          159.78
5.02                    -16.6233         157.363
5.04                    -15.7064         154.895
5.06                    -14.9537         152.694
5.08                    -14.2982         150.518
5.1                     -13.7608         148.512
5.12                    -13.2809         146.631
5.14                    -12.8888         144.848
5.16                    -12.5357         143.294
5.18                    -12.2419           141.8
5.2                      -11.979         140.615
5.22                    -11.7445         139.506
5.24                     -11.532         138.734
5.26                    -11.3143         138.081
5.28                    -11.0995          137.72
5.3                     -10.8422         137.464
5.32                    -10.5602         137.302
5.34                    -10.2063         137.058
5.36                    -9.81587         136.491
5.38                    -9.36966         135.495
5.4                     -8.92662         133.733
5.42                     -8.5107         131.362
5.44                    -8.17443         128.214
5.46                    -7.95766         124.744
5.48                    -7.86139         120.981
5.5                     -7.91952         117.392
5.52                    -8.08226         114.091
5.54                    -8.38772          111.33
5.56                    -8.75986         109.392
5.58                    -9.23928         108.279
5.6                     -9.72562         108.672
5.62                    -10.2086         110.221
5.64                    -10.5216          113.97
5.66                    -10.5136         118.195
5.68                    -10.0072         122.775
5.7                     -9.23386         121.023
5.72                    -9.84422           118.5
5.74                    -10.2144         128.327
5.76                    -8.79264         134.697
5.78                    -7.50537         134.841
5.8                     -6.33352         132.729
5.82                    -5.43543         128.812
5.84                    -4.69369         124.498
5.86                    -4.12066         119.404
5.88                    -3.68984         114.389
5.9                     -3.35045         109.018
5.92                     -3.1348         103.734
5.94                    -2.96679           98.25
5.96                    -2.91564         92.5767
5.98                    -2.91998         86.6313
6                       -3.08401         79.9873
6.02                    -3.42822         72.7815
6.04                    -4.16026         64.1761
6.06                    -5.69642         54.6914
6.08                    -9.46817         46.9676
6.1                     -15.3127         96.6814
6.12                    -7.33141         121.753
6.14                    -4.05491         107.295
6.16                    -2.97528         94.9289
6.18                    -2.58077         85.0993
6.2                     -2.51061         77.7853
6.22                    -2.49862         70.7426
6.24                    -2.93432         65.7216
6.26                    -2.81843          64.262
6.28                    -2.46789         57.8799
6.3                     -2.75168         51.7618
6.32                    -2.88425         47.3459
6.34                    -3.11529          42.008
6.36                    -3.35833         37.6533
6.38                    -3.60854         32.4245
6.4                     -3.96907         27.7769
6.42                     -4.2924         22.5638
6.44                    -4.79426         17.4224
6.46                    -5.26702         12.2067
6.48                    -5.95654         6.49627
6.5                     -6.69973         1.30327
