! TOUCHSTONE file generated by CST MICROWAVE STUDIO
! Date and time: Sat Oct 29 03:00:44 2022
! Project name: L.cst
! Parameters = {Di=1.27; Epsilon_r=1.56; InnerDiameter=1.27; Length=2; Lf=10; Lg=60; OuterConductorThickness=0.2921; OuterDiameter=3.6; Wf=3; Wp=41.2; de=1.5; df=6.8; g=0.8; gx=1.83508; gy=0.689287; h=2.34; hf=1.524; px=10.9745; py=14.8034; w=9.7; wx=9.13939; wy=14.1141}
! Header version: 2018
! Port assignment regex: !\s*Touchstone port\s*([0-9]+)\s*=\s*(CST MWS port|CST DS port)\s*([0-9]+|Zmin|Zmax)\s*\(\"(.*)\"\)(\s*mode\s*([0-9]+))?.*
! Touchstone port assignment:
! Touchstone port 1 = CST MWS port 1 ("")
# GHz S DB R 50
4.5                      -2.4087         38.8013
4.52                    -2.55928         33.0187
4.54                     -2.6652         27.7493
4.56                    -2.99397         20.2721
4.58                     -3.4458         13.0112
4.6                     -4.33314         3.78052
4.62                    -5.68259        -3.50259
4.64                    -7.60662        -8.88406
4.66                    -9.48194        -6.53074
4.68                    -10.7081        -1.89128
4.7                     -10.9228         3.27185
4.72                    -11.0005          2.8447
4.74                    -10.9181        0.696176
4.76                    -11.2066        -5.16281
4.78                    -11.4997        -11.4286
4.8                     -12.1658        -20.8084
4.82                    -12.8425        -30.6079
4.84                    -13.8021        -44.5809
4.86                    -14.6888        -59.9126
4.88                    -15.4332        -81.2573
4.9                     -15.6797        -103.832
4.92                    -15.0339        -129.146
4.94                     -13.969        -151.099
4.96                    -12.4549        -170.898
4.98                    -11.1654         171.963
5                        -9.9333          156.01
5.02                    -9.16985             140
5.04                    -8.93607         123.066
5.06                    -10.1532         103.291
5.08                     -16.379         88.0495
5.1                     -14.7982        -174.126
5.12                    -6.58861         165.167
5.14                    -3.97642         142.439
5.16                    -2.72321         124.938
5.18                    -2.11253         110.359
5.2                     -1.67239         97.8528
5.22                    -1.46832         86.1014
5.24                    -1.30032         75.1699
5.26                    -1.30322         64.1222
5.28                    -1.32075         53.1943
5.3                     -1.52798         41.3312
5.32                    -1.80195         28.4185
5.34                    -2.51542         12.4457
5.36                    -4.06575        -9.14626
5.38                    -10.6421        -38.4316
5.4                     -13.2968         64.6101
5.42                    -6.32755         37.1358
5.44                    -5.49788         13.2448
5.46                    -5.84483        -11.3405
5.48                    -7.65412        -41.0044
5.5                     -10.7173        -103.779
5.52                    -8.07677         139.217
5.54                    -3.74365         70.4418
5.56                    -3.18538          30.454
5.58                    -3.49083         5.89679
5.6                     -4.01568        -13.7536
5.62                     -4.5087        -30.5832
5.64                    -5.05081        -47.1371
5.66                    -5.44109        -63.8395
5.68                    -5.87622        -81.8281
5.7                     -5.99811          -101.3
5.72                    -6.15299         -123.67
5.74                    -5.78168        -148.463
5.76                    -5.42538         179.726
5.78                    -4.50851         141.102
5.8                     -3.52973         77.4925
5.82                    -3.25732        -10.0798
5.84                    -2.36967        -92.9997
5.86                    -1.87831        -147.656
5.88                    -1.06919         176.856
5.9                    -0.633015          147.09
5.92                    -0.46265         124.138
5.94                   -0.464991         102.942
5.96                   -0.766206         85.8912
5.98                    -1.04632         70.0593
6                       -1.55944         57.0605
6.02                    -1.92652         44.8982
6.04                     -2.4927         34.6103
6.06                    -2.85019         24.8568
6.08                    -3.40487         16.3148
6.1                     -3.71713         8.12512
6.12                    -4.24107        0.696839
6.14                    -4.49817        -6.46424
6.16                    -4.98948        -13.1853
6.18                    -5.19142        -19.6573
6.2                     -5.65514        -25.9321
6.22                    -5.80487        -31.9314
6.24                    -6.24929        -37.9318
6.26                    -6.35056        -43.5911
6.28                    -6.78563         -49.434
6.3                     -6.84295        -54.8275
6.32                    -7.27954        -60.5869
6.34                    -7.29694        -65.7489
6.36                    -7.74767        -71.4685
6.38                    -7.72763        -76.3995
6.4                     -8.20691        -82.1071
6.42                    -8.15067        -86.7754
6.44                    -8.67408        -92.4837
6.46                    -8.58007        -96.8363
6.48                    -9.16537        -102.548
6.5                     -9.02774        -106.515
