! TOUCHSTONE file generated by CST MICROWAVE STUDIO
! Date and time: Wed Oct 26 15:40:57 2022
! Project name: L.cst
! Parameters = {Di=1.27; Epsilon_r=1.56; InnerDiameter=1.27; Length=2; Lf=10; Lg=60; OuterConductorThickness=0.2921; OuterDiameter=3.6; Wf=3; Wp=41.2; de=1.5; df=6.8; g=0.8; gx=3.70232; gy=3.15364; h=2.34; hf=1.524; px=14.8359; py=8.20041; w=9.7; wx=11.1336; wy=5.04678}
! Header version: 2018
! Port assignment regex: !\s*Touchstone port\s*([0-9]+)\s*=\s*(CST MWS port|CST DS port)\s*([0-9]+|Zmin|Zmax)\s*\(\"(.*)\"\)(\s*mode\s*([0-9]+))?.*
! Touchstone port assignment:
! Touchstone port 1 = CST MWS port 1 ("")
# GHz S DB R 50
4.5                     -1.03253         81.7067
4.52                    -1.10014         79.7887
4.54                     -1.1551         77.8841
4.56                    -1.20542         75.8531
4.58                    -1.27147          73.731
4.6                      -1.3501         71.6437
4.62                    -1.42319         69.5809
4.64                    -1.49069         67.4275
4.66                    -1.56897         65.1705
4.68                    -1.66142         62.9077
4.7                     -1.75444         60.6669
4.72                    -1.84287         58.3629
4.74                    -1.93854         55.9533
4.76                    -2.04875         53.5051
4.78                    -2.16461          51.068
4.8                     -2.27815         48.5878
4.82                    -2.39661         46.0058
4.84                    -2.52929         43.3591
4.86                     -2.6719         40.7073
4.88                    -2.81535          38.026
4.9                     -2.96245         35.2516
4.92                    -3.12294         32.3923
4.94                    -3.29676         29.5081
4.96                    -3.47512         26.6019
4.98                    -3.65673         23.6138
5                       -3.85045         20.5258
5.02                    -4.05998           17.39
5.04                    -4.27798         14.2332
5.06                    -4.49956         11.0071
5.08                    -4.73137         7.67071
5.1                     -4.98027         4.25996
5.12                    -5.24147        0.821092
5.14                     -5.5071        -2.67501
5.16                     -5.7803        -6.28707
5.18                       -6.07        -10.0041
5.2                      -6.3751        -13.7678
5.22                    -6.68574        -17.5801
5.24                    -7.00015        -21.5098
5.26                    -7.32773        -25.5789
5.28                    -7.67201         -29.728
5.3                     -8.02278        -33.9248
5.32                    -8.37201        -38.2334
5.34                    -8.72682        -42.7154
5.36                    -9.09583        -47.3268
5.38                    -9.47113        -51.9962
5.4                     -9.83776        -56.7595
5.42                    -10.1965        -61.7142
5.44                    -10.5603         -66.855
5.46                    -10.9274        -72.0741
5.48                    -11.2776        -77.3442
5.5                     -11.6008        -82.7755
5.52                    -11.9108         -88.425
5.54                    -12.2171        -94.1722
5.56                     -12.501        -99.8926
5.58                    -12.7391        -105.658
5.6                     -12.9396        -111.603
5.62                    -13.1271        -117.655
5.64                    -13.2963        -123.596
5.66                    -13.4146        -129.399
5.68                    -13.4754        -135.266
5.7                     -13.5141        -141.266
5.72                    -13.5509        -147.164
5.74                    -13.5552        -152.792
5.76                    -13.4977        -158.359
5.78                    -13.4105        -164.144
5.8                     -13.3459        -170.017
5.82                    -13.2956         -175.65
5.84                    -13.2091         178.888
5.86                    -13.0954         173.155
5.88                    -13.0356         167.072
5.9                     -13.0683         161.142
5.92                    -13.1291         155.701
5.94                    -13.1611         150.314
5.96                    -13.2429         144.476
5.98                    -13.4917         138.694
6                       -13.8591          134.04
6.02                    -14.1536          130.41
6.04                    -14.3911         126.328
6.06                    -14.9042         121.979
6.08                    -15.7809          121.26
6.1                     -16.0288         127.399
6.12                    -14.6151         131.372
6.14                    -12.8059         124.548
6.16                    -11.8113         110.412
6.18                    -11.9027          94.075
6.2                     -12.9666         79.5646
6.22                     -14.549         69.9924
6.24                    -15.8506         64.7986
6.26                    -16.6264         58.1526
6.28                    -17.5897          46.935
6.3                     -19.2585         33.4816
6.32                    -21.3967         20.4902
6.34                     -23.155         5.55371
6.36                    -23.8741         -18.953
6.38                    -23.2439        -52.8056
6.4                     -21.5455        -84.4157
6.42                    -19.6144        -106.506
6.44                    -17.5797        -120.289
6.46                    -15.3215        -130.993
6.48                      -13.16        -142.391
6.5                     -11.4263        -154.232
