! TOUCHSTONE file generated by CST MICROWAVE STUDIO
! Date and time: Wed Oct 26 17:37:59 2022
! Project name: L.cst
! Parameters = {Di=1.27; Epsilon_r=1.56; InnerDiameter=1.27; Length=2; Lf=10; Lg=60; OuterConductorThickness=0.2921; OuterDiameter=3.6; Wf=3; Wp=41.2; de=1.5; df=6.8; g=0.8; gx=3.59002; gy=3.86138; h=2.34; hf=1.524; px=9.08217; py=14.6648; w=9.7; wx=5.49215; wy=10.8034}
! Header version: 2018
! Port assignment regex: !\s*Touchstone port\s*([0-9]+)\s*=\s*(CST MWS port|CST DS port)\s*([0-9]+|Zmin|Zmax)\s*\(\"(.*)\"\)(\s*mode\s*([0-9]+))?.*
! Touchstone port assignment:
! Touchstone port 1 = CST MWS port 1 ("")
# GHz S DB R 50
4.5                    -0.350973         93.2875
4.52                    -0.34434          91.935
4.54                   -0.343081         90.4339
4.56                   -0.361925         88.9316
4.58                   -0.382929         87.5408
4.6                    -0.387414         86.1716
4.62                   -0.384866          84.696
4.64                   -0.394565         83.1504
4.66                   -0.414644         81.6574
4.68                   -0.427622         80.2259
4.7                    -0.429328         78.7506
4.72                   -0.433836         77.1884
4.74                    -0.44951         75.6181
4.76                   -0.466676         74.1039
4.78                   -0.474581         72.5971
4.8                    -0.478295         71.0232
4.82                   -0.489194         69.4007
4.84                   -0.506568         67.8029
4.86                   -0.519859         66.2376
4.88                   -0.526109         64.6406
4.9                    -0.533986         62.9824
4.92                    -0.54917         61.3116
4.94                   -0.565645         59.6721
4.96                   -0.576063         58.0337
4.98                   -0.583485         56.3449
5                      -0.595835         54.6161
5.02                      -0.613         52.8987
5.04                   -0.627472         51.2011
5.06                     -0.6367         49.4772
5.08                   -0.646909         47.7027
5.1                    -0.662712         45.9127
5.12                   -0.679779         44.1428
5.14                   -0.692112         42.3714
5.16                   -0.701756         40.5566
5.18                   -0.715249         38.7036
5.2                    -0.732949         36.8554
5.22                    -0.74857          35.022
5.24                   -0.759463         33.1647
5.26                   -0.770844         31.2593
5.28                   -0.787208         29.3352
5.3                    -0.804989         27.4267
5.32                   -0.818365         25.5169
5.34                   -0.828761         23.5647
5.36                    -0.84255         21.5717
5.38                   -0.860615         19.5798
5.4                    -0.876784         17.6023
5.42                    -0.88784          15.601
5.44                   -0.898931         13.5474
5.46                   -0.915279         11.4699
5.48                   -0.933509          9.4079
5.5                    -0.946892         7.34629
5.52                   -0.956439           5.237
5.54                   -0.969633         3.07723
5.56                   -0.988267        0.915882
5.58                     -1.0051        -1.22625
5.6                     -1.01547        -3.39452
5.62                    -1.02542        -5.62973
5.64                    -1.04238        -7.89977
5.66                    -1.06271        -10.1492
5.68                    -1.07698        -12.3928
5.7                     -1.08559        -14.6991
5.72                    -1.09923          -17.08
5.74                    -1.12177        -19.4661
5.76                    -1.14288        -21.8188
5.78                    -1.15427        -24.2041
5.8                     -1.16457        -26.6946
5.82                    -1.18686        -29.2476
5.84                    -1.21673         -31.767
5.86                    -1.23748        -34.2684
5.88                    -1.24801        -36.8774
5.9                     -1.26808        -39.6332
5.92                    -1.30765        -42.4114
5.94                    -1.34799        -45.1247
5.96                     -1.3703        -47.9022
5.98                    -1.39174        -50.9211
6                       -1.44495        -54.1138
6.02                    -1.52529        -57.2527
6.04                    -1.59287        -60.3573
6.06                    -1.64326        -63.7779
6.08                    -1.73808        -67.6867
6.1                       -1.926        -71.7413
6.12                     -2.1657         -75.604
6.14                    -2.40348        -79.7251
6.16                    -2.75855        -84.9423
6.18                    -3.54025         -90.783
6.2                     -4.99842         -93.998
6.22                    -6.68934        -88.3774
6.24                    -6.71458        -74.7651
6.26                    -4.96232         -69.633
6.28                    -3.48563        -75.2118
6.3                     -2.96023        -84.6172
6.32                    -3.20788         -92.899
6.34                     -3.6988        -97.9411
6.36                    -3.94615        -101.573
6.38                    -4.08071        -106.956
6.4                      -4.5289        -113.784
6.42                    -5.28582        -119.513
6.44                    -5.87709        -124.505
6.46                    -6.30689        -134.287
6.48                    -7.60681        -153.809
6.5                     -11.2849         170.113
