! TOUCHSTONE file generated by CST MICROWAVE STUDIO
! Date and time: Sat Oct 29 19:51:17 2022
! Project name: L.cst
! Parameters = {Di=1.27; Epsilon_r=1.56; InnerDiameter=1.27; Length=2; Lf=10; Lg=60; OuterConductorThickness=0.2921; OuterDiameter=3.6; Wf=3; Wp=41.2; de=1.5; df=6.8; g=0.8; gx=4.43046; gy=2.2578; h=2.34; hf=1.524; px=11.5323; py=11.5778; w=9.7; wx=7.10184; wy=9.32001}
! Header version: 2018
! Port assignment regex: !\s*Touchstone port\s*([0-9]+)\s*=\s*(CST MWS port|CST DS port)\s*([0-9]+|Zmin|Zmax)\s*\(\"(.*)\"\)(\s*mode\s*([0-9]+))?.*
! Touchstone port assignment:
! Touchstone port 1 = CST MWS port 1 ("")
# GHz S DB R 50
4.5                    -0.461036         87.0959
4.52                    -0.46596         85.4528
4.54                   -0.473591         83.7798
4.56                   -0.483945         82.0796
4.58                   -0.496955         80.3547
4.6                    -0.512487          78.607
4.62                   -0.530355         76.8379
4.64                   -0.550342         75.0487
4.66                   -0.572207         73.2399
4.68                     -0.5957         71.4117
4.7                    -0.620571         69.5639
4.72                   -0.646578         67.6961
4.74                   -0.673497         65.8073
4.76                   -0.701122         63.8965
4.78                   -0.729277         61.9623
4.8                    -0.757811          60.003
4.82                   -0.786604         58.0171
4.84                   -0.815567         56.0026
4.86                   -0.844642         53.9579
4.88                   -0.873798         51.8809
4.9                    -0.903033         49.7699
4.92                   -0.932368         47.6229
4.94                   -0.961847         45.4383
4.96                    -0.99153         43.2143
4.98                    -1.02149         40.9494
5                       -1.05182         38.6421
5.02                     -1.0826         36.2911
5.04                    -1.11393         33.8953
5.06                     -1.1459         31.4534
5.08                    -1.17862         28.9647
5.1                     -1.21215         26.4284
5.12                    -1.24659         23.8437
5.14                    -1.28198         21.2102
5.16                     -1.3184         18.5274
5.18                    -1.35587         15.7952
5.2                     -1.39442         13.0133
5.22                    -1.43405         10.1819
5.24                    -1.47476          7.3008
5.26                     -1.5165         4.37047
5.28                    -1.55924         1.39104
5.3                      -1.6029        -1.63698
5.32                    -1.64741        -4.71304
5.34                    -1.69267        -7.83647
5.36                    -1.73856        -11.0065
5.38                    -1.78496        -14.2221
5.4                     -1.83172        -17.4824
5.42                     -1.8787        -20.7862
5.44                    -1.92572        -24.1321
5.46                    -1.97264        -27.5187
5.48                    -2.01927        -30.9444
5.5                     -2.06543        -34.4075
5.52                    -2.11097         -37.906
5.54                    -2.15569        -41.4381
5.56                    -2.19944        -45.0015
5.58                    -2.24206        -48.5939
5.6                     -2.28339         -52.213
5.62                    -2.32332         -55.856
5.64                     -2.3617        -59.5205
5.66                    -2.39845        -63.2035
5.68                    -2.43348        -66.9022
5.7                     -2.46672        -70.6138
5.72                    -2.49814        -74.3351
5.74                    -2.52772        -78.0633
5.76                    -2.55546        -81.7951
5.78                    -2.58138        -85.5277
5.8                     -2.60553        -89.2579
5.82                    -2.62798        -92.9829
5.84                    -2.64882        -96.6996
5.86                    -2.66815        -100.405
5.88                    -2.68608        -104.097
5.9                     -2.70275        -107.773
5.92                    -2.71829        -111.429
5.94                    -2.73285        -115.065
5.96                    -2.74658        -118.677
5.98                    -2.75963        -122.263
6                       -2.77215        -125.822
6.02                    -2.78428        -129.353
6.04                    -2.79616        -132.852
6.06                    -2.80791         -136.32
6.08                    -2.81965        -139.755
6.1                     -2.83149        -143.157
6.12                    -2.84351        -146.524
6.14                    -2.85579        -149.857
6.16                     -2.8684        -153.154
6.18                    -2.88138        -156.417
6.2                     -2.89477        -159.646
6.22                     -2.9086         -162.84
6.24                     -2.9229        -166.002
6.26                    -2.93768        -169.132
6.28                    -2.95297        -172.231
6.3                     -2.96878        -175.301
6.32                    -2.98517        -178.345
6.34                    -3.00217         178.637
6.36                    -3.01988         175.641
6.38                    -3.03839         172.666
6.4                     -3.05784         169.708
6.42                    -3.07842         166.766
6.44                    -3.10034         163.835
6.46                     -3.1239         160.914
6.48                    -3.14941         157.999
6.5                     -3.17728         155.089
