! TOUCHSTONE file generated by CST MICROWAVE STUDIO
! Date and time: Thu Oct 27 15:12:54 2022
! Project name: L.cst
! Parameters = {Di=1.27; Epsilon_r=1.56; InnerDiameter=1.27; Length=2; Lf=10; Lg=60; OuterConductorThickness=0.2921; OuterDiameter=3.6; Wf=3; Wp=41.2; de=1.5; df=6.8; g=0.8; gx=2.29912; gy=1.43189; h=2.34; hf=1.524; px=9.22263; py=10.8171; w=9.7; wx=6.92351; wy=9.38523}
! Header version: 2018
! Port assignment regex: !\s*Touchstone port\s*([0-9]+)\s*=\s*(CST MWS port|CST DS port)\s*([0-9]+|Zmin|Zmax)\s*\(\"(.*)\"\)(\s*mode\s*([0-9]+))?.*
! Touchstone port assignment:
! Touchstone port 1 = CST MWS port 1 ("")
# GHz S DB R 50
4.5                    -0.599053         74.9574
4.52                   -0.607442         73.2771
4.54                   -0.617265         71.5588
4.56                   -0.628867         69.8043
4.58                   -0.642495         68.0157
4.6                    -0.658296         66.1948
4.62                   -0.676339         64.3435
4.64                   -0.696615         62.4634
4.66                   -0.719061         60.5558
4.68                   -0.743563         58.6218
4.7                    -0.769969          56.662
4.72                   -0.798105          54.677
4.74                   -0.827778         52.6666
4.76                   -0.858793         50.6308
4.78                   -0.890953         48.5688
4.8                    -0.924071         46.4798
4.82                   -0.957975         44.3628
4.84                   -0.992509         42.2164
4.86                    -1.02754         40.0393
4.88                    -1.06296         37.8299
4.9                     -1.09869         35.5864
4.92                    -1.13466         33.3073
4.94                    -1.17085         30.9908
4.96                    -1.20724         28.6352
4.98                    -1.24383         26.2389
5                       -1.28066         23.8004
5.02                    -1.31777         21.3182
5.04                     -1.3552          18.791
5.06                    -1.39301         16.2177
5.08                    -1.43128         13.5972
5.1                     -1.47005         10.9287
5.12                     -1.5094         8.21161
5.14                    -1.54938         5.44532
5.16                    -1.59004         2.62956
5.18                     -1.6314       -0.235783
5.2                      -1.6735        -3.15067
5.22                    -1.71636        -6.11487
5.24                    -1.75995        -9.12796
5.26                    -1.80427        -12.1893
5.28                    -1.84927        -15.2982
5.3                      -1.8949        -18.4537
5.32                     -1.9411        -21.6547
5.34                    -1.98778           -24.9
5.36                    -2.03483        -28.1879
5.38                    -2.08215         -31.517
5.4                     -2.12961        -34.8855
5.42                    -2.17708        -38.2913
5.44                    -2.22443        -41.7325
5.46                    -2.27149        -45.2067
5.48                    -2.31813        -48.7116
5.5                     -2.36418        -52.2446
5.52                    -2.40951        -55.8032
5.54                    -2.45397        -59.3844
5.56                    -2.49741        -62.9854
5.58                    -2.53971        -66.6034
5.6                     -2.58073        -70.2352
5.62                    -2.62037        -73.8778
5.64                    -2.65853        -77.5281
5.66                    -2.69513         -81.183
5.68                    -2.73009        -84.8394
5.7                     -2.76336        -88.4942
5.72                     -2.7949        -92.1446
5.74                    -2.82468        -95.7876
5.76                    -2.85271        -99.4204
5.78                    -2.87898        -103.041
5.8                     -2.90352        -106.645
5.82                    -2.92637        -110.233
5.84                    -2.94757        -113.801
5.86                    -2.96721        -117.348
5.88                    -2.98535        -120.872
5.9                     -3.00209        -124.372
5.92                    -3.01754        -127.847
5.94                    -3.03182        -131.295
5.96                    -3.04509        -134.717
5.98                     -3.0575        -138.113
6                       -3.06923        -141.482
6.02                    -3.08049        -144.824
6.04                    -3.09152         -148.14
6.06                    -3.10257        -151.431
6.08                    -3.11394        -154.698
6.1                     -3.12596        -157.941
6.12                      -3.139        -161.162
6.14                    -3.15348        -164.361
6.16                    -3.16986         -167.54
6.18                    -3.18863          -170.7
6.2                     -3.21037        -173.841
6.22                    -3.23568        -176.965
6.24                    -3.26521         179.929
6.26                    -3.29968         176.841
6.28                    -3.33986         173.771
6.3                     -3.38653         170.722
6.32                    -3.44054         167.694
6.34                    -3.50276         164.692
6.36                    -3.57408         161.719
6.38                    -3.65537         158.781
6.4                     -3.74749         155.884
6.42                    -3.85124         153.039
6.44                    -3.96732         150.254
6.46                    -4.09628         147.543
6.48                    -4.23844         144.922
6.5                     -4.39376         142.407
