! TOUCHSTONE file generated by CST MICROWAVE STUDIO
! Date and time: Sat Oct 29 09:43:00 2022
! Project name: L.cst
! Parameters = {Di=1.27; Epsilon_r=1.56; InnerDiameter=1.27; Length=2; Lf=10; Lg=60; OuterConductorThickness=0.2921; OuterDiameter=3.6; Wf=3; Wp=41.2; de=1.5; df=6.8; g=0.8; gx=2.49553; gy=1.94922; h=2.34; hf=1.524; px=14.0047; py=14.1511; w=9.7; wx=11.5092; wy=12.2019}
! Header version: 2018
! Port assignment regex: !\s*Touchstone port\s*([0-9]+)\s*=\s*(CST MWS port|CST DS port)\s*([0-9]+|Zmin|Zmax)\s*\(\"(.*)\"\)(\s*mode\s*([0-9]+))?.*
! Touchstone port assignment:
! Touchstone port 1 = CST MWS port 1 ("")
# GHz S DB R 50
4.5                     -3.26754         55.3208
4.52                    -3.49012         52.6866
4.54                    -3.75106         50.0842
4.56                    -4.05003         47.3142
4.58                    -4.35902         44.3617
4.6                     -4.67382         41.4016
4.62                    -5.02209         38.5031
4.64                     -5.4193         35.5152
4.66                    -5.84948         32.3223
4.68                    -6.29674         29.0335
4.7                      -6.7772         25.7786
4.72                    -7.31855         22.4865
4.74                    -7.91928          18.996
4.76                    -8.56057         15.3017
4.78                    -9.24896         11.5538
4.8                     -10.0172         7.76368
4.82                    -10.8861         3.72183
4.84                    -11.8456       -0.713432
4.86                    -12.8938        -5.47772
4.88                    -14.0771        -10.5579
4.9                     -15.4544        -16.3011
4.92                    -17.0448        -23.3346
4.94                    -18.8486        -32.2525
4.96                    -20.9019        -43.9666
4.98                    -23.1695        -60.9614
5                       -25.0212        -86.7876
5.02                    -25.1238        -117.908
5.04                    -23.6002        -143.312
5.06                    -21.6527        -160.771
5.08                    -19.8055        -172.806
5.1                     -18.2031         178.607
5.12                    -16.8773         172.019
5.14                    -15.7756         166.481
5.16                    -14.8242         161.609
5.18                    -13.9906         157.374
5.2                     -13.2724         153.694
5.22                     -12.658         150.351
5.24                    -12.1142         147.229
5.26                    -11.6121         144.386
5.28                    -11.1481         141.875
5.3                     -10.7225         139.618
5.32                    -10.3164          137.48
5.34                    -9.90454         135.417
5.36                    -9.47684         133.451
5.38                    -9.03883         131.503
5.4                     -8.59381         129.392
5.42                    -8.13441         126.986
5.44                    -7.66266         124.253
5.46                     -7.2003         121.203
5.48                    -6.76999         117.792
5.5                     -6.37927         113.991
5.52                    -6.02235         109.886
5.54                    -5.69546         105.594
5.56                    -5.39743         101.118
5.58                    -5.11313         96.3168
5.6                     -4.81763         90.9798
5.62                    -4.49961          84.859
5.64                    -4.17359         77.5148
5.66                    -3.87392         68.1708
5.68                    -3.66165         55.6527
5.7                     -3.69562         38.1161
5.72                    -4.39413         12.3238
5.74                    -6.56847        -27.4085
5.76                    -10.0139        -91.3062
5.78                     -9.6185        -165.838
5.8                     -7.06794         148.974
5.82                    -5.30941         120.261
5.84                    -4.39644         96.1431
5.86                    -4.69383         71.5234
5.88                    -7.03646         51.9037
5.9                     -9.70601          48.247
5.92                    -11.5358         47.6434
5.94                    -13.9216         52.5159
5.96                    -14.5868         61.5987
5.98                     -15.539         63.3238
6                       -18.3947         73.6406
6.02                    -18.8463         121.004
6.04                    -12.3067         139.609
6.06                    -7.47718         127.356
6.08                    -4.50685         105.305
6.1                     -2.89512         77.2805
6.12                    -2.52928         36.4275
6.14                    -4.05617        -41.0584
6.16                    -4.82735        -148.311
6.18                    -3.67192         152.975
6.2                     -3.15937         125.275
6.22                     -3.3048         110.813
6.24                    -3.37359         110.074
6.26                   -0.477197         99.6108
6.28                   -0.364068         82.4494
6.3                    -0.665262          72.557
6.32                   -0.991323         62.8449
6.34                     -1.2607         45.8598
6.36                     -3.8461         72.7929
6.38                    -1.33729         55.2164
6.4                     -0.98609         49.6785
6.42                    -1.08767         45.5503
6.44                    -1.28563          40.235
6.46                    -1.26825         34.4492
6.48                    -1.11034         30.0393
6.5                     -1.08739         26.7953
