! TOUCHSTONE file generated by CST MICROWAVE STUDIO
! Date and time: Thu Oct 27 04:27:25 2022
! Project name: L.cst
! Parameters = {Di=1.27; Epsilon_r=1.56; InnerDiameter=1.27; Length=2; Lf=10; Lg=60; OuterConductorThickness=0.2921; OuterDiameter=3.6; Wf=3; Wp=41.2; de=1.5; df=6.8; g=0.8; gx=1.21217; gy=2.73915; h=2.34; hf=1.524; px=8.47776; py=11.9877; w=9.7; wx=7.26559; wy=9.24857}
! Header version: 2018
! Port assignment regex: !\s*Touchstone port\s*([0-9]+)\s*=\s*(CST MWS port|CST DS port)\s*([0-9]+|Zmin|Zmax)\s*\(\"(.*)\"\)(\s*mode\s*([0-9]+))?.*
! Touchstone port assignment:
! Touchstone port 1 = CST MWS port 1 ("")
# GHz S DB R 50
4.5                    -0.538613         83.1217
4.52                    -0.55645         81.6077
4.54                   -0.574771         80.0808
4.56                    -0.59358         78.5408
4.58                   -0.612884         76.9874
4.6                    -0.632691         75.4203
4.62                   -0.653012         73.8392
4.64                   -0.673855         72.2438
4.66                   -0.695235         70.6339
4.68                   -0.717164         69.0092
4.7                    -0.739659         67.3694
4.72                   -0.762732         65.7142
4.74                   -0.786402         64.0433
4.76                   -0.810686         62.3566
4.78                   -0.835604         60.6537
4.8                    -0.861171         58.9344
4.82                   -0.887407         57.1984
4.84                   -0.914333         55.4455
4.86                   -0.941968         53.6756
4.88                   -0.970331         51.8884
4.9                    -0.999439         50.0836
4.92                    -1.02931         48.2612
4.94                    -1.05997          46.421
4.96                    -1.09144         44.5627
4.98                    -1.12372         42.6863
5                       -1.15684         40.7916
5.02                    -1.19081         38.8786
5.04                    -1.22566          36.947
5.06                    -1.26138         34.9968
5.08                      -1.298          33.028
5.1                     -1.33553         31.0404
5.12                    -1.37398         29.0342
5.14                    -1.41336         27.0091
5.16                    -1.45367         24.9653
5.18                    -1.49493         22.9027
5.2                     -1.53714         20.8214
5.22                     -1.5803         18.7213
5.24                    -1.62441         16.6028
5.26                    -1.66948         14.4657
5.28                    -1.71551         12.3103
5.3                     -1.76248         10.1365
5.32                    -1.81041         7.94473
5.34                    -1.85928         5.73504
5.36                    -1.90909         3.50766
5.38                    -1.95982         1.26283
5.4                     -2.01148       -0.999168
5.42                    -2.06403        -3.27806
5.44                    -2.11748        -5.57352
5.46                     -2.1718        -7.88521
5.48                    -2.22697        -10.2127
5.5                     -2.28299        -12.5557
5.52                    -2.33981        -14.9137
5.54                    -2.39744        -17.2862
5.56                    -2.45582        -19.6728
5.58                    -2.51495        -22.0729
5.6                     -2.57479        -24.4859
5.62                     -2.6353        -26.9114
5.64                    -2.69645        -29.3486
5.66                    -2.75822         -31.797
5.68                    -2.82055        -34.2559
5.7                      -2.8834        -36.7246
5.72                    -2.94672        -39.2024
5.74                    -3.01048        -41.6886
5.76                    -3.07461        -44.1825
5.78                    -3.13907        -46.6834
5.8                     -3.20378        -49.1906
5.82                    -3.26868        -51.7032
5.84                    -3.33372        -54.2207
5.86                     -3.3988        -56.7423
5.88                    -3.46386        -59.2674
5.9                     -3.52881        -61.7954
5.92                    -3.59357        -64.3256
5.94                    -3.65804        -66.8577
5.96                    -3.72212        -69.3912
5.98                    -3.78573        -71.9257
6                       -3.84876         -74.461
6.02                    -3.91111        -76.9972
6.04                    -3.97267        -79.5341
6.06                    -4.03333        -82.0721
6.08                    -4.09302        -84.6114
6.1                     -4.15162        -87.1528
6.12                    -4.20906        -89.6969
6.14                    -4.26526        -92.2449
6.16                    -4.32017         -94.798
6.18                    -4.37375        -97.3577
6.2                       -4.426        -99.9259
6.22                    -4.47693        -102.505
6.24                    -4.52661        -105.096
6.26                    -4.57513        -107.704
6.28                    -4.62264         -110.33
6.3                     -4.66936        -112.978
6.32                    -4.71556        -115.651
6.34                    -4.76159        -118.354
6.36                    -4.80787         -121.09
6.38                    -4.85492        -123.864
6.4                     -4.90335         -126.68
6.42                    -4.95389        -129.543
6.44                    -5.00737        -132.458
6.46                    -5.06475        -135.431
6.48                    -5.12712        -138.465
6.5                     -5.19574        -141.567
