! TOUCHSTONE file generated by CST MICROWAVE STUDIO
! Date and time: Fri Oct 28 18:11:40 2022
! Project name: L.cst
! Parameters = {Di=1.27; Epsilon_r=1.56; InnerDiameter=1.27; Length=2; Lf=10; Lg=60; OuterConductorThickness=0.2921; OuterDiameter=3.6; Wf=3; Wp=41.2; de=1.5; df=6.8; g=0.8; gx=0.589881; gy=4.21788; h=2.34; hf=1.524; px=9.0667; py=14.9019; w=9.7; wx=8.47682; wy=10.684}
! Header version: 2018
! Port assignment regex: !\s*Touchstone port\s*([0-9]+)\s*=\s*(CST MWS port|CST DS port)\s*([0-9]+|Zmin|Zmax)\s*\(\"(.*)\"\)(\s*mode\s*([0-9]+))?.*
! Touchstone port assignment:
! Touchstone port 1 = CST MWS port 1 ("")
# GHz S DB R 50
4.5                    -0.768105         89.3736
4.52                   -0.791158         87.7741
4.54                   -0.837727         86.2171
4.56                   -0.878494         84.7875
4.58                   -0.900746         83.3067
4.6                    -0.929435          81.692
4.62                   -0.976941         80.0942
4.64                    -1.02228         78.5936
4.66                     -1.0535         77.0619
4.68                    -1.08858         75.4215
4.7                     -1.13914         73.7813
4.72                    -1.19001         72.2164
4.74                    -1.23004         70.6334
4.76                    -1.27243         68.9603
4.78                    -1.32801         67.2769
4.8                     -1.38564         65.6534
4.82                    -1.43494         64.0212
4.84                    -1.48567         62.3128
4.86                    -1.54803         60.5876
4.88                    -1.61376          58.912
4.9                     -1.67305         57.2352
4.92                    -1.73316         55.4928
4.94                    -1.80389         53.7295
4.96                    -1.87914         52.0091
4.98                    -1.94944         50.2948
5                        -2.0201         48.5245
5.02                    -2.10062         46.7308
5.04                    -2.18666         44.9763
5.06                    -2.26894         43.2354
5.08                    -2.35117         41.4472
5.1                     -2.44273          39.635
5.12                    -2.54065         37.8612
5.14                    -2.63562         36.1093
5.16                    -2.73003         34.3186
5.18                    -2.83333         32.5042
5.2                     -2.94374         30.7301
5.22                    -3.05162          28.988
5.24                    -3.15813         27.2155
5.26                    -3.27302           25.42
5.28                    -3.39565         23.6688
5.3                     -3.51576         21.9621
5.32                     -3.6331         20.2336
5.34                    -3.75804         18.4821
5.36                    -3.89113         16.7799
5.38                    -4.02118         15.1363
5.4                      -4.1464         13.4789
5.42                    -4.27798         11.7963
5.44                    -4.41789         10.1681
5.46                    -4.55354         8.61337
5.48                    -4.68129         7.04971
5.5                     -4.81375         5.45303
5.52                     -4.9547         3.91268
5.54                    -5.08958         2.46041
5.56                    -5.21239         0.99845
5.58                      -5.338       -0.515426
5.6                     -5.47291        -1.97731
5.62                    -5.59988         -3.3378
5.64                    -5.70973        -4.71672
5.66                    -5.82081        -6.18243
5.68                    -5.94392        -7.60938
5.7                      -6.0582        -8.92074
5.72                    -6.14995        -10.2672
5.74                    -6.24304        -11.7548
5.76                    -6.35518        -13.2221
5.78                    -6.46009        -14.5442
5.8                     -6.53658        -15.9159
5.82                    -6.61729         -17.503
5.84                    -6.73199        -19.0791
5.86                    -6.84502        -20.4224
5.88                    -6.91982        -21.7941
5.9                     -7.00363        -23.4674
5.92                    -7.14906        -25.0762
5.94                    -7.29737        -26.1649
5.96                    -7.36883        -27.1159
5.98                    -7.43412        -28.4347
6                        -7.5774        -29.3141
6.02                    -7.58843        -28.6916
6.04                    -7.13142        -28.3359
6.06                      -6.397         -31.723
6.08                    -5.96019        -39.2418
6.1                      -6.1702        -48.3676
6.12                    -7.00566        -55.9942
6.14                    -8.11361        -60.1038
6.16                    -9.05143        -61.5653
6.18                    -9.80137         -63.076
6.2                     -10.6915        -65.1145
6.22                    -11.8368        -65.9953
6.24                    -13.0891        -64.7663
6.26                    -14.3954        -61.5888
6.28                    -15.7975        -55.2971
6.3                     -16.9488         -43.841
6.32                    -17.1837        -28.6604
6.34                    -16.2854        -14.8313
6.36                    -14.7471        -6.91495
6.38                    -13.4867        -4.80806
6.4                     -12.9771        -2.58267
6.42                    -12.3224         6.27615
6.44                    -10.0294         14.4833
6.46                     -7.2691         11.2007
6.48                    -5.46043        0.437169
6.5                     -4.81508        -11.2283
