! TOUCHSTONE file generated by CST MICROWAVE STUDIO
! Date and time: Sat Oct 29 22:08:22 2022
! Project name: L.cst
! Parameters = {Di=1.27; Epsilon_r=1.56; InnerDiameter=1.27; Length=2; Lf=10; Lg=60; OuterConductorThickness=0.2921; OuterDiameter=3.6; Wf=3; Wp=41.2; de=1.5; df=6.8; g=0.8; gx=4.11667; gy=2.88441; h=2.34; hf=1.524; px=14.4556; py=9.52036; w=9.7; wx=10.3389; wy=6.63594}
! Header version: 2018
! Port assignment regex: !\s*Touchstone port\s*([0-9]+)\s*=\s*(CST MWS port|CST DS port)\s*([0-9]+|Zmin|Zmax)\s*\(\"(.*)\"\)(\s*mode\s*([0-9]+))?.*
! Touchstone port assignment:
! Touchstone port 1 = CST MWS port 1 ("")
# GHz S DB R 50
4.5                    -0.845085         84.3368
4.52                   -0.879003          82.472
4.54                   -0.922159         80.5643
4.56                   -0.973335         78.6525
4.58                     -1.0276         76.7537
4.6                     -1.08008         74.8545
4.62                    -1.12921         72.9231
4.64                     -1.1774          70.932
4.66                    -1.22903         68.8749
4.68                    -1.28739         66.7674
4.7                     -1.35278         64.6335
4.72                    -1.42276         62.4885
4.74                    -1.49409         60.3294
4.76                    -1.56507         58.1379
4.78                    -1.63657         55.8936
4.8                      -1.7113         53.5869
4.82                    -1.79195         51.2235
4.84                    -1.87954         48.8187
4.86                    -1.97301          46.386
4.88                    -2.07016         43.9276
4.9                      -2.1693         41.4335
4.92                     -2.2704         38.8881
4.94                    -2.37512         36.2804
4.96                    -2.48569         33.6104
4.98                    -2.60349         30.8875
5                        -2.7283         28.1238
5.02                    -2.85861         25.3251
5.04                    -2.99269         22.4872
5.06                    -3.12987         19.5982
5.08                    -3.27094         16.6464
5.1                     -3.41763         13.6275
5.12                    -3.57152         10.5468
5.14                    -3.73296         7.41502
5.16                    -3.90088         4.24113
5.18                    -4.07347         1.02587
5.2                      -4.2493        -2.23887
5.22                    -4.42825        -5.56502
5.24                    -4.61142        -8.96063
5.26                    -4.80037        -12.4245
5.28                    -4.99589        -15.9473
5.3                     -5.19729        -19.5169
5.32                     -5.4026        -23.1266
5.34                    -5.60953        -26.7795
5.36                    -5.81674        -30.4865
5.38                    -6.02442        -34.2591
5.4                     -6.23389         -38.101
5.42                    -6.44641        -42.0045
5.44                    -6.66192        -45.9543
5.46                    -6.87852        -49.9352
5.48                    -7.09316        -53.9416
5.5                     -7.30305        -57.9803
5.52                    -7.50711        -62.0649
5.54                    -7.70628        -66.2053
5.56                    -7.90265        -70.3986
5.58                    -8.09762        -74.6266
5.6                     -8.29045        -78.8642
5.62                     -8.4781        -83.0921
5.64                     -8.6566        -87.3076
5.66                    -8.82335        -91.5248
5.68                     -8.9788        -95.7641
5.7                     -9.12638        -100.035
5.72                    -9.27044        -104.325
5.74                    -9.41346        -108.603
5.76                     -9.5542         -112.83
5.78                    -9.68825        -116.989
5.8                     -9.81096        -121.091
5.82                     -9.9212        -125.173
5.84                    -10.0235        -129.271
5.86                    -10.1265        -133.396
5.88                    -10.2389        -137.513
5.9                     -10.3645        -141.563
5.92                    -10.4996        -145.485
5.94                    -10.6359        -149.262
5.96                    -10.7666        -152.935
5.98                    -10.8934        -156.577
6                        -11.029        -160.238
6.02                    -11.1918        -163.892
6.04                    -11.3952        -167.414
6.06                    -11.6368        -170.631
6.08                    -11.8943        -173.407
6.1                     -12.1348         -175.75
6.12                    -12.3358        -177.841
6.14                    -12.5071        -179.903
6.16                    -12.6918         177.894
6.18                    -12.9385         175.851
6.2                     -13.2554         174.497
6.22                    -13.5636         174.452
6.24                    -13.6861         175.809
6.26                    -13.4485         177.485
6.28                    -12.8619         177.601
6.3                     -12.1463         174.897
6.32                    -11.5627         169.353
6.34                    -11.3017         161.696
6.36                    -11.4853         152.897
6.38                    -12.2028         144.059
6.4                     -13.5315         136.643
6.42                    -15.5021         133.039
6.44                    -17.8542         137.324
6.46                    -19.3849         152.155
6.48                    -18.8991         167.758
6.5                     -17.6113          174.57
