! TOUCHSTONE file generated by CST MICROWAVE STUDIO
! Date and time: Wed Oct 26 22:00:15 2022
! Project name: L.cst
! Parameters = {Di=1.27; Epsilon_r=1.56; InnerDiameter=1.27; Length=2; Lf=10; Lg=60; OuterConductorThickness=0.2921; OuterDiameter=3.6; Wf=3; Wp=41.2; de=1.5; df=6.8; g=0.8; gx=3.55904; gy=0.575534; h=2.34; hf=1.524; px=8.72999; py=12.7709; w=9.7; wx=5.17095; wy=12.1954}
! Header version: 2018
! Port assignment regex: !\s*Touchstone port\s*([0-9]+)\s*=\s*(CST MWS port|CST DS port)\s*([0-9]+|Zmin|Zmax)\s*\(\"(.*)\"\)(\s*mode\s*([0-9]+))?.*
! Touchstone port assignment:
! Touchstone port 1 = CST MWS port 1 ("")
# GHz S DB R 50
4.5                    -0.628095         68.1304
4.52                   -0.607087         66.1302
4.54                    -0.66769          64.109
4.56                   -0.680197         62.4347
4.58                   -0.678995         60.2639
4.6                     -0.73749         58.2487
4.62                    -0.74012         56.3637
4.64                   -0.756791         54.0586
4.66                   -0.808031           51.99
4.68                   -0.807612         49.8709
4.7                    -0.837883         47.4419
4.72                   -0.879576         45.2541
4.74                    -0.88084         42.8842
4.76                   -0.919375         40.3178
4.78                   -0.950534         37.9412
4.8                    -0.955289          35.297
4.82                    -0.99606         32.5489
4.84                    -1.01604          29.902
4.86                    -1.02323         26.9366
4.88                    -1.05958         23.9216
4.9                     -1.06712         20.8902
4.92                    -1.07364         17.5021
4.94                    -1.10024         14.0644
4.96                    -1.09608         10.4653
4.98                    -1.10174         6.45945
5                       -1.12107         2.33876
5.02                    -1.11609        -2.11472
5.04                    -1.13479        -7.05364
5.06                    -1.16955        -12.2295
5.08                    -1.19716        -17.9248
5.1                      -1.2696        -24.2188
5.12                    -1.37396        -30.9167
5.14                    -1.50153         -38.346
5.16                    -1.71091        -46.5513
5.18                    -1.99406        -55.3826
5.2                     -2.36099        -65.1993
5.22                    -2.89128        -76.0141
5.24                    -3.59654        -87.6123
5.26                    -4.50699        -100.296
5.28                    -5.73665        -113.971
5.3                     -7.31582        -128.156
5.32                    -9.26979        -143.192
5.34                    -11.7945        -159.344
5.36                    -15.0595        -176.376
5.38                    -19.2981          162.98
5.4                     -25.4637         126.892
5.42                    -29.0429         42.2239
5.44                    -23.8983        -9.75884
5.46                     -20.105        -33.6536
5.48                    -17.6658        -53.0401
5.5                     -16.0676        -69.6257
5.52                    -14.6555        -84.4718
5.54                    -13.3851        -99.9304
5.56                    -12.3874        -114.742
5.58                    -11.3579        -128.239
5.6                     -10.3017         -142.23
5.62                    -9.44729        -155.808
5.64                    -8.57446        -168.056
5.66                    -7.66906         179.178
5.68                    -7.00126         166.528
5.7                     -6.35969         155.111
5.72                    -5.70888         142.698
5.74                     -5.4313         129.783
5.76                    -5.32212         117.904
5.78                    -5.51893         103.201
5.8                     -7.65573         87.8956
5.82                    -12.2236         104.555
5.84                    -7.54498          135.07
5.86                    -3.50678         120.652
5.88                    -2.18156         102.675
5.9                     -1.76846         90.0327
5.92                    -1.33635         79.3928
5.94                    -1.13707         68.7717
5.96                    -1.07911         60.0175
5.98                   -0.903334         51.6412
6                      -0.852169         42.8906
6.02                   -0.864431         35.2298
6.04                    -0.77285         27.4949
6.06                   -0.787938         19.2976
6.08                   -0.836265         11.8746
6.1                    -0.787699         4.07708
6.12                   -0.845614        -4.32499
6.14                    -0.92094         -12.187
6.16                   -0.890537        -20.8327
6.18                    -0.99892        -30.6461
6.2                     -1.21897        -40.1119
6.22                    -1.33506         -49.848
6.24                    -1.40877        -61.0192
6.26                    -1.46756        -73.8277
6.28                    -1.52356        -89.2375
6.3                     -1.67663         -107.65
6.32                    -1.81973        -129.335
6.34                    -1.84181        -156.024
6.36                    -1.82726         171.806
6.38                    -1.75844         136.655
6.4                     -1.54649         101.903
6.42                    -1.30393         69.9083
6.44                    -1.22114         42.2581
6.46                    -1.22767         19.5593
6.48                    -1.16614       0.0823187
6.5                     -1.18084         -17.856
