! TOUCHSTONE file generated by CST MICROWAVE STUDIO
! Date and time: Thu Oct 27 17:18:55 2022
! Project name: L.cst
! Parameters = {Di=1.27; Epsilon_r=1.56; InnerDiameter=1.27; Length=2; Lf=10; Lg=60; OuterConductorThickness=0.2921; OuterDiameter=3.6; Wf=3; Wp=41.2; de=1.5; df=6.8; g=0.8; gx=4.58761; gy=3.2916; h=2.34; hf=1.524; px=14.7487; py=8.41443; w=9.7; wx=10.1611; wy=5.12283}
! Header version: 2018
! Port assignment regex: !\s*Touchstone port\s*([0-9]+)\s*=\s*(CST MWS port|CST DS port)\s*([0-9]+|Zmin|Zmax)\s*\(\"(.*)\"\)(\s*mode\s*([0-9]+))?.*
! Touchstone port assignment:
! Touchstone port 1 = CST MWS port 1 ("")
# GHz S DB R 50
4.5                    -0.657811         89.4864
4.52                   -0.683465         87.8182
4.54                   -0.708513         86.1145
4.56                   -0.734275         84.3721
4.58                   -0.762003         82.5921
4.6                    -0.792616         80.7785
4.62                   -0.826543         78.9374
4.64                   -0.863717         77.0744
4.66                    -0.90366         75.1937
4.68                   -0.945673         73.2971
4.7                    -0.989034         71.3835
4.72                    -1.03318         69.4498
4.74                    -1.07785         67.4912
4.76                    -1.12309          65.503
4.78                    -1.16929         63.4808
4.8                       -1.217         61.4218
4.82                    -1.26685         59.3251
4.84                     -1.3194         57.1915
4.86                    -1.37504         55.0229
4.88                    -1.43394         52.8218
4.9                     -1.49605         50.5905
4.92                    -1.56112         48.3305
4.94                    -1.62885         46.0419
4.96                    -1.69892         43.7236
4.98                    -1.77112         41.3734
5                        -1.8454         38.9887
5.02                    -1.92188         36.5667
5.04                    -2.00082          34.105
5.06                    -2.08262         31.6022
5.08                    -2.16766         29.0582
5.1                     -2.25629         26.4736
5.12                    -2.34874           23.85
5.14                    -2.44509         21.1892
5.16                    -2.54526          18.493
5.18                    -2.64906         15.7627
5.2                     -2.75622         12.9988
5.22                    -2.86645         10.2007
5.24                    -2.97953         7.36727
5.26                    -3.09535         4.49699
5.28                    -3.21393         1.58803
5.3                     -3.33539        -1.36081
5.32                    -3.45994        -4.34999
5.34                    -3.58783        -7.37902
5.36                    -3.71923        -10.4464
5.38                    -3.85423        -13.5496
5.4                     -3.99276         -16.686
5.42                    -4.13458        -19.8525
5.44                    -4.27931        -23.0466
5.46                    -4.42645        -26.2667
5.48                    -4.57548        -29.5118
5.5                     -4.72592        -32.7821
5.52                     -4.8774        -36.0785
5.54                    -5.02969        -39.4019
5.56                    -5.18276        -42.7532
5.58                    -5.33671        -46.1322
5.6                     -5.49173        -49.5376
5.62                      -5.648        -52.9666
5.64                    -5.80561        -56.4152
5.66                    -5.96449        -59.8781
5.68                    -6.12431          -63.35
5.7                     -6.28454        -66.8258
5.72                    -6.44445        -70.3019
5.74                    -6.60325        -73.7759
5.76                    -6.76019         -77.248
5.78                    -6.91476        -80.7199
5.8                     -7.06677        -84.1946
5.82                    -7.21646        -87.6753
5.84                     -7.3645         -91.164
5.86                    -7.51189        -94.6606
5.88                    -7.65981        -98.1619
5.9                     -7.80938        -101.662
5.92                    -7.96145         -105.15
5.94                    -8.11634        -108.615
5.96                    -8.27377        -112.047
5.98                    -8.43286        -115.435
6                       -8.59228        -118.775
6.02                    -8.75059        -122.068
6.04                    -8.90672        -125.319
6.06                    -9.06045        -128.542
6.08                    -9.21282        -131.751
6.1                     -9.36638        -134.957
6.12                    -9.52506        -138.165
6.14                    -9.69369        -141.368
6.16                    -9.87717        -144.543
6.18                    -10.0793        -147.648
6.2                     -10.3013        -150.626
6.22                    -10.5406        -153.408
6.24                    -10.7892        -155.925
6.26                    -11.0329        -158.127
6.28                     -11.252        -160.004
6.3                      -11.424        -161.612
6.32                    -11.5289        -163.087
6.34                    -11.5564        -164.638
6.36                     -11.511        -166.509
6.38                    -11.4137        -168.923
6.4                     -11.2978         -172.04
6.42                    -11.2029        -175.933
6.44                    -11.1694         179.404
6.46                    -11.2356         174.036
6.48                    -11.4375         168.069
6.5                     -11.8107         161.641
