! TOUCHSTONE file generated by CST MICROWAVE STUDIO
! Date and time: Sat Oct 29 15:55:34 2022
! Project name: L.cst
! Parameters = {Di=1.27; Epsilon_r=1.56; InnerDiameter=1.27; Length=2; Lf=10; Lg=60; OuterConductorThickness=0.2921; OuterDiameter=3.6; Wf=3; Wp=41.2; de=1.5; df=6.8; g=0.8; gx=2.91208; gy=4.71252; h=2.34; hf=1.524; px=11.8811; py=9.46617; w=9.7; wx=8.96901; wy=4.75365}
! Header version: 2018
! Port assignment regex: !\s*Touchstone port\s*([0-9]+)\s*=\s*(CST MWS port|CST DS port)\s*([0-9]+|Zmin|Zmax)\s*\(\"(.*)\"\)(\s*mode\s*([0-9]+))?.*
! Touchstone port assignment:
! Touchstone port 1 = CST MWS port 1 ("")
# GHz S DB R 50
4.5                    -0.424078         95.2972
4.52                   -0.437204         93.8153
4.54                   -0.450798         92.3216
4.56                   -0.464869         90.8162
4.58                   -0.479418          89.299
4.6                    -0.494447           87.77
4.62                   -0.509951         86.2291
4.64                   -0.525929         84.6764
4.66                   -0.542374         83.1116
4.68                   -0.559283         81.5347
4.7                    -0.576649         79.9456
4.72                   -0.594471         78.3441
4.74                   -0.612745         76.7301
4.76                   -0.631471         75.1034
4.78                    -0.65065         73.4639
4.8                    -0.670284         71.8113
4.82                    -0.69038         70.1456
4.84                   -0.710943         68.4667
4.86                   -0.731981         66.7743
4.88                   -0.753504         65.0683
4.9                    -0.775523         63.3487
4.92                    -0.79805         61.6152
4.94                     -0.8211          59.868
4.96                   -0.844685         58.1068
4.98                   -0.868821         56.3316
5                      -0.893521         54.5425
5.02                   -0.918801         52.7394
5.04                   -0.944675         50.9223
5.06                   -0.971158         49.0913
5.08                   -0.998263         47.2464
5.1                       -1.026         45.3878
5.12                    -1.05439         43.5155
5.14                    -1.08343         41.6297
5.16                    -1.11314         39.7306
5.18                    -1.14353         37.8182
5.2                      -1.1746         35.8928
5.22                    -1.20635         33.9548
5.24                     -1.2388         32.0041
5.26                    -1.27195         30.0413
5.28                    -1.30579         28.0664
5.3                     -1.34033         26.0799
5.32                    -1.37556         24.0821
5.34                    -1.41149         22.0733
5.36                     -1.4481         20.0539
5.38                     -1.4854         18.0242
5.4                     -1.52338         15.9847
5.42                    -1.56202         13.9359
5.44                    -1.60133          11.878
5.46                    -1.64129         9.81174
5.48                    -1.68189         7.73744
5.5                     -1.72311         5.65564
5.52                    -1.76496         3.56685
5.54                     -1.8074         1.47163
5.56                    -1.85044       -0.629489
5.58                    -1.89406        -2.73592
5.6                     -1.93823        -4.84708
5.62                    -1.98296        -6.96237
5.64                    -2.02821        -9.08116
5.66                    -2.07399        -11.2028
5.68                    -2.12026        -13.3267
5.7                     -2.16701        -15.4522
5.72                    -2.21424        -17.5785
5.74                    -2.26191        -19.7051
5.76                    -2.31001        -21.8311
5.78                    -2.35853         -23.956
5.8                     -2.40744         -26.079
5.82                    -2.45674        -28.1993
5.84                    -2.50639        -30.3164
5.86                    -2.55638        -32.4294
5.88                     -2.6067        -34.5376
5.9                     -2.65731        -36.6404
5.92                    -2.70821         -38.737
5.94                    -2.75936        -40.8267
5.96                    -2.81075        -42.9088
5.98                    -2.86236        -44.9826
6                       -2.91417        -47.0475
6.02                    -2.96614        -49.1029
6.04                    -3.01827         -51.148
6.06                    -3.07053        -53.1824
6.08                     -3.1229        -55.2054
6.1                     -3.17535        -57.2164
6.12                    -3.22788         -59.215
6.14                    -3.28046        -61.2007
6.16                    -3.33308         -63.173
6.18                    -3.38572        -65.1314
6.2                     -3.43837        -67.0757
6.22                    -3.49104        -69.0055
6.24                    -3.54371        -70.9203
6.26                    -3.59639          -72.82
6.28                     -3.6491        -74.7043
6.3                     -3.70184        -76.5729
6.32                    -3.75464        -78.4257
6.34                    -3.80753        -80.2623
6.36                    -3.86054        -82.0826
6.38                    -3.91374        -83.8864
6.4                     -3.96716        -85.6735
6.42                    -4.02087        -87.4434
6.44                    -4.07495         -89.196
6.46                    -4.12947        -90.9308
6.48                    -4.18452        -92.6475
6.5                     -4.24018        -94.3454
