! TOUCHSTONE file generated by CST MICROWAVE STUDIO
! Date and time: Fri Oct 28 01:54:52 2022
! Project name: L.cst
! Parameters = {Di=1.27; Epsilon_r=1.56; InnerDiameter=1.27; Length=2; Lf=10; Lg=60; OuterConductorThickness=0.2921; OuterDiameter=3.6; Wf=3; Wp=41.2; de=1.5; df=6.8; g=0.8; gx=1.74609; gy=4.12604; h=2.34; hf=1.524; px=10.5554; py=8.82646; w=9.7; wx=8.80929; wy=4.70042}
! Header version: 2018
! Port assignment regex: !\s*Touchstone port\s*([0-9]+)\s*=\s*(CST MWS port|CST DS port)\s*([0-9]+|Zmin|Zmax)\s*\(\"(.*)\"\)(\s*mode\s*([0-9]+))?.*
! Touchstone port assignment:
! Touchstone port 1 = CST MWS port 1 ("")
# GHz S DB R 50
4.5                     -0.49304         92.3121
4.52                    -0.50923          90.802
4.54                   -0.526059         89.2795
4.56                   -0.543532         87.7445
4.58                   -0.561648         86.1972
4.6                    -0.580402         84.6374
4.62                   -0.599788         83.0652
4.64                   -0.619799         81.4804
4.66                   -0.640428         79.8829
4.68                   -0.661668         78.2726
4.7                    -0.683515         76.6494
4.72                   -0.705967         75.0131
4.74                   -0.729022         73.3634
4.76                   -0.752682         71.7003
4.78                   -0.776953         70.0234
4.8                    -0.801842         68.3326
4.82                   -0.827361         66.6278
4.84                   -0.853522         64.9087
4.86                    -0.88034         63.1751
4.88                   -0.907833         61.4271
4.9                    -0.936019         59.6643
4.92                    -0.96492         57.8867
4.94                   -0.994557         56.0943
4.96                    -1.02495         54.2869
4.98                    -1.05613         52.4646
5                       -1.08811         50.6273
5.02                    -1.12091          48.775
5.04                    -1.15457         46.9079
5.06                    -1.18909         45.0259
5.08                    -1.22451         43.1292
5.1                     -1.26083         41.2179
5.12                    -1.29808         39.2922
5.14                    -1.33627         37.3523
5.16                    -1.37541         35.3983
5.18                    -1.41552         33.4305
5.2                     -1.45661         31.4492
5.22                    -1.49869         29.4546
5.24                    -1.54176         27.4472
5.26                    -1.58582         25.4272
5.28                    -1.63088         23.3949
5.3                     -1.67694         21.3508
5.32                      -1.724         19.2953
5.34                    -1.77205         17.2288
5.36                    -1.82109         15.1518
5.38                    -1.87111         13.0647
5.4                     -1.92209          10.968
5.42                    -1.97404         8.86236
5.44                    -2.02694         6.74821
5.46                    -2.08078         4.62615
5.48                    -2.13553         2.49677
5.5                     -2.19119        0.360683
5.52                    -2.24775        -1.78148
5.54                    -2.30517        -3.92905
5.56                    -2.36344        -6.08136
5.58                    -2.42255         -8.2377
5.6                     -2.48247        -10.3974
5.62                    -2.54319        -12.5596
5.64                    -2.60468        -14.7236
5.66                    -2.66691        -16.8887
5.68                    -2.72988         -19.054
5.7                     -2.79355        -21.2187
5.72                     -2.8579         -23.382
5.74                    -2.92291        -25.5431
5.76                    -2.98855        -27.7009
5.78                    -3.05479        -29.8548
5.8                     -3.12162        -32.0037
5.82                    -3.18901        -34.1468
5.84                    -3.25692        -36.2832
5.86                    -3.32534         -38.412
5.88                    -3.39422        -40.5321
5.9                     -3.46355        -42.6428
5.92                    -3.53328         -44.743
5.94                     -3.6034        -46.8318
5.96                    -3.67386        -48.9084
5.98                    -3.74464        -50.9717
6                       -3.81569        -53.0209
6.02                    -3.88699        -55.0551
6.04                    -3.95849        -57.0733
6.06                    -4.03015        -59.0747
6.08                    -4.10194        -61.0584
6.1                     -4.17382        -63.0236
6.12                    -4.24574        -64.9695
6.14                    -4.31765        -66.8952
6.16                    -4.38953           -68.8
6.18                    -4.46132        -70.6831
6.2                     -4.53298        -72.5437
6.22                    -4.60446        -74.3811
6.24                    -4.67572        -76.1947
6.26                    -4.74671        -77.9836
6.28                    -4.81738        -79.7473
6.3                     -4.88769         -81.485
6.32                    -4.95758        -83.1961
6.34                      -5.027        -84.8798
6.36                    -5.09589        -86.5354
6.38                    -5.16419        -88.1624
6.4                     -5.23183        -89.7598
6.42                    -5.29872         -91.327
6.44                    -5.36477        -92.8631
6.46                    -5.42989        -94.3674
6.48                    -5.49393         -95.839
6.5                     -5.55676        -97.2771
