! TOUCHSTONE file generated by CST MICROWAVE STUDIO
! Date and time: Fri Oct 28 07:46:54 2022
! Project name: L.cst
! Parameters = {Di=1.27; Epsilon_r=1.56; InnerDiameter=1.27; Length=2; Lf=10; Lg=60; OuterConductorThickness=0.2921; OuterDiameter=3.6; Wf=3; Wp=41.2; de=1.5; df=6.8; g=0.8; gx=3.17972; gy=4.57448; h=2.34; hf=1.524; px=14.7241; py=12.2383; w=9.7; wx=11.5444; wy=7.66384}
! Header version: 2018
! Port assignment regex: !\s*Touchstone port\s*([0-9]+)\s*=\s*(CST MWS port|CST DS port)\s*([0-9]+|Zmin|Zmax)\s*\(\"(.*)\"\)(\s*mode\s*([0-9]+))?.*
! Touchstone port assignment:
! Touchstone port 1 = CST MWS port 1 ("")
# GHz S DB R 50
4.5                     -0.81962         91.8359
4.52                   -0.843206         90.2752
4.54                   -0.897311         88.6815
4.56                   -0.930784         86.9807
4.58                   -0.975896         85.4156
4.6                     -1.02809         83.6798
4.62                    -1.06666         82.0277
4.64                    -1.12759         80.3384
4.66                    -1.17429          78.571
4.68                    -1.23186         76.8955
4.7                     -1.29438         75.0858
4.72                    -1.34922         73.3379
4.74                    -1.42184         71.5515
4.76                    -1.48444         69.7049
4.78                    -1.55806         67.9219
4.8                     -1.63571           66.03
4.82                    -1.70967         64.1855
4.84                    -1.79933         62.3016
4.86                    -1.88195         60.3719
4.88                    -1.97623         58.4871
4.9                     -2.07466         56.5116
4.92                    -2.17233         54.5769
4.94                    -2.28518         52.6027
4.96                    -2.39331         50.5966
4.98                    -2.51419         48.6249
5                       -2.63989         46.5775
5.02                    -2.76717          44.572
5.04                    -2.90999         42.5279
5.06                    -3.05008         40.4673
5.08                     -3.2043         38.4392
5.1                      -3.3642         36.3477
5.12                    -3.52791         34.3087
5.14                    -3.70777         32.2349
5.16                     -3.8865         30.1618
5.18                    -4.08107         28.1289
5.2                     -4.28179         26.0446
5.22                    -4.48834          24.032
5.24                    -4.71176          21.992
5.26                    -4.93474         19.9737
5.28                     -5.1755         18.0118
5.3                     -5.42185         16.0099
5.32                    -5.67567         14.1058
5.34                    -5.94709         12.1829
5.36                    -6.21729         10.3039
5.38                    -6.50795         8.49998
5.4                     -6.80302         6.66234
5.42                    -7.10736         4.95266
5.44                     -7.4319         3.22464
5.46                    -7.75479         1.56216
5.48                    -8.10533      -0.0045621
5.5                     -8.46284        -1.60151
5.52                    -8.83751        -3.01456
5.54                    -9.24524        -4.42245
5.56                    -9.65898         -5.6733
5.58                    -10.1215        -6.68881
5.6                     -10.6022        -7.56624
5.62                    -11.1095        -7.90176
5.64                    -11.6523        -7.84612
5.66                    -12.1568        -7.08053
5.68                    -12.6385        -5.47053
5.7                     -12.9947        -3.41326
5.72                    -13.1786       -0.786978
5.74                    -13.2169         1.46169
5.76                    -13.0609          2.9568
5.78                    -12.8541         3.56809
5.8                     -12.6219         2.70389
5.82                     -12.408         1.01572
5.84                    -12.3217        -1.84807
5.86                    -12.2967        -5.69286
5.88                    -12.4618        -10.2428
5.9                     -12.8044        -16.2569
5.92                    -13.3903        -23.2619
5.94                    -14.4376        -32.7893
5.96                    -16.1186        -46.6473
5.98                     -19.538        -72.6126
6                       -25.5707        -156.415
6.02                    -20.9547         109.461
6.04                    -18.2331         93.1626
6.06                    -15.2458         88.6956
6.08                    -12.4403         82.7158
6.1                     -10.4121         73.3312
6.12                    -8.79626          62.921
6.14                    -7.80931         52.6163
6.16                    -7.12529         41.2559
6.18                    -6.82576         30.6794
6.2                     -7.03985         17.9454
6.22                    -7.85153         4.35257
6.24                    -10.9216        -12.3558
6.26                    -21.6602        -11.5095
6.28                    -12.2016         90.2082
6.3                     -6.77079         70.1114
6.32                    -4.40582         51.2614
6.34                    -3.71542         38.8717
6.36                    -3.15234         23.7751
6.38                    -2.84154         15.0268
6.4                     -5.45498        -20.2327
6.42                    -7.22222         60.8306
6.44                    -1.83971         23.3802
6.46                    -2.26259         16.2722
6.48                    -1.95897         4.56013
6.5                     -1.67327          2.1193
