! TOUCHSTONE file generated by CST MICROWAVE STUDIO
! Date and time: Fri Oct 28 21:43:41 2022
! Project name: L.cst
! Parameters = {Di=1.27; Epsilon_r=1.56; InnerDiameter=1.27; Length=2; Lf=10; Lg=60; OuterConductorThickness=0.2921; OuterDiameter=3.6; Wf=3; Wp=41.2; de=1.5; df=6.8; g=0.8; gx=2.77672; gy=1.47742; h=2.34; hf=1.524; px=14.2356; py=11.9983; w=9.7; wx=11.4589; wy=10.5208}
! Header version: 2018
! Port assignment regex: !\s*Touchstone port\s*([0-9]+)\s*=\s*(CST MWS port|CST DS port)\s*([0-9]+|Zmin|Zmax)\s*\(\"(.*)\"\)(\s*mode\s*([0-9]+))?.*
! Touchstone port assignment:
! Touchstone port 1 = CST MWS port 1 ("")
# GHz S DB R 50
4.5                      -3.9049         46.5495
4.52                    -4.22919         43.3773
4.54                    -4.55657         40.1533
4.56                     -4.9151         36.6818
4.58                    -5.32115          33.185
4.6                     -5.74073         29.6408
4.62                    -6.19354         25.8333
4.64                    -6.70269         21.9363
4.66                    -7.23715         17.9738
4.68                    -7.80878         13.7039
4.7                     -8.44755         9.24085
4.72                    -9.12585         4.64626
4.74                     -9.8462       -0.363954
4.76                     -10.645        -5.76816
4.78                    -11.4979        -11.4901
4.8                     -12.3916        -17.8911
4.82                    -13.3617        -25.1229
4.84                    -14.3783        -33.1397
4.86                    -15.3824        -42.3985
4.88                    -16.3653        -53.2694
4.9                     -17.2474        -65.5626
4.92                    -17.8691        -79.2036
4.94                    -18.1584        -93.8779
4.96                    -18.1139        -108.352
4.98                    -17.7396        -121.568
5                       -17.1361        -133.351
5.02                    -16.4557        -143.552
5.04                     -15.751         -152.09
5.06                    -15.0409         -159.43
5.08                    -14.3853        -165.894
5.1                     -13.7916        -171.445
5.12                    -13.2324        -176.339
5.14                    -12.7309         179.177
5.16                    -12.2911         175.204
5.18                    -11.8816         171.644
5.2                     -11.5132         168.306
5.22                    -11.1939           165.3
5.24                    -10.8944         162.611
5.26                    -10.6193         160.072
5.28                    -10.3784         157.783
5.3                     -10.1444         155.767
5.32                    -9.91673          153.86
5.34                    -9.70649         152.142
5.36                    -9.48676         150.639
5.38                    -9.25373         149.169
5.4                     -9.02076         147.764
5.42                    -8.76509         146.427
5.44                    -8.48668         144.936
5.46                    -8.21002         143.279
5.48                    -7.92676         141.472
5.5                     -7.64915         139.326
5.52                    -7.41624         136.899
5.54                    -7.22805         134.354
5.56                    -7.08991         131.646
5.58                    -7.03063         128.933
5.6                      -7.0322         126.481
5.62                    -7.07283         124.242
5.64                    -7.16887         122.302
5.66                    -7.28976         120.913
5.68                    -7.39656         119.913
5.7                     -7.51062         119.275
5.72                    -7.59502         119.258
5.74                    -7.59563         119.534
5.76                    -7.55276         119.927
5.78                     -7.4268         120.709
5.8                     -7.16048          121.26
5.82                    -6.85234         121.275
5.84                    -6.47009         121.223
5.86                    -5.95418         120.022
5.88                    -5.59397         117.103
5.9                     -5.53482          114.89
5.92                    -5.36483         114.782
5.94                    -4.83569         113.975
5.96                    -4.31627         110.907
5.98                    -3.99276         107.222
6                       -3.72543         103.598
6.02                    -3.50057         99.4601
6.04                    -3.38819         95.0313
6.06                    -3.34648         90.5943
6.08                    -3.37166         85.7924
6.1                     -3.53643         80.6331
6.12                    -3.86887         75.3661
6.14                    -4.42955         69.9423
6.16                    -5.39876         64.8345
6.18                    -7.00708         62.2427
6.2                     -9.19243         68.2648
6.22                    -9.97219          88.651
6.24                    -7.75075         102.921
6.26                    -5.43916         102.353
6.28                    -4.01787         96.5451
6.3                      -3.1765         89.9879
6.32                    -2.67617         83.4178
6.34                    -2.44119         77.3106
6.36                    -2.34529         72.0999
6.38                    -2.28431         67.5625
6.4                     -2.19159         63.4654
6.42                    -2.00755         58.9383
6.44                     -1.9086         53.1521
6.46                    -2.04283         47.5443
6.48                    -2.12192         42.9774
6.5                     -2.04107         36.8364
