! TOUCHSTONE file generated by CST MICROWAVE STUDIO
! Date and time: Sat Oct 29 23:22:32 2022
! Project name: L.cst
! Parameters = {Di=1.27; Epsilon_r=1.56; InnerDiameter=1.27; Length=2; Lf=10; Lg=60; OuterConductorThickness=0.2921; OuterDiameter=3.6; Wf=3; Wp=41.2; de=1.5; df=6.8; g=0.8; gx=3.44117; gy=1.60412; h=2.34; hf=1.524; px=9.21579; py=8.37808; w=9.7; wx=5.77462; wy=6.77396}
! Header version: 2018
! Port assignment regex: !\s*Touchstone port\s*([0-9]+)\s*=\s*(CST MWS port|CST DS port)\s*([0-9]+|Zmin|Zmax)\s*\(\"(.*)\"\)(\s*mode\s*([0-9]+))?.*
! Touchstone port assignment:
! Touchstone port 1 = CST MWS port 1 ("")
# GHz S DB R 50
4.5                    -0.399179         83.7314
4.52                   -0.409827          82.179
4.54                    -0.42108          80.609
4.56                   -0.432938         79.0218
4.58                   -0.445392         77.4174
4.6                    -0.458423         75.7957
4.62                   -0.472002         74.1569
4.64                     -0.4861         72.5006
4.66                   -0.500681         70.8269
4.68                   -0.515709         69.1354
4.7                    -0.531148         67.4259
4.72                   -0.546966         65.6981
4.74                   -0.563133         63.9515
4.76                    -0.57962         62.1859
4.78                   -0.596405         60.4007
4.8                    -0.613467         58.5956
4.82                   -0.630793         56.7701
4.84                   -0.648371         54.9238
4.86                   -0.666195         53.0563
4.88                    -0.68426         51.1672
4.9                    -0.702567         49.2561
4.92                   -0.721118         47.3226
4.94                   -0.739916         45.3665
4.96                   -0.758967         43.3874
4.98                   -0.778279         41.3851
5                      -0.797856         39.3594
5.02                   -0.817706         37.3102
5.04                   -0.837833         35.2372
5.06                    -0.85824         33.1406
5.08                    -0.87893         31.0201
5.1                    -0.899902          28.876
5.12                   -0.921151         26.7082
5.14                   -0.942672         24.5169
5.16                   -0.964456         22.3022
5.18                   -0.986488         20.0645
5.2                     -1.00875         17.8039
5.22                    -1.03123         15.5209
5.24                     -1.0539         13.2157
5.26                    -1.07673         10.8889
5.28                    -1.09969         8.54076
5.3                     -1.12275         6.17197
5.32                    -1.14587         3.78305
5.34                    -1.16902         1.37463
5.36                    -1.19215        -1.05265
5.38                    -1.21522        -3.49806
5.4                     -1.23818        -5.96084
5.42                      -1.261        -8.44021
5.44                    -1.28362        -10.9353
5.46                      -1.306        -13.4453
5.48                    -1.32809        -15.9692
5.5                     -1.34984         -18.506
5.52                    -1.37122        -21.0547
5.54                    -1.39217        -23.6144
5.56                    -1.41265        -26.1839
5.58                    -1.43262         -28.762
5.6                     -1.45205        -31.3478
5.62                    -1.47089        -33.9398
5.64                    -1.48912        -36.5371
5.66                    -1.50671        -39.1384
5.68                    -1.52363        -41.7423
5.7                     -1.53985        -44.3478
5.72                    -1.55535        -46.9534
5.74                    -1.57013         -49.558
5.76                    -1.58416        -52.1602
5.78                    -1.59744        -54.7589
5.8                     -1.60995        -57.3527
5.82                     -1.6217        -59.9404
5.84                    -1.63267        -62.5207
5.86                    -1.64287        -65.0926
5.88                    -1.65231        -67.6546
5.9                     -1.66098        -70.2058
5.92                    -1.66889         -72.745
5.94                    -1.67604        -75.2712
5.96                    -1.68244        -77.7832
5.98                    -1.68809        -80.2801
6                       -1.69301        -82.7611
6.02                    -1.69719        -85.2252
6.04                    -1.70064        -87.6716
6.06                    -1.70337        -90.0997
6.08                    -1.70537        -92.5088
6.1                     -1.70666        -94.8983
6.12                    -1.70724        -97.2677
6.14                    -1.70711        -99.6166
6.16                    -1.70627        -101.945
6.18                    -1.70474        -104.252
6.2                     -1.70252        -106.538
6.22                    -1.69961        -108.802
6.24                    -1.69604        -111.046
6.26                    -1.69182        -113.268
6.28                    -1.68698        -115.469
6.3                     -1.68155        -117.649
6.32                    -1.67556        -119.809
6.34                    -1.66907        -121.949
6.36                    -1.66213         -124.07
6.38                     -1.6548        -126.171
6.4                     -1.64717        -128.253
6.42                    -1.63931        -130.316
6.44                    -1.63133        -132.362
6.46                    -1.62334         -134.39
6.48                    -1.61545          -136.4
6.5                     -1.60779        -138.393
