! TOUCHSTONE file generated by CST MICROWAVE STUDIO
! Date and time: Fri Oct 28 23:11:53 2022
! Project name: L.cst
! Parameters = {Di=1.27; Epsilon_r=1.56; InnerDiameter=1.27; Length=2; Lf=10; Lg=60; OuterConductorThickness=0.2921; OuterDiameter=3.6; Wf=3; Wp=41.2; de=1.5; df=6.8; g=0.8; gx=4.25264; gy=3.06854; h=2.34; hf=1.524; px=11.722; py=11.9686; w=9.7; wx=7.46937; wy=8.90008}
! Header version: 2018
! Port assignment regex: !\s*Touchstone port\s*([0-9]+)\s*=\s*(CST MWS port|CST DS port)\s*([0-9]+|Zmin|Zmax)\s*\(\"(.*)\"\)(\s*mode\s*([0-9]+))?.*
! Touchstone port assignment:
! Touchstone port 1 = CST MWS port 1 ("")
# GHz S DB R 50
4.5                    -0.435625         91.0227
4.52                   -0.445931         89.5148
4.54                   -0.457082         87.9868
4.56                   -0.469146         86.4393
4.58                   -0.482159         84.8727
4.6                    -0.496134         83.2874
4.62                   -0.511064         81.6837
4.64                   -0.526925         80.0619
4.66                   -0.543681         78.4221
4.68                   -0.561286         76.7642
4.7                    -0.579689         75.0882
4.72                   -0.598837         73.3937
4.74                   -0.618678         71.6806
4.76                   -0.639159         69.9484
4.78                   -0.660233         68.1967
4.8                    -0.681859         66.4248
4.82                   -0.704001         64.6322
4.84                   -0.726631         62.8182
4.86                   -0.749727         60.9822
4.88                   -0.773276         59.1234
4.9                    -0.797273         57.2412
4.92                   -0.821717         55.3349
4.94                   -0.846617         53.4036
4.96                   -0.871985         51.4468
4.98                   -0.897839         49.4638
5                      -0.924202          47.454
5.02                   -0.951099         45.4168
5.04                   -0.978557         43.3516
5.06                     -1.0066         41.2579
5.08                    -1.03527         39.1353
5.1                     -1.06458         36.9833
5.12                    -1.09457         34.8016
5.14                    -1.12526         32.5899
5.16                    -1.15667          30.348
5.18                    -1.18881         28.0755
5.2                     -1.22171         25.7724
5.22                    -1.25537         23.4386
5.24                    -1.28979          21.074
5.26                    -1.32497         18.6787
5.28                     -1.3609         16.2526
5.3                     -1.39758         13.7958
5.32                    -1.43497         11.3087
5.34                    -1.47306         8.79124
5.36                    -1.51181         6.24385
5.38                    -1.55118         3.66679
5.4                     -1.59114         1.06045
5.42                    -1.63162        -1.57475
5.44                    -1.67258        -4.23833
5.46                    -1.71395        -6.92976
5.48                    -1.75567        -9.64843
5.5                     -1.79768        -12.3937
5.52                    -1.83991        -15.1649
5.54                    -1.88227        -17.9611
5.56                    -1.92469        -20.7817
5.58                     -1.9671        -23.6257
5.6                     -2.00942        -26.4921
5.62                    -2.05156          -29.38
5.64                    -2.09345        -32.2882
5.66                    -2.13502        -35.2157
5.68                    -2.17618        -38.1613
5.7                     -2.21687        -41.1238
5.72                    -2.25701        -44.1019
5.74                    -2.29653        -47.0942
5.76                    -2.33537        -50.0993
5.78                    -2.37349        -53.1161
5.8                     -2.41081        -56.1429
5.82                    -2.44729        -59.1783
5.84                     -2.4829        -62.2208
5.86                    -2.51758         -65.269
5.88                    -2.55132        -68.3214
5.9                     -2.58408        -71.3764
5.92                    -2.61584        -74.4327
5.94                    -2.64658        -77.4887
5.96                    -2.67629        -80.5431
5.98                    -2.70496        -83.5946
6                        -2.7326        -86.6416
6.02                    -2.75919        -89.6832
6.04                    -2.78474         -92.718
6.06                    -2.80926         -95.745
6.08                    -2.83275        -98.7632
6.1                     -2.85522        -101.772
6.12                    -2.87668         -104.77
6.14                    -2.89715        -107.757
6.16                    -2.91664        -110.732
6.18                    -2.93516        -113.695
6.2                     -2.95274        -116.647
6.22                    -2.96939        -119.586
6.24                    -2.98514        -122.513
6.26                    -3.00003        -125.428
6.28                    -3.01409        -128.333
6.3                     -3.02737        -131.227
6.32                    -3.03993        -134.111
6.34                    -3.05184        -136.987
6.36                    -3.06319        -139.855
6.38                    -3.07409        -142.718
6.4                     -3.08467        -145.577
6.42                    -3.09508        -148.433
6.44                     -3.1055        -151.289
6.46                    -3.11614        -154.147
6.48                    -3.12725        -157.008
6.5                     -3.13911        -159.875
