! TOUCHSTONE file generated by CST MICROWAVE STUDIO
! Date and time: Fri Oct 28 15:15:41 2022
! Project name: L.cst
! Parameters = {Di=1.27; Epsilon_r=1.56; InnerDiameter=1.27; Length=2; Lf=10; Lg=60; OuterConductorThickness=0.2921; OuterDiameter=3.6; Wf=3; Wp=41.2; de=1.5; df=6.8; g=0.8; gx=1.84637; gy=3.26776; h=2.34; hf=1.524; px=14.5735; py=11.5212; w=9.7; wx=12.7271; wy=8.25346}
! Header version: 2018
! Port assignment regex: !\s*Touchstone port\s*([0-9]+)\s*=\s*(CST MWS port|CST DS port)\s*([0-9]+|Zmin|Zmax)\s*\(\"(.*)\"\)(\s*mode\s*([0-9]+))?.*
! Touchstone port assignment:
! Touchstone port 1 = CST MWS port 1 ("")
# GHz S DB R 50
4.5                     -3.88183         73.3134
4.52                    -4.16217          71.757
4.54                    -4.46802         70.5031
4.56                    -4.75876         69.2806
4.58                    -5.08892         68.1427
4.6                     -5.41258         67.3205
4.62                    -5.73716          66.489
4.64                      -6.085         65.9518
4.66                    -6.40444         65.6196
4.68                    -6.73465         65.3687
4.7                     -7.05012          65.478
4.72                    -7.33235         65.6455
4.74                    -7.61305         66.0126
4.76                    -7.84347         66.5859
4.78                     -8.0479         67.1154
4.8                     -8.22228         67.8272
4.82                    -8.34022         68.4599
4.84                    -8.44094         69.0079
4.86                     -8.4942         69.5409
4.88                    -8.51695         69.7857
4.9                     -8.52707         69.9199
4.92                     -8.5013         69.8035
4.94                    -8.47854         69.3662
4.96                    -8.44741         68.7567
4.98                    -8.41258         67.7633
5                       -8.40287         66.5068
5.02                    -8.39788         64.9746
5.04                    -8.42676          63.036
5.06                    -8.49668         60.8544
5.08                     -8.6034         58.2771
5.1                     -8.78742         55.3103
5.12                    -9.04771         52.0302
5.14                     -9.4163          48.248
5.16                    -9.94784         44.0944
5.18                     -10.674         39.5643
5.2                     -11.7075         34.6489
5.22                    -13.1897         29.8849
5.24                    -15.3385         26.0226
5.26                    -18.6289         25.9556
5.28                    -23.4345         41.3483
5.3                     -25.1068          91.029
5.32                    -20.9499         117.011
5.34                    -18.1452         120.849
5.36                    -16.8796         121.681
5.38                    -16.4251         126.374
5.4                     -15.6715         138.264
5.42                      -13.32         150.633
5.44                    -10.1637          153.32
5.46                    -7.43723          147.85
5.48                    -5.46149         138.533
5.5                     -4.16378         128.283
5.52                    -3.34341         118.582
5.54                    -2.82685         109.779
5.56                    -2.51322         101.912
5.58                    -2.31789         94.8897
5.6                     -2.20204         88.4189
5.62                    -2.16333         82.3834
5.64                    -2.23206         76.7142
5.66                    -2.34053         73.4223
5.68                    -2.05298         68.4359
5.7                       -2.003          62.582
5.72                    -2.04214         56.7456
5.74                    -2.12405         50.7371
5.76                    -2.25404         44.0621
5.78                    -2.48353         36.3353
5.8                      -2.8542         26.7431
5.82                    -3.54941         13.3359
5.84                    -5.05615        -8.05377
5.86                    -8.61603        -52.5833
5.88                    -9.56254        -160.388
5.9                     -4.24793         131.696
5.92                    -2.24662         99.9945
5.94                    -1.56012         81.9501
5.96                    -1.26557         69.9244
5.98                     -1.1683         60.9951
6                       -1.10738          54.163
6.02                    -1.04983         47.8626
6.04                    -1.11495         42.2794
6.06                    -1.07769         36.9494
6.08                     -1.7202         24.3545
6.1                     -1.00344         39.0364
6.12                    -1.05804         30.6941
6.14                   -0.943056         26.5193
6.16                   -0.939697         21.9777
6.18                    -0.97796         18.6602
6.2                    -0.912763         15.1468
6.22                   -0.945385         11.5535
6.24                   -0.934014         8.57294
6.26                   -0.899002         5.10951
6.28                    -0.93421         1.94885
6.3                    -0.894929          -1.046
6.32                   -0.894047        -4.44302
6.34                   -0.911252        -7.34837
6.36                    -0.86656        -10.4955
6.38                   -0.894076        -13.7371
6.4                    -0.881637        -16.5633
6.42                   -0.855691        -19.8722
6.44                   -0.893635        -22.8908
6.46                   -0.854765        -25.8237
6.48                   -0.865242        -29.1902
6.5                    -0.888678        -32.0075
