! TOUCHSTONE file generated by CST MICROWAVE STUDIO
! Date and time: Fri Oct 28 03:48:46 2022
! Project name: L.cst
! Parameters = {Di=1.27; Epsilon_r=1.56; InnerDiameter=1.27; Length=2; Lf=10; Lg=60; OuterConductorThickness=0.2921; OuterDiameter=3.6; Wf=3; Wp=41.2; de=1.5; df=6.8; g=0.8; gx=2.46825; gy=2.33215; h=2.34; hf=1.524; px=12.5381; py=13.1756; w=9.7; wx=10.0698; wy=10.8435}
! Header version: 2018
! Port assignment regex: !\s*Touchstone port\s*([0-9]+)\s*=\s*(CST MWS port|CST DS port)\s*([0-9]+|Zmin|Zmax)\s*\(\"(.*)\"\)(\s*mode\s*([0-9]+))?.*
! Touchstone port assignment:
! Touchstone port 1 = CST MWS port 1 ("")
# GHz S DB R 50
4.5                     -1.24142         72.7938
4.52                    -1.31675         71.0993
4.54                     -1.3501         69.2626
4.56                    -1.38884         67.0966
4.58                    -1.47084         64.8233
4.6                       -1.577         62.7244
4.62                    -1.66359         60.7651
4.64                    -1.72313         58.6737
4.66                    -1.79043         56.3289
4.68                    -1.89162         53.8989
4.7                     -2.01136         51.5838
4.72                    -2.11767         49.3475
4.74                    -2.20636         46.9853
4.76                    -2.30428         44.4107
4.78                      -2.431         41.7555
4.8                     -2.57411         39.1727
4.82                    -2.70868         36.6296
4.84                    -2.83181         33.9621
4.86                    -2.96537         31.1011
4.88                    -3.12536         28.1539
4.9                     -3.30158         25.2466
4.92                    -3.47309         22.3517
4.94                     -3.6372         19.3288
4.96                    -3.81261         16.1146
4.98                    -4.01373         12.7998
5                       -4.23201         9.49744
5.02                    -4.44836         6.18647
5.04                    -4.65927         2.73789
5.06                     -4.8815       -0.914492
5.08                    -5.12925         -4.6919
5.1                     -5.39523        -8.48352
5.12                    -5.66026        -12.3012
5.14                    -5.91879        -16.2715
5.16                    -6.18611        -20.4724
5.18                    -6.47729        -24.8348
5.2                     -6.78607        -29.2394
5.22                    -7.09132         -33.682
5.24                    -7.38335        -38.2909
5.26                    -7.67552        -43.1643
5.28                    -7.98464        -48.2423
5.3                     -8.30566        -53.3835
5.32                    -8.61375        -58.5518
5.34                    -8.89245        -63.8717
5.36                    -9.15203        -69.4667
5.38                    -9.41242        -75.2854
5.4                     -9.67209        -81.1479
5.42                    -9.90336          -86.96
5.44                    -10.0823        -92.8252
5.46                    -10.2165        -98.8953
5.48                    -10.3329         -105.14
5.5                     -10.4401        -111.343
5.52                    -10.5137        -117.343
5.54                    -10.5256        -123.218
5.56                     -10.482        -129.165
5.58                    -10.4189        -135.214
5.6                      -10.359        -141.153
5.62                    -10.2844        -146.776
5.64                    -10.1623        -152.139
5.66                    -9.99329        -157.499
5.68                    -9.81759        -162.965
5.7                     -9.66826         -168.35
5.72                    -9.53136        -173.398
5.74                    -9.36535        -178.131
5.76                    -9.15954          177.15
5.78                    -8.95482         172.255
5.8                     -8.79365         167.361
5.82                    -8.66421         162.793
5.84                    -8.51178         158.581
5.86                     -8.3111          154.36
5.88                    -8.10619         149.829
5.9                     -7.95492         145.161
5.92                    -7.84921         140.787
5.94                    -7.71585         136.798
5.96                    -7.51068         132.715
5.98                    -7.28803          128.06
6                       -7.13407         123.008
6.02                    -7.04718         118.177
6.04                    -6.91986         113.761
6.06                    -6.66992         109.031
6.08                     -6.3684         103.102
6.1                      -6.1572         96.0241
6.12                    -6.05907         88.6102
6.14                    -5.91718         81.1104
6.16                    -5.57989         72.0781
6.18                    -5.16447         59.2197
6.2                     -5.00079         41.2598
6.22                    -5.37945         17.9882
6.24                     -6.4247         -10.919
6.26                    -7.97739        -46.6221
6.28                     -9.3227        -89.5226
6.3                     -9.51493        -133.738
6.32                    -8.75416        -170.311
6.34                    -7.77372         162.142
6.36                    -6.83581         140.007
6.38                    -6.09377         119.295
6.4                     -5.85946         97.6877
6.42                    -6.53102           74.86
6.44                    -8.61194         51.9853
6.46                    -13.1135         33.1963
6.48                    -22.2686         51.8272
6.5                     -17.2458         112.186
