! TOUCHSTONE file generated by CST MICROWAVE STUDIO
! Date and time: Fri Oct 28 17:47:17 2022
! Project name: L.cst
! Parameters = {Di=1.27; Epsilon_r=1.56; InnerDiameter=1.27; Length=2; Lf=10; Lg=60; OuterConductorThickness=0.2921; OuterDiameter=3.6; Wf=3; Wp=41.2; de=1.5; df=6.8; g=0.8; gx=2.03525; gy=0.677813; h=2.34; hf=1.524; px=11.9522; py=9.53963; w=9.7; wx=9.9169; wy=8.86182}
! Header version: 2018
! Port assignment regex: !\s*Touchstone port\s*([0-9]+)\s*=\s*(CST MWS port|CST DS port)\s*([0-9]+|Zmin|Zmax)\s*\(\"(.*)\"\)(\s*mode\s*([0-9]+))?.*
! Touchstone port assignment:
! Touchstone port 1 = CST MWS port 1 ("")
# GHz S DB R 50
4.5                     -2.22572         47.7343
4.52                    -2.35628         45.0054
4.54                    -2.49138         42.1984
4.56                    -2.63172         39.3079
4.58                    -2.77804         36.3291
4.6                     -2.93105         33.2582
4.62                    -3.09142         30.0918
4.64                    -3.25974         26.8272
4.66                     -3.4365         23.4621
4.68                    -3.62206         19.9946
4.7                     -3.81664         16.4227
4.72                    -4.02034         12.7449
4.74                    -4.23305         8.95941
4.76                    -4.45452         5.06468
4.78                    -4.68431         1.05882
4.8                     -4.92176        -3.05982
4.82                    -5.16603        -7.29288
4.84                    -5.41604        -11.6419
4.86                    -5.67049         -16.108
4.88                    -5.92786        -20.6919
4.9                     -6.18639        -25.3937
4.92                     -6.4441        -30.2121
4.94                    -6.69884        -35.1447
4.96                    -6.94824        -40.1875
4.98                    -7.18985        -45.3342
5                       -7.42116        -50.5763
5.02                    -7.63965        -55.9028
5.04                    -7.84297        -61.2999
5.06                    -8.02893        -66.7516
5.08                    -8.19571         -72.239
5.1                     -8.34188        -77.7419
5.12                     -8.4665        -83.2382
5.14                    -8.56917        -88.7059
5.16                    -8.65006        -94.1225
5.18                    -8.70984        -99.4672
5.2                     -8.74967         -104.72
5.22                    -8.77112        -109.865
5.24                    -8.77605        -114.887
5.26                    -8.76652        -119.774
5.28                    -8.74472        -124.517
5.3                     -8.71284         -129.11
5.32                    -8.67303        -133.549
5.34                    -8.62732        -137.833
5.36                    -8.57759         -141.96
5.38                    -8.52555        -145.933
5.4                     -8.47272        -149.752
5.42                    -8.42042        -153.422
5.44                    -8.36975        -156.944
5.46                    -8.32166        -160.323
5.48                    -8.27687        -163.561
5.5                     -8.23596        -166.662
5.52                    -8.19931        -169.629
5.54                    -8.16714        -172.466
5.56                    -8.13954        -175.173
5.58                    -8.11642        -177.755
5.6                     -8.09755         179.787
5.62                    -8.08258          177.45
5.64                    -8.07099         175.233
5.66                    -8.06217         173.132
5.68                    -8.05537         171.146
5.7                     -8.04974         169.271
5.72                    -8.04435         167.503
5.74                     -8.0382         165.839
5.76                    -8.03025         164.273
5.78                    -8.01947         162.798
5.8                     -8.00486         161.407
5.82                    -7.98549         160.093
5.84                    -7.96057         158.846
5.86                    -7.92945         157.656
5.88                    -7.89171         156.511
5.9                     -7.84715         155.401
5.92                    -7.79585         154.314
5.94                    -7.73816          153.24
5.96                    -7.67468         152.166
5.98                    -7.60631         151.085
6                       -7.53415         149.987
6.02                    -7.45951         148.865
6.04                    -7.38386         147.716
6.06                    -7.30875         146.536
6.08                     -7.2358         145.325
6.1                     -7.16662         144.084
6.12                    -7.10274         142.816
6.14                     -7.0456         141.529
6.16                    -6.99649         140.229
6.18                    -6.95645         138.926
6.2                     -6.92627         137.633
6.22                     -6.9064         136.362
6.24                    -6.89691          135.13
6.26                    -6.89737         133.952
6.28                    -6.90683         132.845
6.3                     -6.92372         131.826
6.32                    -6.94573         130.912
6.34                     -6.9698         130.117
6.36                    -6.99209         129.454
6.38                    -7.00794         128.929
6.4                     -7.01206         128.542
6.42                     -6.9987         128.284
6.44                    -6.96205         128.137
6.46                    -6.89668         128.069
6.48                    -6.79815         128.041
6.5                     -6.66351         128.001
