! TOUCHSTONE file generated by CST MICROWAVE STUDIO
! Date and time: Sat Oct 29 12:04:02 2022
! Project name: L.cst
! Parameters = {Di=1.27; Epsilon_r=1.56; InnerDiameter=1.27; Length=2; Lf=10; Lg=60; OuterConductorThickness=0.2921; OuterDiameter=3.6; Wf=3; Wp=41.2; de=1.5; df=6.8; g=0.8; gx=0.846383; gy=2.08253; h=2.34; hf=1.524; px=11.99; py=10.5663; w=9.7; wx=11.1437; wy=8.48378}
! Header version: 2018
! Port assignment regex: !\s*Touchstone port\s*([0-9]+)\s*=\s*(CST MWS port|CST DS port)\s*([0-9]+|Zmin|Zmax)\s*\(\"(.*)\"\)(\s*mode\s*([0-9]+))?.*
! Touchstone port assignment:
! Touchstone port 1 = CST MWS port 1 ("")
# GHz S DB R 50
4.5                     -5.36696         57.0002
4.52                    -5.78778         55.2635
4.54                    -6.24399         53.8641
4.56                    -6.70915         52.8308
4.58                    -7.16344         52.0724
4.6                     -7.60484         51.4476
4.62                    -8.04896         50.8694
4.64                     -8.5172         50.3756
4.66                     -9.0212         50.1205
4.68                    -9.55235         50.2999
4.7                     -10.0819         51.0459
4.72                    -10.5723         52.3445
4.74                    -10.9965         54.0339
4.76                      -11.35         55.9035
4.78                    -11.6476         57.8258
4.8                     -11.9052         59.8122
4.82                    -12.1219         61.9521
4.84                    -12.2774         64.2858
4.86                    -12.3454         66.7061
4.88                    -12.3149         68.9725
4.9                     -12.2018         70.8353
4.92                    -12.0402         72.1677
4.94                    -11.8632         73.0007
4.96                    -11.6887         73.4586
4.98                    -11.5168         73.6596
5                       -11.3373         73.6444
5.02                    -11.1428         73.3669
5.04                    -10.9359          72.741
5.06                    -10.7301         71.7078
5.08                    -10.5426         70.2764
5.1                     -10.3861         68.5193
5.12                    -10.2633         66.5319
5.14                    -10.1676         64.3842
5.16                    -10.0881         62.0873
5.18                    -10.0167         59.5918
5.2                      -9.9527         56.8163
5.22                    -9.90389         53.6904
5.24                    -9.88211         50.1863
5.26                    -9.89739         46.3215
5.28                    -9.95329         42.1357
5.3                     -10.0457         37.6539
5.32                    -10.1651         32.8529
5.34                     -10.302          27.646
5.36                    -10.4511         21.8939
5.38                    -10.6139          15.436
5.4                      -10.796         8.12515
5.42                    -11.0009       -0.151703
5.44                    -11.2225        -9.47233
5.46                    -11.4394        -19.8879
5.48                    -11.6116        -31.4251
5.5                     -11.6841         -44.066
5.52                    -11.5973        -57.7067
5.54                    -11.3062        -72.1227
5.56                    -10.7987        -86.9833
5.58                     -10.105        -101.929
5.6                      -9.2876        -116.661
5.62                    -8.42248        -130.985
5.64                    -7.58059         -144.79
5.66                    -6.81806        -158.011
5.68                    -6.17338        -170.588
5.7                     -5.66813         177.556
5.72                    -5.30853         166.518
5.74                    -5.08625         156.412
5.76                    -4.97877         147.343
5.78                    -4.95038         139.371
5.8                     -4.95625         132.469
5.82                    -4.95148         126.481
5.84                    -4.90414         121.128
5.86                    -4.80585         116.084
5.88                    -4.67232         111.071
5.9                     -4.53285         105.948
5.92                    -4.41599         100.712
5.94                    -4.33888         95.4568
5.96                    -4.30318         90.3074
5.98                    -4.29724         85.3547
6                       -4.30253         80.6154
6.02                    -4.30234         76.0237
6.04                    -4.28929         71.4608
6.06                    -4.26785         66.8087
6.08                    -4.25085         61.9997
6.1                     -4.25217          57.035
6.12                    -4.27989         51.9688
6.14                    -4.33286          46.868
6.16                    -4.40188          41.769
6.18                    -4.47476         36.6488
6.2                     -4.54314         31.4259
6.22                    -4.60749         25.9908
6.24                    -4.67762         20.2527
6.26                    -4.76799         14.1744
6.28                     -4.8907         7.77717
6.3                      -5.0495         1.11463
6.32                     -5.2374        -5.77614
6.34                    -5.43924        -12.9269
6.36                    -5.63919        -20.4739
6.38                    -5.83046        -28.6558
6.4                     -6.02265        -37.7694
6.42                    -6.24201        -48.1073
6.44                    -6.52455        -59.9156
6.46                    -6.90574        -73.3926
6.48                    -7.40994        -88.7228
6.5                     -8.03972        -106.115
