! TOUCHSTONE file generated by CST MICROWAVE STUDIO
! Date and time: Fri Oct 28 04:19:09 2022
! Project name: L.cst
! Parameters = {Di=1.27; Epsilon_r=1.56; InnerDiameter=1.27; Length=2; Lf=10; Lg=60; OuterConductorThickness=0.2921; OuterDiameter=3.6; Wf=3; Wp=41.2; de=1.5; df=6.8; g=0.8; gx=2.46487; gy=0.846267; h=2.34; hf=1.524; px=11.0057; py=9.34831; w=9.7; wx=8.54082; wy=8.50205}
! Header version: 2018
! Port assignment regex: !\s*Touchstone port\s*([0-9]+)\s*=\s*(CST MWS port|CST DS port)\s*([0-9]+|Zmin|Zmax)\s*\(\"(.*)\"\)(\s*mode\s*([0-9]+))?.*
! Touchstone port assignment:
! Touchstone port 1 = CST MWS port 1 ("")
# GHz S DB R 50
4.5                     -1.01109         63.2275
4.52                    -1.07116         61.1163
4.54                    -1.13083          58.976
4.56                    -1.19003         56.8014
4.58                    -1.24881         54.5873
4.6                     -1.30731          52.329
4.62                    -1.36575         50.0221
4.64                     -1.4244         47.6627
4.66                    -1.48358         45.2474
4.68                    -1.54361         42.7732
4.7                     -1.60485         40.2376
4.72                    -1.66762         37.6386
4.74                    -1.73223         34.9746
4.76                    -1.79898         32.2445
4.78                     -1.8681         29.4472
4.8                     -1.93979         26.5823
4.82                    -2.01421         23.6495
4.84                    -2.09145         20.6486
4.86                    -2.17155           17.58
4.88                    -2.25449         14.4438
4.9                     -2.34021         11.2407
4.92                    -2.42855         7.97135
4.94                    -2.51935         4.63654
4.96                    -2.61236         1.23733
4.98                    -2.70728        -2.22511
5                       -2.80378        -5.74938
5.02                    -2.90145        -9.33389
5.04                    -2.99989        -12.9768
5.06                    -3.09861         -16.676
5.08                    -3.19713        -20.4293
5.1                     -3.29493        -24.2337
5.12                    -3.39147        -28.0865
5.14                    -3.48622        -31.9842
5.16                    -3.57864        -35.9231
5.18                    -3.66819        -39.8991
5.2                     -3.75438        -43.9078
5.22                    -3.83672        -47.9444
5.24                    -3.91478        -52.0038
5.26                    -3.98817        -56.0803
5.28                    -4.05656        -60.1687
5.3                     -4.11969        -64.2629
5.32                    -4.17735        -68.3568
5.34                    -4.22943        -72.4444
5.36                    -4.27587        -76.5196
5.38                    -4.31669        -80.5763
5.4                       -4.352        -84.6088
5.42                    -4.38196        -88.6112
5.44                    -4.40678        -92.5783
5.46                    -4.42676        -96.5048
5.48                    -4.44221        -100.386
5.5                     -4.45348        -104.218
5.52                    -4.46098        -107.996
5.54                    -4.46511        -111.717
5.56                    -4.46627        -115.378
5.58                    -4.46487        -118.976
5.6                     -4.46134        -122.509
5.62                    -4.45604        -125.975
5.64                    -4.44935        -129.373
5.66                    -4.44162        -132.702
5.68                    -4.43314         -135.96
5.7                     -4.42421        -139.147
5.72                    -4.41506        -142.264
5.74                    -4.40591        -145.309
5.76                    -4.39691        -148.285
5.78                    -4.38821         -151.19
5.8                     -4.37991        -154.026
5.82                    -4.37208        -156.795
5.84                    -4.36476        -159.497
5.86                    -4.35796        -162.133
5.88                    -4.35167        -164.706
5.9                     -4.34587        -167.218
5.92                    -4.34053        -169.669
5.94                    -4.33559        -172.064
5.96                    -4.33101        -174.403
5.98                    -4.32675        -176.689
6                       -4.32277        -178.926
6.02                    -4.31907         178.885
6.04                    -4.31563          176.74
6.06                     -4.3125         174.636
6.08                    -4.30974          172.57
6.1                     -4.30744          170.54
6.12                    -4.30575         168.543
6.14                    -4.30485         166.575
6.16                    -4.30496         164.634
6.18                    -4.30635         162.718
6.2                     -4.30933         160.825
6.22                    -4.31425         158.953
6.24                    -4.32151           157.1
6.26                    -4.33152         155.266
6.28                    -4.34474         153.449
6.3                     -4.36162         151.651
6.32                    -4.38263         149.873
6.34                    -4.40825         148.114
6.36                    -4.43891         146.379
6.38                    -4.47502         144.669
6.4                     -4.51695         142.988
6.42                    -4.56498         141.341
6.44                    -4.61928         139.734
6.46                    -4.67991         138.173
6.48                    -4.74674         136.664
6.5                     -4.81948         135.215
