! TOUCHSTONE file generated by CST MICROWAVE STUDIO
! Date and time: Thu Oct 27 12:40:09 2022
! Project name: L.cst
! Parameters = {Di=1.27; Epsilon_r=1.56; InnerDiameter=1.27; Length=2; Lf=10; Lg=60; OuterConductorThickness=0.2921; OuterDiameter=3.6; Wf=3; Wp=41.2; de=1.5; df=6.8; g=0.8; gx=3.47424; gy=2.24355; h=2.34; hf=1.524; px=14.2249; py=8.25959; w=9.7; wx=10.7506; wy=6.01604}
! Header version: 2018
! Port assignment regex: !\s*Touchstone port\s*([0-9]+)\s*=\s*(CST MWS port|CST DS port)\s*([0-9]+|Zmin|Zmax)\s*\(\"(.*)\"\)(\s*mode\s*([0-9]+))?.*
! Touchstone port assignment:
! Touchstone port 1 = CST MWS port 1 ("")
# GHz S DB R 50
4.5                     -1.43499         70.5818
4.52                    -1.51184         68.2095
4.54                    -1.61007         65.8071
4.56                    -1.71282         63.4553
4.58                    -1.80649         61.0587
4.6                     -1.90273         58.5183
4.62                    -2.01695         55.8889
4.64                    -2.14355         53.2689
4.66                    -2.26778         50.6338
4.68                    -2.39107         47.8854
4.7                     -2.52755         45.0152
4.72                    -2.68038          42.106
4.74                    -2.83814         39.1854
4.76                    -2.99506         36.1827
4.78                    -3.16043         33.0475
4.8                     -3.34265          29.827
4.82                      -3.536         26.5777
4.84                    -3.73119         23.2685
4.86                    -3.93094          19.833
4.88                    -4.14502         16.2751
4.9                     -4.37387          12.655
4.92                    -4.60821           8.983
4.94                    -4.84433         5.19966
4.96                    -5.08959         1.27076
4.98                    -5.34932        -2.76225
5                       -5.61723        -6.85707
5.02                    -5.88472        -11.0453
5.04                    -6.15368        -15.3846
5.06                    -6.43153        -19.8675
5.08                    -6.71688        -24.4376
5.1                     -6.99931        -29.0846
5.12                    -7.27362        -33.8631
5.14                    -7.54536        -38.8024
5.16                    -7.81831        -43.8543
5.18                    -8.08439        -48.9647
5.2                     -8.33267        -54.1531
5.22                    -8.56323        -59.4692
5.24                    -8.78329        -64.8938
5.26                    -8.99159        -70.3454
5.28                    -9.17652        -75.7866
5.3                      -9.3318        -81.2566
5.32                    -9.46458        -86.7764
5.34                    -9.58247         -92.277
5.36                    -9.68009        -97.6731
5.38                    -9.74736        -102.967
5.4                     -9.78689        -108.213
5.42                    -9.81173        -113.397
5.44                    -9.82632        -118.429
5.46                     -9.8214        -123.264
5.48                    -9.79184        -127.961
5.5                     -9.74873        -132.575
5.52                    -9.70468        -137.052
5.54                    -9.65567        -141.312
5.56                    -9.58979         -145.38
5.58                    -9.50968        -149.355
5.6                     -9.43122        -153.249
5.62                    -9.35886        -156.971
5.64                    -9.27865        -160.489
5.66                    -9.18217        -163.906
5.68                    -9.08268        -167.309
5.7                     -8.99426        -170.636
5.72                    -8.90768        -173.798
5.74                    -8.80508        -176.862
5.76                    -8.69207        -179.982
5.78                    -8.59207         176.829
5.8                     -8.50939         173.701
5.82                    -8.42361         170.649
5.84                    -8.32946         167.497
5.86                    -8.25669         164.142
5.88                     -8.2311         160.739
5.9                     -8.23747         157.473
5.92                    -8.24963         154.253
5.94                    -8.28537         150.873
5.96                     -8.3895         147.436
5.98                     -8.5596         144.315
6                       -8.73632         141.594
6.02                    -8.89904         138.868
6.04                    -9.11977         135.943
6.06                    -9.45233          133.38
6.08                    -9.81095         131.769
6.1                     -10.0789         130.569
6.12                    -10.3595          128.84
6.14                    -10.8822         127.573
6.16                    -11.4951         129.765
6.18                    -11.3889         135.305
6.2                     -10.3166         136.976
6.22                    -9.27586         131.101
6.24                    -9.04121         120.787
6.26                    -9.81191         110.516
6.28                    -11.3667         104.689
6.3                     -12.9248         105.693
6.32                    -13.7466         109.017
6.34                     -14.415         109.417
6.36                    -15.7074         110.273
6.38                    -17.1919         117.925
6.4                     -17.6367         129.829
6.42                    -17.5002         138.109
6.44                    -17.6218         146.854
6.46                    -17.0608         159.886
6.48                     -15.351         168.635
6.5                     -13.7455          170.48
