! TOUCHSTONE file generated by CST MICROWAVE STUDIO
! Date and time: Fri Oct 28 04:03:09 2022
! Project name: L.cst
! Parameters = {Di=1.27; Epsilon_r=1.56; InnerDiameter=1.27; Length=2; Lf=10; Lg=60; OuterConductorThickness=0.2921; OuterDiameter=3.6; Wf=3; Wp=41.2; de=1.5; df=6.8; g=0.8; gx=0.594226; gy=4.56493; h=2.34; hf=1.524; px=8.63909; py=13.8834; w=9.7; wx=8.04487; wy=9.31848}
! Header version: 2018
! Port assignment regex: !\s*Touchstone port\s*([0-9]+)\s*=\s*(CST MWS port|CST DS port)\s*([0-9]+|Zmin|Zmax)\s*\(\"(.*)\"\)(\s*mode\s*([0-9]+))?.*
! Touchstone port assignment:
! Touchstone port 1 = CST MWS port 1 ("")
# GHz S DB R 50
4.5                    -0.627551         92.3436
4.52                   -0.647153         90.8881
4.54                   -0.667259         89.4148
4.56                   -0.688166         87.9239
4.58                   -0.710131          86.416
4.6                    -0.733363         84.8919
4.62                    -0.75802         83.3527
4.64                   -0.784203         81.7994
4.66                   -0.811972         80.2331
4.68                   -0.841338         78.6549
4.7                     -0.87228         77.0656
4.72                   -0.904751         75.4658
4.74                   -0.938683         73.8562
4.76                      -0.974         72.2371
4.78                    -1.01062         70.6085
4.8                     -1.04848         68.9703
4.82                    -1.08752         67.3224
4.84                    -1.12768         65.6645
4.86                    -1.16896          63.996
4.88                    -1.21133         62.3166
4.9                     -1.25483         60.6257
4.92                     -1.2995         58.9228
4.94                     -1.3454         57.2076
4.96                    -1.39262         55.4796
4.98                    -1.44125         53.7388
5                       -1.49139         51.9849
5.02                    -1.54316         50.2181
5.04                    -1.59669         48.4384
5.06                    -1.65207         46.6462
5.08                    -1.70943          44.842
5.1                     -1.76887         43.0264
5.12                    -1.83049         41.1999
5.14                    -1.89435         39.3634
5.16                    -1.96053         37.5177
5.18                    -2.02907         35.6638
5.2                     -2.10002         33.8026
5.22                    -2.17338         31.9351
5.24                    -2.24917         30.0623
5.26                    -2.32737         28.1852
5.28                    -2.40797         26.3046
5.3                     -2.49093         24.4216
5.32                    -2.57622         22.5371
5.34                    -2.66379         20.6519
5.36                    -2.75359          18.767
5.38                    -2.84557         16.8831
5.4                     -2.93969         15.0011
5.42                     -3.0359         13.1218
5.44                    -3.13414          11.246
5.46                    -3.23436         9.37472
5.48                    -3.33653         7.50877
5.5                     -3.44059         5.64918
5.52                    -3.54649         3.79701
5.54                    -3.65418         1.95343
5.56                    -3.76357        0.119702
5.58                    -3.87458        -1.70281
5.6                     -3.98712        -3.51265
5.62                    -4.10104        -5.30829
5.64                    -4.21619        -7.08812
5.66                    -4.33235        -8.85052
5.68                     -4.4493        -10.5939
5.7                     -4.56674        -12.3167
5.72                    -4.68433        -14.0175
5.74                    -4.80168        -15.6953
5.76                    -4.91835         -17.349
5.78                    -5.03388        -18.9784
5.8                     -5.14773        -20.5835
5.82                    -5.25936        -22.1651
5.84                    -5.36824        -23.7244
5.86                    -5.47381        -25.2637
5.88                     -5.5756         -26.786
5.9                     -5.67318        -28.2952
5.92                    -5.76621         -29.796
5.94                    -5.85451        -31.2938
5.96                    -5.93806        -32.7947
5.98                    -6.01702        -34.3054
6                       -6.09181        -35.8326
6.02                    -6.16305        -37.3832
6.04                    -6.23165        -38.9635
6.06                    -6.29878        -40.5795
6.08                    -6.36584         -42.236
6.1                     -6.43451        -43.9367
6.12                    -6.50669        -45.6834
6.14                     -6.5845        -47.4762
6.16                    -6.67022        -49.3131
6.18                    -6.76631        -51.1893
6.2                     -6.87534        -53.0974
6.22                    -6.99997        -55.0266
6.24                    -7.14291        -56.9627
6.26                    -7.30689        -58.8872
6.28                    -7.49457        -60.7771
6.3                     -7.70846        -62.6035
6.32                    -7.95077        -64.3309
6.34                    -8.22323        -65.9164
6.36                    -8.52673        -67.3074
6.38                    -8.86087        -68.4414
6.4                     -9.22321        -69.2442
6.42                    -9.60827        -69.6311
6.44                    -10.0061        -69.5095
6.46                    -10.4006        -68.7881
6.48                    -10.7682        -67.3939
6.5                      -11.077        -65.3008
