! TOUCHSTONE file generated by CST MICROWAVE STUDIO
! Date and time: Sat Oct 29 22:28:29 2022
! Project name: L.cst
! Parameters = {Di=1.27; Epsilon_r=1.56; InnerDiameter=1.27; Length=2; Lf=10; Lg=60; OuterConductorThickness=0.2921; OuterDiameter=3.6; Wf=3; Wp=41.2; de=1.5; df=6.8; g=0.8; gx=4.994; gy=3.74839; h=2.34; hf=1.524; px=13.1165; py=10.4348; w=9.7; wx=8.12255; wy=6.68645}
! Header version: 2018
! Port assignment regex: !\s*Touchstone port\s*([0-9]+)\s*=\s*(CST MWS port|CST DS port)\s*([0-9]+|Zmin|Zmax)\s*\(\"(.*)\"\)(\s*mode\s*([0-9]+))?.*
! Touchstone port assignment:
! Touchstone port 1 = CST MWS port 1 ("")
# GHz S DB R 50
4.5                    -0.404112         95.3856
4.52                   -0.415909         93.8972
4.54                   -0.428298         92.3939
4.56                   -0.441296         90.8758
4.58                   -0.454907         89.3431
4.6                    -0.469128         87.7956
4.62                   -0.483951         86.2335
4.64                    -0.49936         84.6567
4.66                   -0.515339         83.0651
4.68                   -0.531866         81.4585
4.7                    -0.548925         79.8367
4.72                   -0.566496         78.1996
4.74                   -0.584561         76.5468
4.76                   -0.603106         74.8781
4.78                   -0.622121         73.1931
4.8                    -0.641595         71.4915
4.82                   -0.661526          69.773
4.84                   -0.681911         68.0372
4.86                   -0.702751         66.2838
4.88                   -0.724054         64.5125
4.9                    -0.745826          62.723
4.92                   -0.768079         60.9149
4.94                   -0.790826         59.0879
4.96                   -0.814082         57.2419
4.98                   -0.837862         55.3765
5                      -0.862186         53.4916
5.02                   -0.887069          51.587
5.04                   -0.912529         49.6626
5.06                   -0.938584         47.7182
5.08                   -0.965249         45.7538
5.1                     -0.99254         43.7694
5.12                    -1.02047         41.7648
5.14                    -1.04905         39.7403
5.16                    -1.07828         37.6957
5.18                    -1.10819         35.6313
5.2                     -1.13876         33.5472
5.22                       -1.17         31.4435
5.24                     -1.2019         29.3204
5.26                    -1.23447         27.1784
5.28                     -1.2677         25.0174
5.3                     -1.30156         22.8379
5.32                    -1.33606         20.6402
5.34                    -1.37117         18.4247
5.36                    -1.40687         16.1919
5.38                    -1.44314         13.9421
5.4                     -1.47995         11.6758
5.42                    -1.51727         9.39364
5.44                    -1.55508         7.09605
5.46                    -1.59335         4.78365
5.48                    -1.63203         2.45705
5.5                     -1.67109        0.116902
5.52                    -1.71049        -2.23611
5.54                     -1.7502        -4.60128
5.56                    -1.79017        -6.97785
5.58                    -1.83037        -9.36503
5.6                     -1.87074         -11.762
5.62                    -1.91126         -14.168
5.64                    -1.95187         -16.582
5.66                    -1.99253        -19.0033
5.68                    -2.03321        -21.4308
5.7                     -2.07385        -23.8635
5.72                    -2.11442        -26.3007
5.74                    -2.15487        -28.7411
5.76                    -2.19517        -31.1838
5.78                    -2.23526        -33.6277
5.8                     -2.27513        -36.0719
5.82                    -2.31471        -38.5153
5.84                    -2.35398        -40.9567
5.86                    -2.39289        -43.3951
5.88                    -2.43142        -45.8295
5.9                     -2.46951        -48.2587
5.92                    -2.50714        -50.6817
5.94                    -2.54427        -53.0975
5.96                    -2.58086         -55.505
5.98                    -2.61687        -57.9033
6                       -2.65228        -60.2914
6.02                    -2.68704        -62.6683
6.04                    -2.72112        -65.0332
6.06                    -2.75448        -67.3852
6.08                     -2.7871        -69.7236
6.1                     -2.81894        -72.0476
6.12                    -2.84996        -74.3565
6.14                    -2.88015        -76.6497
6.16                    -2.90946        -78.9268
6.18                    -2.93788        -81.1872
6.2                     -2.96538        -83.4306
6.22                    -2.99195        -85.6567
6.24                    -3.01757        -87.8653
6.26                    -3.04225        -90.0561
6.28                    -3.06599        -92.2294
6.3                     -3.08879        -94.3849
6.32                    -3.11068        -96.5227
6.34                     -3.1317        -98.6431
6.36                    -3.15189        -100.746
6.38                     -3.1713        -102.832
6.4                        -3.19        -104.901
6.42                     -3.2081        -106.953
6.44                    -3.22567        -108.989
6.46                    -3.24283        -111.009
6.48                    -3.25972        -113.013
6.5                     -3.27647        -115.001
