! TOUCHSTONE file generated by CST MICROWAVE STUDIO
! Date and time: Thu Oct 27 01:24:15 2022
! Project name: L.cst
! Parameters = {Di=1.27; Epsilon_r=1.56; InnerDiameter=1.27; Length=2; Lf=10; Lg=60; OuterConductorThickness=0.2921; OuterDiameter=3.6; Wf=3; Wp=41.2; de=1.5; df=6.8; g=0.8; gx=2.8076; gy=1.90597; h=2.34; hf=1.524; px=14.3378; py=12.9217; w=9.7; wx=11.5302; wy=11.0157}
! Header version: 2018
! Port assignment regex: !\s*Touchstone port\s*([0-9]+)\s*=\s*(CST MWS port|CST DS port)\s*([0-9]+|Zmin|Zmax)\s*\(\"(.*)\"\)(\s*mode\s*([0-9]+))?.*
! Touchstone port assignment:
! Touchstone port 1 = CST MWS port 1 ("")
# GHz S DB R 50
4.5                     -3.10958         57.0038
4.52                    -3.34958         54.2749
4.54                    -3.60463         51.5605
4.56                    -3.87107         48.7286
4.58                    -4.16976         45.7998
4.6                      -4.4919         42.8739
4.62                    -4.83017         39.8467
4.64                    -5.20411         36.7029
4.66                    -5.61086         33.5464
4.68                    -6.04057         30.2996
4.7                     -6.51122         26.9131
4.72                    -7.02604         23.4874
4.74                    -7.57387         19.9697
4.76                    -8.17103         16.2746
4.78                    -8.82775         12.4875
4.8                     -9.53303         8.57493
4.82                    -10.3018         4.40286
4.84                    -11.1531         0.01519
4.86                    -12.0788        -4.62301
4.88                    -13.0922         -9.7412
4.9                      -14.225        -15.4214
4.92                     -15.473        -21.7927
4.94                    -16.8384        -29.3587
4.96                    -18.3456        -38.6602
4.98                    -19.9411        -50.3114
5                       -21.4515        -65.4273
5.02                     -22.582        -84.6439
5.04                    -22.9413        -106.161
5.06                    -22.3973        -126.279
5.08                    -21.2929        -142.721
5.1                     -20.0477        -155.352
5.12                      -18.85        -164.901
5.14                    -17.7476        -172.402
5.16                    -16.7772         -178.58
5.18                    -15.9346         176.322
5.2                     -15.1822         172.015
5.22                    -14.5163         168.208
5.24                    -13.9339         164.896
5.26                    -13.4036         162.025
5.28                    -12.9172         159.422
5.3                     -12.4768         157.109
5.32                    -12.0571         155.095
5.34                    -11.6475         153.229
5.36                     -11.253           151.5
5.38                    -10.8546         149.908
5.4                     -10.4435         148.283
5.42                    -10.0331         146.556
5.44                      -9.619         144.716
5.46                    -9.20517         142.606
5.48                    -8.82061         140.187
5.5                     -8.47787         137.552
5.52                    -8.18498         134.705
5.54                    -7.96609         131.742
5.56                    -7.82162         128.901
5.58                    -7.73242         126.279
5.6                     -7.69643          123.94
5.62                    -7.69568          122.07
5.64                    -7.69007         120.667
5.66                    -7.66846         119.623
5.68                    -7.61474         118.999
5.7                     -7.48633         118.656
5.72                    -7.28513         118.293
5.74                    -7.02037         117.887
5.76                    -6.66722         117.246
5.78                    -6.25938         116.005
5.8                     -5.84178         114.277
5.82                    -5.39063         112.028
5.84                    -4.95626         108.805
5.86                    -4.66005         104.982
5.88                    -4.46441         101.543
5.9                     -4.21573         98.3418
5.92                    -3.92627         94.3913
5.94                    -3.72769         89.6474
5.96                    -3.64326         84.6914
5.98                    -3.63313         79.5868
6                       -3.71885          74.148
6.02                    -3.94899         68.4793
6.04                    -4.36037         62.7716
6.06                    -5.03125         57.2743
6.08                    -6.11353          53.134
6.1                     -7.59832            54.1
6.12                    -8.35417         64.2658
6.14                    -6.96582         72.4767
6.16                    -5.10367         67.7502
6.18                    -4.10745         55.3145
6.2                     -3.98016         39.7294
6.22                    -4.57605          20.514
6.24                     -6.2691        -6.36029
6.26                    -9.73793        -50.4893
6.28                     -11.415        -130.718
6.3                     -7.23015         167.298
6.32                    -4.27082         133.245
6.34                    -2.87399         110.337
6.36                    -2.33301         94.2135
6.38                    -2.10758         83.0275
6.4                     -1.82389         74.4627
6.42                    -1.49905         65.8456
6.44                    -1.40544         56.9994
6.46                    -1.50034          49.593
6.48                     -1.4895          43.123
6.5                     -1.46637         35.7024
