! TOUCHSTONE file generated by CST MICROWAVE STUDIO
! Date and time: Wed Oct 26 22:07:00 2022
! Project name: L.cst
! Parameters = {Di=1.27; Epsilon_r=1.56; InnerDiameter=1.27; Length=2; Lf=10; Lg=60; OuterConductorThickness=0.2921; OuterDiameter=3.6; Wf=3; Wp=41.2; de=1.5; df=6.8; g=0.8; gx=4.51742; gy=2.35606; h=2.34; hf=1.524; px=12.0983; py=14.5677; w=9.7; wx=7.58083; wy=12.2116}
! Header version: 2018
! Port assignment regex: !\s*Touchstone port\s*([0-9]+)\s*=\s*(CST MWS port|CST DS port)\s*([0-9]+|Zmin|Zmax)\s*\(\"(.*)\"\)(\s*mode\s*([0-9]+))?.*
! Touchstone port assignment:
! Touchstone port 1 = CST MWS port 1 ("")
# GHz S DB R 50
4.5                    -0.513401         86.0011
4.52                   -0.565251         84.6151
4.54                     -0.5956         82.6706
4.56                   -0.574929         81.0761
4.58                   -0.624809          79.536
4.6                    -0.650217         77.5568
4.62                   -0.640677         75.8831
4.64                   -0.689151         74.1943
4.66                   -0.711932         72.1578
4.68                   -0.711567         70.3844
4.7                    -0.759305         68.5436
4.72                   -0.781104          66.426
4.74                   -0.788673         64.5297
4.76                    -0.83656         62.5269
4.78                   -0.858513         60.3009
4.8                    -0.873507         58.2553
4.82                   -0.922226         56.0727
4.84                   -0.945366         53.7043
4.86                   -0.967759         51.4774
4.88                    -1.01803         49.0854
4.9                     -1.04369         46.5324
4.92                    -1.07385         44.0819
4.94                    -1.12685         41.4358
4.96                    -1.15673         38.6433
4.98                    -1.19586         35.9094
5                       -1.25367         32.9439
5.02                    -1.29053         29.8355
5.04                    -1.34162          26.733
5.06                    -1.40821         23.3533
5.08                    -1.45744         19.8213
5.1                     -1.52689         16.2273
5.12                    -1.61046          12.297
5.14                    -1.68277         8.19044
5.16                    -1.78393         3.93231
5.18                    -1.90077       -0.735659
5.2                     -2.01706        -5.62012
5.22                    -2.17561        -10.7693
5.24                    -2.35571        -16.4122
5.26                     -2.5533         -22.321
5.28                    -2.81267        -28.6275
5.3                     -3.10417        -35.5062
5.32                    -3.43975        -42.6948
5.34                    -3.86016        -50.4249
5.36                     -4.3235        -58.7708
5.38                    -4.86074        -67.4483
5.4                     -5.49415        -76.8156
5.42                    -6.16173        -86.7672
5.44                    -6.91043        -97.0678
5.46                    -7.70787        -108.223
5.48                    -8.46522        -119.814
5.5                     -9.23188        -131.827
5.52                    -9.87506        -144.714
5.54                    -10.3296        -157.537
5.56                    -10.6465        -170.651
5.58                    -10.6538         176.116
5.6                      -10.453         163.746
5.62                    -10.0873         151.311
5.64                    -9.47402         139.407
5.66                    -8.81448         128.027
5.68                    -8.06745         116.092
5.7                      -7.2367         104.239
5.72                    -6.48504         91.6421
5.74                    -5.71421           77.54
5.76                    -5.02684         62.1213
5.78                    -4.54599         43.5432
5.8                     -4.29431         20.7837
5.82                     -4.7436        -7.67936
5.84                    -6.14751        -43.7879
5.86                    -8.22263        -86.4816
5.88                    -9.18472        -137.521
5.9                     -7.77494         176.126
5.92                     -5.7371         138.626
5.94                    -3.90129         108.424
5.96                    -2.87073         81.2375
5.98                    -2.35955         53.0722
6                       -3.08756         20.7983
6.02                     -9.2538        -32.5068
6.04                    -10.6456         109.011
6.06                    -4.05842         63.7913
6.08                    -2.78514         36.6174
6.1                     -2.34203         15.4342
6.12                    -2.61541        -3.66269
6.14                    -3.05982        -27.7942
6.16                    -4.05953        -55.3316
6.18                    -11.7719        -155.866
6.2                       -3.121         12.2009
6.22                    -2.09913        -61.8504
6.24                    -2.27652        -107.102
6.26                     -2.0043        -163.199
6.28                     -1.0093         148.551
6.3                    -0.692993         105.895
6.32                   -0.302285         76.2383
6.34                   -0.624064         54.3151
6.36                   -0.639723         36.1822
6.38                   -0.793639         24.2984
6.4                     -1.16451         12.4293
6.42                     -1.1175         2.69319
6.44                    -1.37693        -4.08562
6.46                    -1.64202        -12.7582
6.48                    -1.54485        -19.0564
6.5                     -1.86275        -23.9411
