! TOUCHSTONE file generated by CST MICROWAVE STUDIO
! Date and time: Fri Oct 28 09:58:50 2022
! Project name: L.cst
! Parameters = {Di=1.27; Epsilon_r=1.56; InnerDiameter=1.27; Length=2; Lf=10; Lg=60; OuterConductorThickness=0.2921; OuterDiameter=3.6; Wf=3; Wp=41.2; de=1.5; df=6.8; g=0.8; gx=2.62288; gy=4.38148; h=2.34; hf=1.524; px=8.08805; py=14.6262; w=9.7; wx=5.46518; wy=10.2447}
! Header version: 2018
! Port assignment regex: !\s*Touchstone port\s*([0-9]+)\s*=\s*(CST MWS port|CST DS port)\s*([0-9]+|Zmin|Zmax)\s*\(\"(.*)\"\)(\s*mode\s*([0-9]+))?.*
! Touchstone port assignment:
! Touchstone port 1 = CST MWS port 1 ("")
# GHz S DB R 50
4.5                    -0.313315          94.713
4.52                    -0.32709         93.2545
4.54                   -0.345449         91.8407
4.56                   -0.360465         90.4697
4.58                   -0.367888         89.1017
4.6                    -0.369759         87.6939
4.62                   -0.371996          86.232
4.64                   -0.379508         84.7365
4.66                   -0.392765          83.243
4.68                   -0.408054         81.7738
4.7                    -0.420728         80.3236
4.72                   -0.428745         78.8663
4.74                   -0.433858          77.377
4.76                   -0.439865         75.8503
4.78                   -0.449571         74.3014
4.8                    -0.462834         72.7529
4.82                   -0.477003         71.2173
4.84                   -0.489133         69.6883
4.86                   -0.498208          68.148
4.88                   -0.505712         66.5806
4.9                    -0.514284         64.9846
4.92                   -0.525648         63.3721
4.94                   -0.539415         61.7587
4.96                   -0.553547         60.1518
4.98                   -0.566004         58.5453
5                      -0.576277         56.9256
5.02                    -0.58566          55.282
5.04                   -0.596151         53.6147
5.06                   -0.608908         51.9339
5.08                   -0.623426         50.2517
5.1                    -0.638011         48.5728
5.12                   -0.651114         46.8912
5.14                   -0.662491         45.1957
5.16                   -0.673323         43.4784
5.18                   -0.685261         41.7405
5.2                    -0.699144         39.9915
5.22                   -0.714389         38.2412
5.24                   -0.729466         36.4929
5.26                   -0.743083         34.7406
5.28                   -0.755163         32.9741
5.3                    -0.766879          31.187
5.32                    -0.77973         29.3814
5.34                   -0.794384         27.5665
5.36                   -0.810162         25.7516
5.38                    -0.82555         23.9389
5.4                     -0.83935         22.1221
5.42                   -0.851612         20.2909
5.44                   -0.863591         18.4396
5.46                   -0.876798         16.5711
5.48                   -0.891822         14.6953
5.5                     -0.90784         12.8216
5.52                    -0.92321         10.9517
5.54                   -0.936717         9.07804
5.56                   -0.948544         7.18939
5.58                   -0.960187          5.2798
5.6                    -0.973344         3.35355
5.62                   -0.988588          1.4225
5.64                    -1.00484       -0.502658
5.66                    -1.02013        -2.42078
5.68                    -1.03305        -4.34177
5.7                     -1.04395        -6.27944
5.72                    -1.05482         -8.2407
5.74                    -1.06779        -10.2193
5.76                    -1.08349        -12.1996
5.78                     -1.1004        -14.1678
5.8                     -1.11582        -16.1235
5.82                    -1.12792        -18.0809
5.84                    -1.13734        -20.0597
5.86                    -1.14696         -22.069
5.88                    -1.15988        -24.0993
5.9                     -1.17691        -26.1272
5.92                    -1.19563        -28.1328
5.94                    -1.21185        -30.1163
5.96                    -1.22278        -32.1016
5.98                    -1.22959        -34.1208
6                       -1.23715        -36.1892
6.02                    -1.25069        -38.2904
6.04                    -1.27161        -40.3846
6.06                    -1.29561        -42.4373
6.08                    -1.31511        -44.4499
6.1                     -1.32492        -46.4687
6.12                    -1.32739         -48.557
6.14                    -1.33242        -50.7483
6.16                    -1.35124        -53.0123
6.18                    -1.38778        -55.2661
6.2                     -1.43363        -57.4313
6.22                    -1.47168        -59.5067
6.24                    -1.48892         -61.604
6.26                    -1.49126        -63.9002
6.28                    -1.50859        -66.5169
6.3                     -1.58418         -69.401
6.32                     -1.7532        -72.2792
6.34                    -2.01946         -74.709
6.36                     -2.3365        -76.2289
6.38                    -2.60445        -76.6255
6.4                     -2.70599        -76.2303
6.42                    -2.58389        -75.9243
6.44                    -2.29253        -76.6346
6.46                    -1.95926        -78.7754
6.48                    -1.70601        -82.1673
6.5                     -1.60582        -86.2932
