! TOUCHSTONE file generated by CST MICROWAVE STUDIO
! Date and time: Thu Oct 27 00:05:09 2022
! Project name: L.cst
! Parameters = {Di=1.27; Epsilon_r=1.56; InnerDiameter=1.27; Length=2; Lf=10; Lg=60; OuterConductorThickness=0.2921; OuterDiameter=3.6; Wf=3; Wp=41.2; de=1.5; df=6.8; g=0.8; gx=3.2956; gy=2.38765; h=2.34; hf=1.524; px=13.0814; py=12.4869; w=9.7; wx=9.78578; wy=10.0992}
! Header version: 2018
! Port assignment regex: !\s*Touchstone port\s*([0-9]+)\s*=\s*(CST MWS port|CST DS port)\s*([0-9]+|Zmin|Zmax)\s*\(\"(.*)\"\)(\s*mode\s*([0-9]+))?.*
! Touchstone port assignment:
! Touchstone port 1 = CST MWS port 1 ("")
# GHz S DB R 50
4.5                    -0.926328         78.1436
4.52                   -0.974894         76.1769
4.54                    -1.03112         74.2027
4.56                    -1.09249         72.2303
4.58                    -1.15628         70.2599
4.6                     -1.22016         68.2836
4.62                    -1.28264         66.2878
4.64                     -1.3433         64.2562
4.66                    -1.40277         62.1736
4.68                    -1.46248         60.0284
4.7                     -1.52429         57.8141
4.72                    -1.59009         55.5298
4.74                    -1.66146          53.179
4.76                    -1.73942         50.7684
4.78                    -1.82433         48.3054
4.8                     -1.91594         45.7967
4.82                    -2.01353         43.2463
4.84                    -2.11613         40.6548
4.86                     -2.2228         38.0193
4.88                    -2.33278         35.3338
4.9                     -2.44572         32.5902
4.92                     -2.5617         29.7796
4.94                    -2.68122          26.894
4.96                    -2.80513         23.9267
4.98                    -2.93439          20.874
5                       -3.06998         17.7342
5.02                    -3.21266         14.5081
5.04                    -3.36287          11.198
5.06                    -3.52069         7.80664
5.08                    -3.68582         4.33648
5.1                     -3.85761        0.788656
5.12                     -4.0352        -2.83745
5.14                    -4.21762        -6.54448
5.16                    -4.40395        -10.3369
5.18                    -4.59336        -14.2204
5.2                     -4.78524        -18.2012
5.22                    -4.97915        -22.2851
5.24                    -5.17482        -26.4765
5.26                    -5.37206        -30.7774
5.28                    -5.57061        -35.1878
5.3                     -5.77004        -39.7044
5.32                    -5.96965        -44.3215
5.34                    -6.16837        -49.0312
5.36                    -6.36473        -53.8241
5.38                     -6.5569        -58.6897
5.4                     -6.74277        -63.6176
5.42                    -6.92007        -68.5976
5.44                    -7.08652        -73.6202
5.46                    -7.24004        -78.6766
5.48                    -7.37891        -83.7585
5.5                     -7.50188        -88.8577
5.52                    -7.60828        -93.9652
5.54                      -7.698        -99.0707
5.56                    -7.77145        -104.162
5.58                    -7.82939        -109.227
5.6                     -7.87283        -114.248
5.62                    -7.90278         -119.21
5.64                    -7.92011        -124.095
5.66                    -7.92545         -128.89
5.68                     -7.9191        -133.581
5.7                     -7.90109        -138.159
5.72                    -7.87131        -142.621
5.74                    -7.82966        -146.968
5.76                    -7.77631        -151.208
5.78                    -7.71189         -155.35
5.8                     -7.63766        -159.409
5.82                    -7.55554        -163.398
5.84                    -7.46806        -167.329
5.86                    -7.37813        -171.209
5.88                    -7.28872        -175.042
5.9                     -7.20253        -178.824
5.92                    -7.12165         177.452
5.94                    -7.04727         173.795
5.96                    -6.97953         170.216
5.98                    -6.91753         166.724
6                       -6.85954         163.323
6.02                    -6.80336         160.008
6.04                    -6.74688         156.768
6.06                    -6.68863         153.583
6.08                    -6.62837         150.431
6.1                     -6.56738         147.287
6.12                    -6.50846         144.132
6.14                    -6.45561         140.954
6.16                     -6.4133         137.758
6.18                    -6.38544         134.562
6.2                     -6.37436           131.4
6.22                    -6.37962         128.314
6.24                    -6.39708         125.351
6.26                    -6.41833         122.546
6.28                    -6.43091         119.913
6.3                     -6.41973         117.425
6.32                    -6.36991         115.004
6.34                    -6.27079          112.52
6.36                    -6.12001         109.801
6.38                    -5.92583         106.669
6.4                     -5.70685         102.963
6.42                    -5.48922         98.5697
6.44                    -5.30303         93.4274
6.46                    -5.17927         87.5224
6.48                    -5.14826         80.8754
6.5                     -5.23978         73.5269
