! TOUCHSTONE file generated by CST MICROWAVE STUDIO
! Date and time: Thu Oct 27 17:30:35 2022
! Project name: L.cst
! Parameters = {Di=1.27; Epsilon_r=1.56; InnerDiameter=1.27; Length=2; Lf=10; Lg=60; OuterConductorThickness=0.2921; OuterDiameter=3.6; Wf=3; Wp=41.2; de=1.5; df=6.8; g=0.8; gx=2.743; gy=2.02359; h=2.34; hf=1.524; px=8.54025; py=10.284; w=9.7; wx=5.79725; wy=8.26041}
! Header version: 2018
! Port assignment regex: !\s*Touchstone port\s*([0-9]+)\s*=\s*(CST MWS port|CST DS port)\s*([0-9]+|Zmin|Zmax)\s*\(\"(.*)\"\)(\s*mode\s*([0-9]+))?.*
! Touchstone port assignment:
! Touchstone port 1 = CST MWS port 1 ("")
# GHz S DB R 50
4.5                    -0.404151         82.5213
4.52                     -0.4144         81.0049
4.54                   -0.425086         79.4723
4.56                   -0.436237         77.9234
4.58                   -0.447873         76.3584
4.6                        -0.46         74.7772
4.62                   -0.472618         73.1798
4.64                   -0.485716         71.5662
4.66                   -0.499283         69.9363
4.68                   -0.513299         68.2901
4.7                    -0.527744         66.6271
4.72                   -0.542597         64.9474
4.74                   -0.557835         63.2507
4.76                   -0.573437         61.5366
4.78                   -0.589383         59.8049
4.8                    -0.605654         58.0552
4.82                   -0.622235         56.2872
4.84                    -0.63911         54.5006
4.86                    -0.65627         52.6949
4.88                   -0.673706         50.8699
4.9                    -0.691412         49.0251
4.92                   -0.709385         47.1603
4.94                   -0.727622          45.275
4.96                   -0.746126         43.3689
4.98                   -0.764897         41.4419
5                      -0.783939         39.4935
5.02                   -0.803256         37.5235
5.04                    -0.82285         35.5318
5.06                   -0.842726          33.518
5.08                   -0.862888         31.4821
5.1                    -0.883338          29.424
5.12                   -0.904078         27.3434
5.14                   -0.925109         25.2405
5.16                   -0.946426          23.115
5.18                   -0.968029         20.9672
5.2                     -0.98991         18.7969
5.22                    -1.01206         16.6043
5.24                    -1.03447         14.3895
5.26                    -1.05713         12.1528
5.28                    -1.08003         9.89409
5.3                     -1.10313          7.6138
5.32                    -1.12643         5.31217
5.34                     -1.1499         2.98949
5.36                    -1.17352        0.646107
5.38                    -1.19726         -1.7176
5.4                     -1.22109        -4.10122
5.42                    -1.24497        -6.50429
5.44                    -1.26889        -8.92634
5.46                     -1.2928        -11.3668
5.48                    -1.31667        -13.8252
5.5                     -1.34046        -16.3008
5.52                    -1.36414        -18.7932
5.54                    -1.38767        -21.3014
5.56                    -1.41102         -23.825
5.58                    -1.43416        -26.3631
5.6                     -1.45704         -28.915
5.62                    -1.47964        -31.4798
5.64                    -1.50192        -34.0568
5.66                    -1.52385        -36.6451
5.68                    -1.54541        -39.2438
5.7                     -1.56656        -41.8519
5.72                    -1.58729        -44.4686
5.74                    -1.60756        -47.0929
5.76                    -1.62737        -49.7238
5.78                    -1.64668        -52.3603
5.8                      -1.6655        -55.0015
5.82                    -1.68379        -57.6462
5.84                    -1.70157        -60.2936
5.86                    -1.71881        -62.9426
5.88                    -1.73551        -65.5922
5.9                     -1.75167        -68.2413
5.92                    -1.76729        -70.8889
5.94                    -1.78237        -73.5342
5.96                    -1.79691         -76.176
5.98                    -1.81091        -78.8136
6                       -1.82439        -81.4459
6.02                    -1.83734         -84.072
6.04                    -1.84977        -86.6912
6.06                    -1.86169        -89.3026
6.08                     -1.8731        -91.9055
6.1                     -1.88403        -94.4992
6.12                    -1.89446         -97.083
6.14                    -1.90442        -99.6563
6.16                     -1.9139        -102.219
6.18                    -1.92293         -104.77
6.2                     -1.93151        -107.309
6.22                    -1.93965        -109.836
6.24                    -1.94737         -112.35
6.26                    -1.95468        -114.853
6.28                     -1.9616        -117.342
6.3                     -1.96817        -119.819
6.32                    -1.97439        -122.284
6.34                    -1.98032        -124.737
6.36                    -1.98599        -127.178
6.38                    -1.99146        -129.607
6.4                     -1.99678        -132.024
6.42                    -2.00203        -134.431
6.44                    -2.00728        -136.828
6.46                    -2.01264        -139.215
6.48                    -2.01822        -141.593
6.5                     -2.02413        -143.962
