! TOUCHSTONE file generated by CST MICROWAVE STUDIO
! Date and time: Thu Oct 27 22:41:49 2022
! Project name: L.cst
! Parameters = {Di=1.27; Epsilon_r=1.56; InnerDiameter=1.27; Length=2; Lf=10; Lg=60; OuterConductorThickness=0.2921; OuterDiameter=3.6; Wf=3; Wp=41.2; de=1.5; df=6.8; g=0.8; gx=3.76693; gy=4.74539; h=2.34; hf=1.524; px=8.68638; py=11.8731; w=9.7; wx=4.91945; wy=7.12775}
! Header version: 2018
! Port assignment regex: !\s*Touchstone port\s*([0-9]+)\s*=\s*(CST MWS port|CST DS port)\s*([0-9]+|Zmin|Zmax)\s*\(\"(.*)\"\)(\s*mode\s*([0-9]+))?.*
! Touchstone port assignment:
! Touchstone port 1 = CST MWS port 1 ("")
# GHz S DB R 50
4.5                     -0.27985         97.8767
4.52                   -0.286689         96.4859
4.54                   -0.293656         95.0862
4.56                   -0.300753         93.6776
4.58                   -0.307985         92.2601
4.6                    -0.315355         90.8337
4.62                    -0.32286         89.3982
4.64                   -0.330501         87.9536
4.66                   -0.338277         86.4998
4.68                   -0.346185         85.0368
4.7                    -0.354224         83.5646
4.72                   -0.362389         82.0831
4.74                   -0.370679         80.5921
4.76                   -0.379092         79.0917
4.78                   -0.387623         77.5818
4.8                    -0.396273         76.0623
4.82                   -0.405038         74.5331
4.84                   -0.413917         72.9943
4.86                   -0.422908         71.4458
4.88                   -0.432012         69.8875
4.9                    -0.441226         68.3194
4.92                   -0.450551         66.7415
4.94                   -0.459987         65.1537
4.96                   -0.469533         63.5562
4.98                   -0.479189         61.9487
5                      -0.488957         60.3315
5.02                   -0.498835         58.7044
5.04                   -0.508825         57.0676
5.06                   -0.518926          55.421
5.08                   -0.529138         53.7648
5.1                    -0.539459          52.099
5.12                   -0.549892         50.4237
5.14                   -0.560433         48.7389
5.16                   -0.571082         47.0448
5.18                   -0.581837         45.3416
5.2                    -0.592696         43.6293
5.22                   -0.603656          41.908
5.24                   -0.614715          40.178
5.26                    -0.62587         38.4394
5.28                   -0.637116         36.6924
5.3                    -0.648451         34.9371
5.32                   -0.659867         33.1738
5.34                   -0.671362         31.4026
5.36                   -0.682931         29.6239
5.38                   -0.694566         27.8378
5.4                    -0.706262         26.0447
5.42                   -0.718013         24.2446
5.44                   -0.729811          22.438
5.46                   -0.741651         20.6251
5.48                   -0.753525         18.8062
5.5                    -0.765425         16.9815
5.52                   -0.777345         15.1515
5.54                   -0.789275         13.3164
5.56                   -0.801208         11.4766
5.58                   -0.813136         9.63229
5.6                    -0.825052         7.78397
5.62                   -0.836945         5.93194
5.64                   -0.848808         4.07656
5.66                   -0.860633          2.2182
5.68                   -0.872411        0.357249
5.7                    -0.884133        -1.50592
5.72                    -0.89579        -3.37092
5.74                   -0.907373        -5.23736
5.76                   -0.918873         -7.1048
5.78                   -0.930281        -8.97294
5.8                    -0.941589        -10.8413
5.82                   -0.952785        -12.7095
5.84                   -0.963862        -14.5771
5.86                   -0.974808        -16.4437
5.88                   -0.985615         -18.309
5.9                    -0.996272        -20.1725
5.92                    -1.00677        -22.0338
5.94                    -1.01709        -23.8926
5.96                    -1.02723        -25.7483
5.98                    -1.03719        -27.6008
6                       -1.04693        -29.4496
6.02                    -1.05647        -31.2943
6.04                    -1.06577        -33.1345
6.06                    -1.07484        -34.9701
6.08                    -1.08366        -36.8005
6.1                     -1.09223        -38.6256
6.12                    -1.10052         -40.445
6.14                    -1.10854        -42.2584
6.16                    -1.11627        -44.0657
6.18                     -1.1237        -45.8664
6.2                     -1.13083        -47.6605
6.22                    -1.13765        -49.4477
6.24                    -1.14415        -51.2279
6.26                    -1.15034        -53.0008
6.28                    -1.15621        -54.7663
6.3                     -1.16176        -56.5244
6.32                      -1.167        -58.2748
6.34                    -1.17193        -60.0176
6.36                    -1.17656        -61.7525
6.38                    -1.18091        -63.4795
6.4                     -1.18498        -65.1986
6.42                     -1.1888        -66.9097
6.44                    -1.19239        -68.6127
6.46                    -1.19576        -70.3075
6.48                    -1.19895        -71.9941
6.5                     -1.20199        -73.6724
