! TOUCHSTONE file generated by CST MICROWAVE STUDIO
! Date and time: Fri Oct 28 02:40:59 2022
! Project name: L.cst
! Parameters = {Di=1.27; Epsilon_r=1.56; InnerDiameter=1.27; Length=2; Lf=10; Lg=60; OuterConductorThickness=0.2921; OuterDiameter=3.6; Wf=3; Wp=41.2; de=1.5; df=6.8; g=0.8; gx=1.55768; gy=3.83563; h=2.34; hf=1.524; px=14.7555; py=12.8291; w=9.7; wx=13.1978; wy=8.99345}
! Header version: 2018
! Port assignment regex: !\s*Touchstone port\s*([0-9]+)\s*=\s*(CST MWS port|CST DS port)\s*([0-9]+|Zmin|Zmax)\s*\(\"(.*)\"\)(\s*mode\s*([0-9]+))?.*
! Touchstone port assignment:
! Touchstone port 1 = CST MWS port 1 ("")
# GHz S DB R 50
4.5                     -4.29043         83.7282
4.52                    -4.51655         83.2707
4.54                    -4.73203         82.9632
4.56                    -4.93203         82.7965
4.58                    -5.11094         82.7456
4.6                     -5.26591          82.774
4.62                    -5.39491          82.851
4.64                    -5.49664         82.9342
4.66                    -5.57288         82.9867
4.68                    -5.62469         82.9819
4.7                     -5.65436         82.8841
4.72                    -5.66545         82.6738
4.74                    -5.65985         82.3277
4.76                    -5.64201         81.8196
4.78                    -5.61573         81.1382
4.8                     -5.58477           80.26
4.82                     -5.5551         79.1717
4.84                     -5.5312         77.8635
4.86                    -5.51928         76.3183
4.88                    -5.52616         74.5323
4.9                     -5.55798         72.4935
4.92                    -5.62355         70.1853
4.94                    -5.73285         67.5948
4.96                    -5.89838         64.6947
4.98                     -6.1387         61.4527
5                       -6.47906         57.8332
5.02                    -6.95795         53.7855
5.04                    -7.63698          49.272
5.06                    -8.61645         44.2873
5.08                    -10.0787         38.9397
5.1                     -12.3953         33.7943
5.12                     -16.507         31.5751
5.14                    -25.3556         59.7494
5.16                    -19.4708         148.046
5.18                    -12.7217         149.839
5.2                     -9.16926         142.069
5.22                     -7.0535         133.475
5.24                    -5.67373         125.709
5.26                    -4.69116         118.784
5.28                    -3.96002         112.446
5.3                     -3.41151         106.577
5.32                    -3.00005         101.141
5.34                    -2.69083         96.1123
5.36                    -2.45451         91.4695
5.38                    -2.26233          87.155
5.4                     -2.09334         83.0317
5.42                      -1.946         78.9436
5.44                    -1.83008         74.8291
5.46                    -1.74858         70.6917
5.48                    -1.69802         66.4968
5.5                      -1.6809         62.1413
5.52                    -1.71931         57.4542
5.54                    -1.92705         52.3332
5.56                    -2.31699         50.3748
5.58                    -1.94445         45.8322
5.6                     -1.99522         38.0009
5.62                    -2.33468         28.0225
5.64                     -3.1875         13.1192
5.66                    -5.67638        -14.6717
5.68                    -13.3277        -105.031
5.7                     -5.79067         134.385
5.72                    -2.53477         98.3866
5.74                    -1.57705         80.3736
5.76                    -1.20791         69.3301
5.78                    -1.03153         61.5263
5.8                    -0.932389         55.4274
5.82                   -0.871009         50.2927
5.84                    -0.83338         45.7099
5.86                   -0.818902         41.3578
5.88                   -0.861586         36.7256
5.9                     -1.56463         30.0088
5.92                   -0.954368          37.676
5.94                   -0.719894         31.7928
5.96                   -0.688711         28.0093
5.98                   -0.675792         24.7621
6                      -0.665983         21.7541
6.02                   -0.655438         18.8819
6.04                    -0.64299         16.0934
6.06                   -0.628237         13.3573
6.08                   -0.611434         10.6494
6.1                    -0.593607         7.95413
6.12                   -0.575771         5.26168
6.14                    -0.55922         2.56634
6.16                   -0.545049       -0.131202
6.18                     -0.5338        -2.82809
6.2                    -0.525666        -5.51973
6.22                   -0.520196        -8.20125
6.24                   -0.516515        -10.8702
6.26                   -0.513533        -13.5272
6.28                   -0.510197        -16.1766
6.3                    -0.505727        -18.8257
6.32                   -0.499925        -21.4844
6.34                   -0.493277        -24.1622
6.36                   -0.486755        -26.8671
6.38                   -0.481878        -29.6035
6.4                    -0.480228        -32.3707
6.42                   -0.483029        -35.1646
6.44                   -0.491258        -37.9777
6.46                    -0.50489        -40.8004
6.48                   -0.523169        -43.6268
6.5                     -0.54498        -46.4536
