! TOUCHSTONE file generated by CST MICROWAVE STUDIO
! Date and time: Fri Oct 28 05:25:40 2022
! Project name: L.cst
! Parameters = {Di=1.27; Epsilon_r=1.56; InnerDiameter=1.27; Length=2; Lf=10; Lg=60; OuterConductorThickness=0.2921; OuterDiameter=3.6; Wf=3; Wp=41.2; de=1.5; df=6.8; g=0.8; gx=0.45188; gy=1.54182; h=2.34; hf=1.524; px=14.1629; py=11.7813; w=9.7; wx=13.711; wy=10.2395}
! Header version: 2018
! Port assignment regex: !\s*Touchstone port\s*([0-9]+)\s*=\s*(CST MWS port|CST DS port)\s*([0-9]+|Zmin|Zmax)\s*\(\"(.*)\"\)(\s*mode\s*([0-9]+))?.*
! Touchstone port assignment:
! Touchstone port 1 = CST MWS port 1 ("")
# GHz S DB R 50
4.5                     -7.83412         173.952
4.52                    -4.53562         159.994
4.54                     -2.9045         147.259
4.56                    -2.02268         136.841
4.58                    -1.55936          128.58
4.6                     -1.32727          121.53
4.62                    -1.18792         115.337
4.64                    -1.12954         109.927
4.66                    -1.15498         104.847
4.68                    -1.21239         99.8803
4.7                     -1.30313         95.1087
4.72                    -1.46776         90.2595
4.74                    -1.70115         85.0137
4.76                    -2.02738         79.4413
4.78                    -2.53907         73.4668
4.8                     -3.32226         66.8241
4.82                    -4.51728         59.8122
4.84                    -6.46922         53.5365
4.86                    -9.73242         51.7566
4.88                    -14.1477         70.3689
4.9                     -13.4548         111.155
4.92                    -10.1822         121.983
4.94                    -8.90169         124.182
4.96                    -7.12101         132.686
4.98                    -4.64241         129.923
5                       -3.30297         122.529
5.02                    -2.58858         115.674
5.04                    -2.14614         109.912
5.06                    -1.86257         105.018
5.08                    -1.67134         100.582
5.1                     -1.51989         96.5141
5.12                    -1.40944         92.8029
5.14                    -1.34109         89.2357
5.16                    -1.28345         85.7433
5.18                    -1.23552         82.4245
5.2                      -1.2141         79.1556
5.22                    -1.19852         75.7719
5.24                    -1.17823         72.3711
5.26                    -1.17942         68.9307
5.28                    -1.19739         65.2135
5.3                     -1.20679         61.2383
5.32                    -1.23016         57.0464
5.34                    -1.28528         52.2753
5.36                     -1.3405         46.6539
5.38                     -1.4138           40.09
5.4                     -1.57188         31.7952
5.42                    -1.81467         20.3585
5.44                    -2.21165         4.00378
5.46                    -3.10472        -22.1608
5.48                    -4.76413        -69.3782
5.5                     -6.18403        -132.279
5.52                    -3.75369         173.198
5.54                      -2.309         135.108
5.56                    -1.67047         113.298
5.58                    -1.42195         99.2799
5.6                     -1.27636         89.1095
5.62                    -1.16457         81.4712
5.64                    -1.11166         75.3249
5.66                    -1.07851         69.9359
5.68                    -1.03749         65.2319
5.7                     -1.01527         61.0873
5.72                      -1.007         57.1732
5.74                   -0.985323         53.4578
5.76                   -0.965198          49.996
5.78                   -0.960885         46.6175
5.8                    -0.952076         43.2537
5.82                   -0.938838         40.0102
5.84                   -0.938057         36.8328
5.86                   -0.938917         33.6065
5.88                   -0.932542         30.3954
5.9                    -0.932911         27.2182
5.92                   -0.940644         23.9798
5.94                   -0.947848         20.6915
5.96                   -0.971917         17.2739
5.98                   -0.994849         14.3877
6                      -0.984605         10.7847
6.02                   -0.991023         7.36399
6.04                     -1.0206         3.88434
6.06                    -1.04996        0.223414
6.08                    -1.06902        -3.46567
6.1                     -1.10417        -7.17414
6.12                    -1.15136        -11.0821
6.14                    -1.18814        -15.1227
6.16                    -1.23421        -19.1859
6.18                    -1.30271        -23.4419
6.2                     -1.36752        -27.9314
6.22                    -1.43533        -32.4854
6.24                    -1.53337        -37.2157
6.26                    -1.64049        -42.2799
6.28                    -1.74723        -47.5058
6.3                      -1.8908        -52.9112
6.32                    -2.06472        -58.7579
6.34                    -2.24316        -64.9283
6.36                    -2.46696        -71.3249
6.38                    -2.75286        -78.3046
6.4                     -3.06278        -85.8958
6.42                    -3.43928        -93.9062
6.44                    -3.93978        -102.813
6.46                    -4.52827        -112.945
6.48                    -5.26593         -124.12
6.5                     -6.30861        -137.208
