! TOUCHSTONE file generated by CST MICROWAVE STUDIO
! Date and time: Fri Oct 28 17:39:23 2022
! Project name: L.cst
! Parameters = {Di=1.27; Epsilon_r=1.56; InnerDiameter=1.27; Length=2; Lf=10; Lg=60; OuterConductorThickness=0.2921; OuterDiameter=3.6; Wf=3; Wp=41.2; de=1.5; df=6.8; g=0.8; gx=4.78904; gy=3.79033; h=2.34; hf=1.524; px=12.3964; py=8.9228; w=9.7; wx=7.60735; wy=5.13246}
! Header version: 2018
! Port assignment regex: !\s*Touchstone port\s*([0-9]+)\s*=\s*(CST MWS port|CST DS port)\s*([0-9]+|Zmin|Zmax)\s*\(\"(.*)\"\)(\s*mode\s*([0-9]+))?.*
! Touchstone port assignment:
! Touchstone port 1 = CST MWS port 1 ("")
# GHz S DB R 50
4.5                    -0.369772         95.8606
4.52                   -0.380346         94.3875
4.54                   -0.391335         92.9011
4.56                   -0.402747         91.4016
4.58                   -0.414586          89.889
4.6                    -0.426848         88.3631
4.62                   -0.439529          86.824
4.64                   -0.452617         85.2716
4.66                   -0.466102         83.7057
4.68                   -0.479972         82.1262
4.7                    -0.494214         80.5331
4.72                   -0.508817          78.926
4.74                    -0.52377         77.3049
4.76                   -0.539064         75.6695
4.78                   -0.554692         74.0195
4.8                    -0.570647         72.3549
4.82                   -0.586926         70.6753
4.84                   -0.603528         68.9806
4.86                   -0.620452         67.2705
4.88                   -0.637701         65.5448
4.9                    -0.655278         63.8035
4.92                    -0.67319         62.0462
4.94                   -0.691441         60.2729
4.96                   -0.710039         58.4834
4.98                   -0.728991         56.6776
5                      -0.748306         54.8554
5.02                   -0.767991         53.0169
5.04                   -0.788053         51.1618
5.06                   -0.808501         49.2903
5.08                   -0.829339         47.4024
5.1                    -0.850572         45.4981
5.12                   -0.872207         43.5775
5.14                   -0.894244         41.6407
5.16                   -0.916684         39.6878
5.18                   -0.939527          37.719
5.2                     -0.96277         35.7345
5.22                   -0.986409         33.7345
5.24                    -1.01044         31.7193
5.26                    -1.03485         29.6892
5.28                    -1.05963         27.6443
5.3                     -1.08477         25.5851
5.32                    -1.11025          23.512
5.34                    -1.13607         21.4252
5.36                     -1.1622         19.3252
5.38                    -1.18862         17.2125
5.4                     -1.21532         15.0875
5.42                    -1.24226         12.9507
5.44                    -1.26944         10.8026
5.46                    -1.29682         8.64377
5.48                    -1.32438         6.47471
5.5                      -1.3521         4.29604
5.52                    -1.37994         2.10835
5.54                    -1.40789      -0.0877079
5.56                     -1.4359         -2.2915
5.58                    -1.46396        -4.50234
5.6                     -1.49204        -6.71953
5.62                     -1.5201        -8.94238
5.64                    -1.54813        -11.1701
5.66                    -1.57609         -13.402
5.68                    -1.60395        -15.6374
5.7                     -1.63169        -17.8753
5.72                    -1.65929         -20.115
5.74                     -1.6867        -22.3558
5.76                    -1.71391        -24.5967
5.78                     -1.7409        -26.8371
5.8                     -1.76763         -29.076
5.82                    -1.79408        -31.3127
5.84                    -1.82023        -33.5462
5.86                    -1.84605        -35.7759
5.88                    -1.87151        -38.0008
5.9                      -1.8966        -40.2201
5.92                    -1.92129        -42.4332
5.94                    -1.94555         -44.639
5.96                    -1.96937         -46.837
5.98                    -1.99272        -49.0263
6                       -2.01557        -51.2063
6.02                    -2.03791        -53.3762
6.04                    -2.05971        -55.5355
6.06                    -2.08095        -57.6833
6.08                    -2.10161        -59.8193
6.1                     -2.12167        -61.9428
6.12                     -2.1411        -64.0534
6.14                     -2.1599        -66.1505
6.16                    -2.17804        -68.2339
6.18                    -2.19551         -70.303
6.2                      -2.2123        -72.3577
6.22                    -2.22841        -74.3977
6.24                    -2.24382        -76.4228
6.26                    -2.25855        -78.4327
6.28                    -2.27259        -80.4275
6.3                     -2.28596        -82.4071
6.32                    -2.29868        -84.3714
6.34                    -2.31076        -86.3205
6.36                    -2.32225        -88.2544
6.38                    -2.33319        -90.1731
6.4                     -2.34362        -92.0768
6.42                     -2.3536        -93.9655
6.44                    -2.36319        -95.8392
6.46                    -2.37247        -97.6981
6.48                    -2.38151         -99.542
6.5                      -2.3904        -101.371
