! TOUCHSTONE file generated by CST MICROWAVE STUDIO
! Date and time: Sat Oct 29 14:51:50 2022
! Project name: L.cst
! Parameters = {Di=1.27; Epsilon_r=1.56; InnerDiameter=1.27; Length=2; Lf=10; Lg=60; OuterConductorThickness=0.2921; OuterDiameter=3.6; Wf=3; Wp=41.2; de=1.5; df=6.8; g=0.8; gx=1.64299; gy=4.6767; h=2.34; hf=1.524; px=8.68373; py=11.9519; w=9.7; wx=7.04075; wy=7.27522}
! Header version: 2018
! Port assignment regex: !\s*Touchstone port\s*([0-9]+)\s*=\s*(CST MWS port|CST DS port)\s*([0-9]+|Zmin|Zmax)\s*\(\"(.*)\"\)(\s*mode\s*([0-9]+))?.*
! Touchstone port assignment:
! Touchstone port 1 = CST MWS port 1 ("")
# GHz S DB R 50
4.5                     -0.37008         95.7486
4.52                   -0.380378          94.339
4.54                   -0.390936         92.9199
4.56                   -0.401764         91.4912
4.58                   -0.412869         90.0528
4.6                    -0.424255         88.6046
4.62                   -0.435924         87.1467
4.64                   -0.447878          85.679
4.66                   -0.460116         84.2014
4.68                   -0.472637         82.7137
4.7                    -0.485442         81.2161
4.72                   -0.498527         79.7084
4.74                   -0.511893         78.1905
4.76                   -0.525537         76.6623
4.78                   -0.539461         75.1238
4.8                    -0.553665         73.5748
4.82                   -0.568149         72.0153
4.84                   -0.582914         70.4452
4.86                   -0.597964         68.8645
4.88                     -0.6133          67.273
4.9                    -0.628926         65.6707
4.92                   -0.644846         64.0575
4.94                   -0.661064         62.4335
4.96                   -0.677584         60.7986
4.98                   -0.694413         59.1528
5                      -0.711553          57.496
5.02                   -0.729011         55.8283
5.04                   -0.746792         54.1497
5.06                   -0.764901         52.4603
5.08                   -0.783341           50.76
5.1                    -0.802119          49.049
5.12                   -0.821236         47.3273
5.14                   -0.840697          45.595
5.16                   -0.860505         43.8523
5.18                   -0.880661         42.0992
5.2                    -0.901167          40.336
5.22                   -0.922024         38.5626
5.24                   -0.943231         36.7794
5.26                   -0.964789         34.9866
5.28                   -0.986694         33.1841
5.3                     -1.00895         31.3724
5.32                    -1.03154         29.5517
5.34                    -1.05448         27.7221
5.36                    -1.07774         25.8839
5.38                    -1.10134         24.0375
5.4                     -1.12526          22.183
5.42                    -1.14949         20.3208
5.44                    -1.17403         18.4513
5.46                    -1.19887         16.5746
5.48                      -1.224         14.6911
5.5                     -1.24941         12.8013
5.52                    -1.27508         10.9054
5.54                    -1.30101         9.00386
5.56                    -1.32719         7.09702
5.58                     -1.3536         5.18528
5.6                     -1.38023         3.26905
5.62                    -1.40707         1.34874
5.64                     -1.4341       -0.575204
5.66                    -1.46131        -2.50237
5.68                    -1.48868         -4.4323
5.7                      -1.5162        -6.36454
5.72                    -1.54385        -8.29865
5.74                    -1.57161        -10.2342
5.76                    -1.59946        -12.1705
5.78                     -1.6274        -14.1074
5.8                      -1.6554        -16.0443
5.82                    -1.68344        -17.9806
5.84                     -1.7115         -19.916
5.86                    -1.73956          -21.85
5.88                    -1.76761         -23.782
5.9                     -1.79561        -25.7116
5.92                    -1.82355        -27.6383
5.94                    -1.85142        -29.5617
5.96                    -1.87917        -31.4813
5.98                     -1.9068        -33.3968
6                       -1.93428        -35.3076
6.02                    -1.96158        -37.2133
6.04                    -1.98869        -39.1136
6.06                    -2.01558        -41.0081
6.08                    -2.04222        -42.8965
6.1                     -2.06861        -44.7783
6.12                    -2.09471        -46.6534
6.14                    -2.12051        -48.5213
6.16                    -2.14599        -50.3819
6.18                    -2.17113        -52.2349
6.2                     -2.19591        -54.0801
6.22                    -2.22034        -55.9173
6.24                     -2.2444        -57.7464
6.26                    -2.26807        -59.5672
6.28                    -2.29138        -61.3797
6.3                      -2.3143        -63.1836
6.32                    -2.33687         -64.979
6.34                    -2.35908        -66.7659
6.36                    -2.38095        -68.5441
6.38                    -2.40251        -70.3136
6.4                     -2.42379        -72.0744
6.42                    -2.44482        -73.8265
6.44                    -2.46564        -75.5697
6.46                    -2.48629         -77.304
6.48                    -2.50682        -79.0294
6.5                     -2.52729        -80.7456
