! TOUCHSTONE file generated by CST MICROWAVE STUDIO
! Date and time: Thu Oct 27 06:28:06 2022
! Project name: L.cst
! Parameters = {Di=1.27; Epsilon_r=1.56; InnerDiameter=1.27; Length=2; Lf=10; Lg=60; OuterConductorThickness=0.2921; OuterDiameter=3.6; Wf=3; Wp=41.2; de=1.5; df=6.8; g=0.8; gx=4.3682; gy=0.796239; h=2.34; hf=1.524; px=9.7505; py=8.70586; w=9.7; wx=5.3823; wy=7.90962}
! Header version: 2018
! Port assignment regex: !\s*Touchstone port\s*([0-9]+)\s*=\s*(CST MWS port|CST DS port)\s*([0-9]+|Zmin|Zmax)\s*\(\"(.*)\"\)(\s*mode\s*([0-9]+))?.*
! Touchstone port assignment:
! Touchstone port 1 = CST MWS port 1 ("")
# GHz S DB R 50
4.5                    -0.400517         81.3521
4.52                   -0.409063         79.6995
4.54                   -0.418949         78.0237
4.56                   -0.430143         76.3256
4.58                   -0.442586         74.6058
4.6                    -0.456188         72.8648
4.62                   -0.470847         71.1028
4.64                   -0.486448         69.3201
4.66                   -0.502871         67.5163
4.68                   -0.519996         65.6912
4.7                    -0.537709         63.8443
4.72                   -0.555901         61.9749
4.74                   -0.574476         60.0823
4.76                   -0.593348         58.1657
4.78                   -0.612446         56.2241
4.8                    -0.631712         54.2565
4.82                   -0.651101         52.2619
4.84                   -0.670584         50.2393
4.86                   -0.690141         48.1877
4.88                   -0.709766          46.106
4.9                    -0.729463         43.9934
4.92                   -0.749244          41.849
4.94                   -0.769128         39.6719
4.96                   -0.789137         37.4613
4.98                   -0.809299         35.2166
5                      -0.829641         32.9373
5.02                   -0.850192         30.6227
5.04                   -0.870979         28.2726
5.06                   -0.892022         25.8866
5.08                   -0.913342         23.4645
5.1                    -0.934952         21.0062
5.12                   -0.956858         18.5117
5.14                   -0.979061         15.9811
5.16                    -1.00155         13.4145
5.18                    -1.02432         10.8122
5.2                     -1.04733         8.17459
5.22                    -1.07057         5.50211
5.24                    -1.09398         2.79533
5.26                    -1.11753         0.05493
5.28                    -1.14115        -2.71848
5.3                      -1.1648          -5.524
5.32                     -1.1884        -8.36074
5.34                    -1.21188        -11.2277
5.36                    -1.23517        -14.1238
5.38                     -1.2582        -17.0478
5.4                     -1.28088        -19.9985
5.42                    -1.30314        -22.9745
5.44                     -1.3249        -25.9744
5.46                    -1.34608        -28.9968
5.48                    -1.36661        -32.0399
5.5                     -1.38642        -35.1022
5.52                    -1.40545        -38.1818
5.54                    -1.42364        -41.2771
5.56                    -1.44094        -44.3861
5.58                    -1.45731         -47.507
5.6                     -1.47271        -50.6377
5.62                    -1.48713        -53.7762
5.64                    -1.50054        -56.9206
5.66                    -1.51295        -60.0688
5.68                    -1.52436        -63.2186
5.7                     -1.53478        -66.3681
5.72                    -1.54424        -69.5151
5.74                    -1.55278        -72.6575
5.76                    -1.56044        -75.7933
5.78                    -1.56727        -78.9206
5.8                     -1.57332        -82.0372
5.82                    -1.57867        -85.1413
5.84                    -1.58336         -88.231
5.86                    -1.58749        -91.3045
5.88                    -1.59111          -94.36
5.9                      -1.5943        -97.3957
5.92                    -1.59714         -100.41
5.94                    -1.59969        -103.402
5.96                    -1.60201         -106.37
5.98                    -1.60417        -109.312
6                       -1.60623        -112.227
6.02                    -1.60823        -115.115
6.04                    -1.61022        -117.974
6.06                    -1.61223        -120.804
6.08                    -1.61429        -123.604
6.1                     -1.61642        -126.372
6.12                    -1.61864         -129.11
6.14                    -1.62095        -131.817
6.16                    -1.62335        -134.492
6.18                    -1.62585        -137.136
6.2                     -1.62844        -139.749
6.22                    -1.63113        -142.332
6.24                    -1.63391        -144.884
6.26                    -1.63681        -147.407
6.28                    -1.63985        -149.902
6.3                     -1.64305         -152.37
6.32                    -1.64648        -154.812
6.34                    -1.65021        -157.229
6.36                    -1.65433        -159.622
6.38                    -1.65899        -161.994
6.4                     -1.66432        -164.344
6.42                    -1.67054        -166.676
6.44                    -1.67786        -168.989
6.46                    -1.68654        -171.286
6.48                    -1.69689        -173.566
6.5                     -1.70923        -175.832
