! TOUCHSTONE file generated by CST MICROWAVE STUDIO
! Date and time: Sat Oct 29 10:35:29 2022
! Project name: L.cst
! Parameters = {Di=1.27; Epsilon_r=1.56; InnerDiameter=1.27; Length=2; Lf=10; Lg=60; OuterConductorThickness=0.2921; OuterDiameter=3.6; Wf=3; Wp=41.2; de=1.5; df=6.8; g=0.8; gx=1.13218; gy=1.74572; h=2.34; hf=1.524; px=13.0218; py=11.105; w=9.7; wx=11.8896; wy=9.35923}
! Header version: 2018
! Port assignment regex: !\s*Touchstone port\s*([0-9]+)\s*=\s*(CST MWS port|CST DS port)\s*([0-9]+|Zmin|Zmax)\s*\(\"(.*)\"\)(\s*mode\s*([0-9]+))?.*
! Touchstone port assignment:
! Touchstone port 1 = CST MWS port 1 ("")
# GHz S DB R 50
4.5                     -9.09472         57.9461
4.52                    -9.69924         58.6993
4.54                    -10.2626         59.9764
4.56                    -10.8158         61.6383
4.58                    -11.3173         63.9893
4.6                     -11.7346         66.6317
4.62                    -12.0907         69.6808
4.64                    -12.3203         72.9812
4.66                    -12.4597         76.1639
4.68                    -12.4983         79.3625
4.7                     -12.4326         82.1373
4.72                    -12.3171         84.5413
4.74                    -12.1295         86.5345
4.76                    -11.9169         87.9233
4.78                    -11.6898         88.9496
4.8                     -11.4443         89.4524
4.82                    -11.2193         89.5338
4.84                    -10.9958         89.2984
4.86                    -10.7918         88.6277
4.88                    -10.6167         87.7124
4.9                     -10.4546          86.488
4.92                    -10.3301         84.9595
4.94                    -10.2312         83.2438
4.96                    -10.1599         81.2189
4.98                    -10.1313         78.9787
5                       -10.1298         76.5109
5.02                    -10.1723         73.7317
5.04                    -10.2607         70.7368
5.06                      -10.39         67.4093
5.08                    -10.5833         63.7317
5.1                      -10.835         59.7136
5.12                    -11.1592         55.1749
5.14                    -11.5789         50.1066
5.16                    -12.0948         44.3411
5.18                    -12.7434         37.5915
5.2                     -13.5479         29.6433
5.22                    -14.5201         19.8508
5.24                    -15.6869          7.3081
5.26                    -16.9593        -9.27811
5.28                     -18.023        -31.6992
5.3                     -18.2635        -59.4855
5.32                    -17.2491        -87.3881
5.34                    -15.4369        -110.589
5.36                     -13.507        -128.714
5.38                    -11.7577        -143.171
5.4                     -10.2648        -155.314
5.42                    -9.04047        -165.795
5.44                    -8.03647         -174.87
5.46                     -7.1972         177.222
5.48                    -6.46014         170.377
5.5                     -5.74133         164.232
5.52                    -5.02222         158.123
5.54                    -4.35095         151.653
5.56                       -3.79         144.782
5.58                    -3.38221         137.832
5.6                     -3.10671         131.182
5.62                    -2.92774         124.907
5.64                    -2.82616         119.064
5.66                    -2.76783         113.643
5.68                    -2.74379         108.504
5.7                     -2.74971         103.682
5.72                    -2.76407         99.0798
5.74                    -2.79897         94.6085
5.76                    -2.84251          90.347
5.78                    -2.88317         86.1172
5.8                     -2.93965         81.9422
5.82                    -2.98114         77.8199
5.84                    -3.02069         73.4609
5.86                    -3.07744         68.9838
5.88                    -3.12959         64.1819
5.9                     -3.24327         58.9526
5.92                     -3.3966         53.6893
5.94                    -3.56472         47.8637
5.96                    -3.84349         41.6417
5.98                    -4.12146         35.1209
6                       -4.54305         26.7299
6.02                    -5.45923          18.749
6.04                    -6.20721         13.9875
6.06                    -6.30055         5.38028
6.08                    -6.81898        -10.6572
6.1                     -8.06724        -30.5683
6.12                    -9.42893        -56.5647
6.14                    -10.3664        -94.4381
6.16                    -9.94257         -139.18
6.18                    -8.18794        -177.373
6.2                     -6.33192         153.245
6.22                    -5.07579         130.208
6.24                     -4.3431         112.577
6.26                    -3.84678         98.2882
6.28                    -3.62579         85.9677
6.3                     -3.55813         76.0453
6.32                    -3.48379         67.0833
6.34                    -3.56522         58.7817
6.36                    -3.64161          51.873
6.38                    -3.68539          44.669
6.4                     -3.88706         38.0569
6.42                    -3.96128         32.1886
6.44                    -4.09537         25.2008
6.46                    -4.36492         19.4755
6.48                    -4.38204         13.3032
6.5                     -4.70259         5.64241
