! TOUCHSTONE file generated by CST MICROWAVE STUDIO
! Date and time: Sat Oct 29 03:17:58 2022
! Project name: L.cst
! Parameters = {Di=1.27; Epsilon_r=1.56; InnerDiameter=1.27; Length=2; Lf=10; Lg=60; OuterConductorThickness=0.2921; OuterDiameter=3.6; Wf=3; Wp=41.2; de=1.5; df=6.8; g=0.8; gx=1.36759; gy=1.84001; h=2.34; hf=1.524; px=8.41743; py=8.65852; w=9.7; wx=7.04985; wy=6.81851}
! Header version: 2018
! Port assignment regex: !\s*Touchstone port\s*([0-9]+)\s*=\s*(CST MWS port|CST DS port)\s*([0-9]+|Zmin|Zmax)\s*\(\"(.*)\"\)(\s*mode\s*([0-9]+))?.*
! Touchstone port assignment:
! Touchstone port 1 = CST MWS port 1 ("")
# GHz S DB R 50
4.5                     -0.56787         79.0733
4.52                   -0.587413         77.4722
4.54                   -0.607951         75.8539
4.56                   -0.629452         74.2183
4.58                   -0.651884         72.5655
4.6                    -0.675205         70.8953
4.62                   -0.699377         69.2075
4.64                   -0.724362         67.5017
4.66                   -0.750126         65.7777
4.68                   -0.776636         64.0349
4.7                    -0.803871          62.273
4.72                   -0.831811         60.4913
4.74                   -0.860446         58.6895
4.76                   -0.889768          56.867
4.78                   -0.919781         55.0231
4.8                    -0.950491         53.1575
4.82                    -0.98191         51.2696
4.84                    -1.01405         49.3588
4.86                    -1.04694         47.4249
4.88                     -1.0806         45.4673
4.9                     -1.11505         43.4857
4.92                    -1.15032         41.4798
4.94                    -1.18644         39.4492
4.96                    -1.22342         37.3938
4.98                    -1.26129         35.3133
5                       -1.30008         33.2077
5.02                     -1.3398         31.0768
5.04                    -1.38047         28.9207
5.06                    -1.42208         26.7393
5.08                    -1.46465         24.5327
5.1                     -1.50818         22.3011
5.12                    -1.55266         20.0447
5.14                    -1.59807         17.7636
5.16                     -1.6444         15.4581
5.18                    -1.69163         13.1286
5.2                     -1.73972         10.7754
5.22                    -1.78864         8.39902
5.24                    -1.83834         5.99985
5.26                    -1.88878          3.5785
5.28                     -1.9399         1.13542
5.3                     -1.99165        -1.32871
5.32                    -2.04396        -3.81321
5.34                    -2.09677        -6.31738
5.36                    -2.14999        -8.84043
5.38                    -2.20357        -11.3815
5.4                     -2.25741        -13.9398
5.42                    -2.31144        -16.5144
5.44                    -2.36557        -19.1042
5.46                    -2.41972        -21.7083
5.48                    -2.47381        -24.3256
5.5                     -2.52775        -26.9549
5.52                    -2.58146        -29.5951
5.54                    -2.63484        -32.2449
5.56                    -2.68782         -34.903
5.58                    -2.74032        -37.5682
5.6                     -2.79226        -40.2391
5.62                    -2.84356        -42.9143
5.64                    -2.89415        -45.5924
5.66                    -2.94395        -48.2719
5.68                    -2.99292        -50.9514
5.7                     -3.04097        -53.6294
5.72                    -3.08807        -56.3043
5.74                    -3.13415        -58.9747
5.76                    -3.17916        -61.6389
5.78                    -3.22306        -64.2958
5.8                     -3.26582        -66.9435
5.82                     -3.3074        -69.5808
5.84                    -3.34776        -72.2062
5.86                    -3.38688        -74.8183
5.88                    -3.42473        -77.4157
5.9                      -3.4613        -79.9971
5.92                    -3.49656        -82.5614
5.94                    -3.53051        -85.1073
5.96                    -3.56312        -87.6338
5.98                     -3.5944        -90.1398
6                       -3.62434        -92.6243
6.02                    -3.65293        -95.0867
6.04                    -3.68018         -97.526
6.06                    -3.70608        -99.9417
6.08                    -3.73064        -102.333
6.1                     -3.75389          -104.7
6.12                    -3.77582        -107.042
6.14                    -3.79647        -109.359
6.16                    -3.81585         -111.65
6.18                    -3.83402        -113.917
6.2                       -3.851        -116.157
6.22                    -3.86685        -118.373
6.24                    -3.88163        -120.564
6.26                    -3.89541         -122.73
6.28                    -3.90828        -124.872
6.3                     -3.92033        -126.989
6.32                    -3.93167        -129.083
6.34                    -3.94241        -131.154
6.36                    -3.95269        -133.202
6.38                    -3.96264        -135.227
6.4                     -3.97242         -137.23
6.42                    -3.98217         -139.21
6.44                    -3.99206        -141.168
6.46                    -4.00225        -143.104
6.48                     -4.0129        -145.017
6.5                     -4.02414        -146.906
