! TOUCHSTONE file generated by CST MICROWAVE STUDIO
! Date and time: Thu Oct 27 02:55:45 2022
! Project name: L.cst
! Parameters = {Di=1.27; Epsilon_r=1.56; InnerDiameter=1.27; Length=2; Lf=10; Lg=60; OuterConductorThickness=0.2921; OuterDiameter=3.6; Wf=3; Wp=41.2; de=1.5; df=6.8; g=0.8; gx=3.99688; gy=4.95293; h=2.34; hf=1.524; px=14.3962; py=13.3126; w=9.7; wx=10.3993; wy=8.35971}
! Header version: 2018
! Port assignment regex: !\s*Touchstone port\s*([0-9]+)\s*=\s*(CST MWS port|CST DS port)\s*([0-9]+|Zmin|Zmax)\s*\(\"(.*)\"\)(\s*mode\s*([0-9]+))?.*
! Touchstone port assignment:
! Touchstone port 1 = CST MWS port 1 ("")
# GHz S DB R 50
4.5                    -0.530218         95.6639
4.52                   -0.547957         94.2307
4.54                   -0.560598         92.7541
4.56                   -0.573896         91.2194
4.58                   -0.592797          89.645
4.6                     -0.61824         88.0648
4.62                   -0.647085         86.5032
4.64                   -0.674782         84.9596
4.66                   -0.698662         83.4118
4.68                   -0.719554         81.8335
4.7                     -0.74082         80.2127
4.72                   -0.765782         78.5581
4.74                   -0.795487         76.8904
4.76                   -0.828267          75.227
4.78                   -0.861195         73.5699
4.8                    -0.892236         71.9063
4.82                   -0.921592          70.218
4.84                   -0.951393         68.4947
4.86                   -0.984079         66.7402
4.88                    -1.02074         64.9681
4.9                     -1.06051         63.1919
4.92                    -1.10136         61.4154
4.94                    -1.14163         59.6308
4.96                    -1.18117         57.8245
4.98                     -1.2214         55.9875
5                       -1.26428         54.1205
5.02                    -1.31093         52.2334
5.04                    -1.36097         50.3375
5.06                    -1.41288         48.4377
5.08                    -1.46518         46.5292
5.1                     -1.51751         44.6015
5.12                    -1.57087         42.6455
5.14                    -1.62696         40.6603
5.16                      -1.687         38.6533
5.18                    -1.75097          36.635
5.2                     -1.81769         34.6116
5.22                    -1.88575         32.5809
5.24                    -1.95455         30.5338
5.26                    -2.02481         28.4614
5.28                    -2.09812         26.3607
5.3                      -2.1759          24.238
5.32                    -2.25845         22.1038
5.34                    -2.34482         19.9662
5.36                    -2.43354         17.8254
5.38                    -2.52371         15.6736
5.4                     -2.61581         13.5008
5.42                    -2.71143         11.3022
5.44                    -2.81232         9.08279
5.46                    -2.91921         6.85433
5.48                    -3.03135          4.6282
5.5                     -3.14707         2.40778
5.52                    -3.26501         0.18628
5.54                    -3.38529        -2.04811
5.56                    -3.50962        -4.30303
5.58                    -3.64032        -6.57488
5.6                     -3.77879         -8.8493
5.62                    -3.92453        -11.1092
5.64                    -4.07546        -13.3457
5.66                    -4.22938        -15.5637
5.68                    -4.38577        -17.7779
5.7                     -4.54653        -20.0013
5.72                    -4.71496        -22.2318
5.74                    -4.89366        -24.4497
5.76                    -5.08252        -26.6258
5.78                    -5.27848         -28.739
5.8                     -5.47732        -30.7883
5.82                    -5.67667        -32.7931
5.84                    -5.87798        -34.7758
5.86                    -6.08576         -36.739
5.88                    -6.30409        -38.6525
5.9                     -6.53248        -40.4641
5.92                    -6.76408        -42.1294
5.94                     -6.9881        -43.6445
5.96                     -7.1958        -45.0562
5.98                    -7.38617        -46.4361
6                       -7.56628        -47.8297
6.02                     -7.7451        -49.2201
6.04                    -7.92424        -50.5383
6.06                    -8.09282        -51.7236
6.08                    -8.23177        -52.7987
6.1                     -8.32743        -53.8997
6.12                    -8.38535        -55.2149
6.14                    -8.43168        -56.8624
6.16                    -8.49816        -58.7978
6.18                        -8.6        -60.8302
6.2                     -8.72063        -62.7525
6.22                    -8.81572        -64.5355
6.24                    -8.84299        -66.4696
6.26                     -8.8056        -69.0934
6.28                    -8.77303        -72.8987
6.3                     -8.86076        -78.0418
6.32                    -9.19344        -84.2588
6.34                    -9.88173        -90.9047
6.36                    -11.0118        -96.9351
6.38                    -12.6182        -100.717
6.4                     -14.5698        -99.7951
6.42                    -16.2916        -91.9773
6.44                    -16.8779        -80.3049
6.46                    -16.4325        -72.6152
6.48                    -15.9281        -70.9341
6.5                     -15.9231        -72.3999
