! TOUCHSTONE file generated by CST MICROWAVE STUDIO
! Date and time: Thu Oct 27 05:34:56 2022
! Project name: L.cst
! Parameters = {Di=1.27; Epsilon_r=1.56; InnerDiameter=1.27; Length=2; Lf=10; Lg=60; OuterConductorThickness=0.2921; OuterDiameter=3.6; Wf=3; Wp=41.2; de=1.5; df=6.8; g=0.8; gx=3.53485; gy=3.08981; h=2.34; hf=1.524; px=13.1511; py=13.9304; w=9.7; wx=9.6163; wy=10.8406}
! Header version: 2018
! Port assignment regex: !\s*Touchstone port\s*([0-9]+)\s*=\s*(CST MWS port|CST DS port)\s*([0-9]+|Zmin|Zmax)\s*\(\"(.*)\"\)(\s*mode\s*([0-9]+))?.*
! Touchstone port assignment:
! Touchstone port 1 = CST MWS port 1 ("")
# GHz S DB R 50
4.5                    -0.739497         85.5557
4.52                   -0.747688         83.9172
4.54                   -0.776394          82.116
4.56                   -0.827006         80.4023
4.58                   -0.864251         78.7969
4.6                    -0.883433         77.0825
4.62                   -0.914883         75.2188
4.64                   -0.965841         73.3885
4.66                    -1.01071         71.6449
4.68                    -1.04055         69.8308
4.7                     -1.07721         67.8815
4.72                      -1.131         65.9275
4.74                    -1.18377         64.0386
4.76                    -1.22444         62.1036
4.78                    -1.26837         60.0457
4.8                     -1.32738          57.955
4.82                     -1.3891         55.9092
4.84                    -1.44147         53.8329
4.86                     -1.4947         51.6439
4.88                    -1.56124         49.3997
4.9                      -1.6334         47.1808
4.92                    -1.69889         44.9411
4.94                     -1.7636         42.5974
4.96                    -1.84002         40.1796
4.98                    -1.92445         37.7671
5                       -2.00488          35.339
5.02                    -2.08353         32.8141
5.04                    -2.17239         30.1989
5.06                    -2.27124         27.5681
5.08                    -2.36879         24.9225
5.1                     -2.46405         22.1863
5.12                    -2.56813         19.3446
5.14                    -2.68388         16.4654
5.16                    -2.80113         13.5691
5.18                    -2.91588         10.5871
5.2                     -3.03802         7.48461
5.22                    -3.17335         4.32043
5.24                    -3.31319         1.13402
5.26                    -3.45059        -2.13263
5.28                     -3.5936        -5.53397
5.3                      -3.7509        -9.02471
5.32                      -3.916        -12.5466
5.34                    -4.07902        -16.1413
5.36                    -4.24515        -19.8818
5.38                    -4.42566        -23.7428
5.4                     -4.61714        -27.6485
5.42                    -4.80695        -31.6171
5.44                    -4.99603        -35.7375
5.46                    -5.19755        -40.0129
5.48                    -5.41239        -44.3545
5.5                     -5.62557        -48.7472
5.52                    -5.83196        -53.2913
5.54                    -6.04545        -58.0308
5.56                    -6.27287        -62.8727
5.58                    -6.49839        -67.7567
5.6                     -6.70873        -72.7826
5.62                    -6.91617        -78.0493
5.64                    -7.13573        -83.4787
5.66                    -7.35445         -88.952
5.68                    -7.54951        -94.5395
5.7                     -7.72729        -100.403
5.72                    -7.91234         -106.51
5.74                     -8.1009        -112.679
5.76                     -8.2615        -118.904
5.78                    -8.38821          -125.4
5.8                     -8.51351        -132.226
5.82                    -8.65086        -139.156
5.84                    -8.76506        -146.059
5.86                     -8.8296        -153.161
5.88                    -8.87719        -160.678
5.9                     -8.94594        -168.412
5.92                    -9.00721        -176.073
5.94                     -9.0064         176.156
5.96                    -8.96038         167.839
5.98                    -8.93368          158.99
6                       -8.91923             150
6.02                    -8.83329         140.758
6.04                    -8.65685         130.489
6.06                    -8.47541          118.72
6.08                    -8.31992         105.591
6.1                     -8.09503         90.6659
6.12                    -7.77278         72.1256
6.14                    -7.55353          48.009
6.16                    -7.69546         17.5532
6.18                     -8.2747        -18.9264
6.2                      -9.1117        -59.9209
6.22                    -9.91454        -101.621
6.24                    -10.5176        -138.344
6.26                    -10.6621        -166.428
6.28                    -9.88312         170.538
6.3                      -8.5554         144.208
6.32                    -7.68358         111.231
6.34                    -7.86284         71.7828
6.36                      -9.204          24.713
6.38                    -11.0491        -33.2903
6.4                     -11.5942        -97.5989
6.42                    -10.9056        -150.467
6.44                    -10.5965         173.638
6.46                    -10.5363         152.383
6.48                    -9.73545         137.895
6.5                     -8.59835          120.34
