! TOUCHSTONE file generated by CST MICROWAVE STUDIO
! Date and time: Sat Oct 29 20:33:33 2022
! Project name: L.cst
! Parameters = {Di=1.27; Epsilon_r=1.56; InnerDiameter=1.27; Length=2; Lf=10; Lg=60; OuterConductorThickness=0.2921; OuterDiameter=3.6; Wf=3; Wp=41.2; de=1.5; df=6.8; g=0.8; gx=4.18185; gy=2.15445; h=2.34; hf=1.524; px=14.5939; py=9.70783; w=9.7; wx=10.4121; wy=7.55339}
! Header version: 2018
! Port assignment regex: !\s*Touchstone port\s*([0-9]+)\s*=\s*(CST MWS port|CST DS port)\s*([0-9]+|Zmin|Zmax)\s*\(\"(.*)\"\)(\s*mode\s*([0-9]+))?.*
! Touchstone port assignment:
! Touchstone port 1 = CST MWS port 1 ("")
# GHz S DB R 50
4.5                     -1.19758         75.5086
4.52                    -1.27063         73.4061
4.54                    -1.34024         71.2695
4.56                    -1.40897         69.0521
4.58                    -1.48358         66.7428
4.6                     -1.56865         64.3694
4.62                    -1.66297         61.9673
4.64                    -1.76156         59.5455
4.66                    -1.86074         57.0793
4.68                    -1.96158         54.5349
4.7                     -2.06863         51.8982
4.72                    -2.18578         49.1839
4.74                    -2.31307         46.4172
4.76                    -2.44727         43.6087
4.78                    -2.58531         40.7436
4.8                     -2.72726         37.7954
4.82                    -2.87624         34.7482
4.84                    -3.03563         31.6078
4.86                    -3.20621         28.3931
4.88                    -3.38578         25.1159
4.9                     -3.57142         21.7683
4.92                    -3.76223         18.3284
4.94                    -3.96005         14.7781
4.96                    -4.16768         11.1164
4.98                    -4.38623         7.35737
5                       -4.61397         3.51435
5.02                    -4.84764        -0.41446
5.04                    -5.08496        -4.44668
5.06                    -5.32615        -8.60227
5.08                      -5.573        -12.8878
5.1                     -5.82641        -17.2928
5.12                    -6.08465        -21.8002
5.14                    -6.34361        -26.4029
5.16                    -6.59916          -31.11
5.18                    -6.84924        -35.9388
5.2                     -7.09414        -40.8971
5.22                    -7.33442        -45.9732
5.24                    -7.56854        -51.1403
5.26                    -7.79216         -56.373
5.28                    -7.99991        -61.6619
5.3                     -8.18818        -67.0108
5.32                    -8.35668        -72.4222
5.34                    -8.50721        -77.8795
5.36                    -8.64092        -83.3452
5.38                    -8.75623        -88.7757
5.4                     -8.84951        -94.1419
5.42                    -8.91804        -99.4379
5.44                    -8.96266         -104.67
5.46                    -8.98789        -109.836
5.48                    -8.99892        -114.911
5.5                      -8.9982        -119.854
5.52                    -8.98446        -124.637
5.54                    -8.95514         -129.26
5.56                    -8.91033        -133.747
5.58                    -8.85457        -138.124
5.6                      -8.7946        -142.392
5.62                    -8.73487        -146.524
5.64                    -8.67464        -150.492
5.66                    -8.60962        -154.294
5.68                    -8.53698        -157.968
5.7                     -8.45942         -161.56
5.72                    -8.38433        -165.093
5.74                    -8.31824        -168.546
5.76                    -8.26154         -171.88
5.78                    -8.20841        -175.079
5.8                     -8.15291         -178.18
5.82                    -8.09621         178.752
5.84                    -8.04797         175.674
5.86                    -8.01967          172.61
5.88                    -8.01529         169.635
5.9                     -8.02777         166.807
5.92                    -8.04576         164.115
5.94                    -8.06611         161.476
5.96                    -8.10047         158.825
5.98                    -8.16747           156.2
6                       -8.27495         153.754
6.02                    -8.40726         151.647
6.04                    -8.53194         149.899
6.06                    -8.62729         148.331
6.08                    -8.70821         146.723
6.1                      -8.8181          145.08
6.12                    -8.98238         143.763
6.14                    -9.15461          143.27
6.16                    -9.20578         143.687
6.18                    -9.01348         144.173
6.2                     -8.60662         143.314
6.22                     -8.1792         140.258
6.24                    -7.95729         135.241
6.26                     -8.0981         129.275
6.28                     -8.6647         123.781
6.3                     -9.60302          120.42
6.32                    -10.6765         120.689
6.34                    -11.4624         124.554
6.36                    -11.6876         129.334
6.38                    -11.5776         132.286
6.4                     -11.5234         133.533
6.42                    -11.6545         135.003
6.44                    -11.7779         138.227
6.46                    -11.5795          142.65
6.48                    -11.0071         146.021
6.5                     -10.3306         147.153
