! TOUCHSTONE file generated by CST MICROWAVE STUDIO
! Date and time: Thu Oct 27 02:24:13 2022
! Project name: L.cst
! Parameters = {Di=1.27; Epsilon_r=1.56; InnerDiameter=1.27; Length=2; Lf=10; Lg=60; OuterConductorThickness=0.2921; OuterDiameter=3.6; Wf=3; Wp=41.2; de=1.5; df=6.8; g=0.8; gx=2.22267; gy=3.99002; h=2.34; hf=1.524; px=12.2539; py=10.4046; w=9.7; wx=10.0313; wy=6.41453}
! Header version: 2018
! Port assignment regex: !\s*Touchstone port\s*([0-9]+)\s*=\s*(CST MWS port|CST DS port)\s*([0-9]+|Zmin|Zmax)\s*\(\"(.*)\"\)(\s*mode\s*([0-9]+))?.*
! Touchstone port assignment:
! Touchstone port 1 = CST MWS port 1 ("")
# GHz S DB R 50
4.5                    -0.651709         90.5439
4.52                   -0.673326          88.943
4.54                   -0.697275         87.3239
4.56                   -0.723537         85.6884
4.58                   -0.752053         84.0378
4.6                    -0.782727         82.3733
4.62                   -0.815442         80.6956
4.64                   -0.850071         79.0052
4.66                   -0.886481         77.3024
4.68                   -0.924545         75.5873
4.7                    -0.964144         73.8595
4.72                    -1.00518         72.1188
4.74                    -1.04756         70.3645
4.76                    -1.09122         68.5959
4.78                    -1.13614         66.8122
4.8                     -1.18229         65.0126
4.82                    -1.22968         63.1963
4.84                    -1.27835         61.3623
4.86                    -1.32835           59.51
4.88                    -1.37974         57.6384
4.9                     -1.43263         55.7468
4.92                    -1.48711         53.8348
4.94                    -1.54331         51.9018
4.96                    -1.60135         49.9473
4.98                    -1.66136         47.9711
5                       -1.72347          45.973
5.02                    -1.78783         43.9529
5.04                    -1.85458          41.911
5.06                    -1.92384         39.8472
5.08                    -1.99575         37.7621
5.1                     -2.07042         35.6557
5.12                    -2.14798         33.5288
5.14                    -2.22852         31.3817
5.16                    -2.31216         29.2151
5.18                    -2.39896         27.0296
5.2                       -2.489         24.8261
5.22                    -2.58236         22.6053
5.24                    -2.67908         20.3682
5.26                    -2.77919         18.1155
5.28                    -2.88274         15.8481
5.3                     -2.98973         13.5671
5.32                    -3.10017         11.2734
5.34                    -3.21406         8.96812
5.36                    -3.33139         6.65218
5.38                    -3.45212         4.32665
5.4                     -3.57622         1.99259
5.42                    -3.70365       -0.348918
5.44                    -3.83436         -2.6968
5.46                    -3.96827        -5.04996
5.48                    -4.10534         -7.4073
5.5                     -4.24547         -9.7677
5.52                    -4.38859          -12.13
5.54                     -4.5346        -14.4932
5.56                    -4.68343        -16.8559
5.58                    -4.83496        -19.2172
5.6                     -4.98909        -21.5757
5.62                    -5.14573        -23.9303
5.64                    -5.30475        -26.2797
5.66                    -5.46604        -28.6226
5.68                     -5.6295        -30.9578
5.7                     -5.79498        -33.2838
5.72                    -5.96238        -35.5993
5.74                    -6.13156        -37.9028
5.76                    -6.30239        -40.1926
5.78                    -6.47473        -42.4673
5.8                     -6.64842        -44.7252
5.82                    -6.82332        -46.9645
5.84                    -6.99925        -49.1834
5.86                    -7.17603        -51.3798
5.88                    -7.35344        -53.5518
5.9                     -7.53126        -55.6973
5.92                    -7.70922        -57.8141
5.94                    -7.88704        -59.8999
5.96                    -8.06438        -61.9525
5.98                    -8.24084        -63.9696
6                         -8.416         -65.949
6.02                    -8.58935        -67.8887
6.04                    -8.76032        -69.7868
6.06                    -8.92825        -71.6416
6.08                    -9.09242         -73.452
6.1                     -9.25203        -75.2174
6.12                    -9.40618        -76.9379
6.14                    -9.55391        -78.6146
6.16                    -9.69421        -80.2496
6.18                    -9.82601        -81.8462
6.2                     -9.94826        -83.4094
6.22                    -10.0599        -84.9456
6.24                      -10.16        -86.4632
6.26                    -10.2476        -87.9722
6.28                    -10.3221        -89.4846
6.3                     -10.3831        -91.0141
6.32                    -10.4304         -92.576
6.34                    -10.4642        -94.1869
6.36                    -10.4851        -95.8643
6.38                    -10.4941        -97.6264
6.4                     -10.4927        -99.4918
6.42                    -10.4825        -101.479
6.44                     -10.466        -103.605
6.46                    -10.4457        -105.888
6.48                    -10.4245        -108.345
6.5                     -10.4058        -110.992
