! TOUCHSTONE file generated by CST MICROWAVE STUDIO
! Date and time: Wed Oct 26 16:52:07 2022
! Project name: L.cst
! Parameters = {Di=1.27; Epsilon_r=1.56; InnerDiameter=1.27; Length=2; Lf=10; Lg=60; OuterConductorThickness=0.2921; OuterDiameter=3.6; Wf=3; Wp=41.2; de=1.5; df=6.8; g=0.8; gx=2.49854; gy=0.71807; h=2.34; hf=1.524; px=12.7231; py=11.457; w=9.7; wx=10.2245; wy=10.7389}
! Header version: 2018
! Port assignment regex: !\s*Touchstone port\s*([0-9]+)\s*=\s*(CST MWS port|CST DS port)\s*([0-9]+|Zmin|Zmax)\s*\(\"(.*)\"\)(\s*mode\s*([0-9]+))?.*
! Touchstone port assignment:
! Touchstone port 1 = CST MWS port 1 ("")
# GHz S DB R 50
4.5                     -2.53411         43.6722
4.52                    -2.70252         40.4768
4.54                    -2.87993         37.1813
4.56                    -3.06639         33.7721
4.58                    -3.26254         30.2351
4.6                      -3.4695         26.5574
4.62                    -3.68856          22.729
4.64                    -3.92094         18.7421
4.66                    -4.16748         14.5913
4.68                     -4.4285         10.2719
4.7                     -4.70366          5.7788
4.72                    -4.99202         1.10489
4.74                    -5.29207        -3.75925
4.76                    -5.60187        -8.82547
4.78                    -5.91913        -14.1078
4.8                     -6.24119        -19.6203
4.82                    -6.56506        -25.3758
4.84                     -6.8873        -31.3839
4.86                    -7.20391        -37.6483
4.88                    -7.51029        -44.1652
4.9                     -7.80119        -50.9217
4.92                    -8.07093        -57.8943
4.94                    -8.31363        -65.0486
4.96                    -8.52374        -72.3399
4.98                    -8.69654        -79.7147
5                       -8.82873        -87.1136
5.02                    -8.91881        -94.4747
5.04                    -8.96732        -101.738
5.06                    -8.97676        -108.847
5.08                    -8.95126        -115.756
5.1                     -8.89609        -122.425
5.12                    -8.81703        -128.825
5.14                    -8.71981        -134.936
5.16                    -8.60963        -140.746
5.18                    -8.49079        -146.249
5.2                     -8.36654        -151.446
5.22                      -8.239        -156.344
5.24                    -8.10939        -160.954
5.26                    -7.97821        -165.296
5.28                    -7.84562        -169.392
5.3                     -7.71181        -173.269
5.32                    -7.57728        -176.957
5.34                    -7.44308         179.515
5.36                    -7.31087         176.121
5.38                    -7.18284         172.836
5.4                     -7.06153         169.646
5.42                    -6.94957         166.538
5.44                    -6.84941         163.511
5.46                    -6.76304         160.565
5.48                    -6.69184          157.71
5.5                     -6.63644         154.954
5.52                    -6.59669         152.312
5.54                    -6.57163         149.795
5.56                    -6.55956         147.418
5.58                      -6.558         145.191
5.6                     -6.56379         143.123
5.62                    -6.57307         141.219
5.64                    -6.58146         139.478
5.66                    -6.58415         137.893
5.68                    -6.57629         136.446
5.7                     -6.55344         135.112
5.72                    -6.51216         133.853
5.74                    -6.45068         132.627
5.76                    -6.36937         131.386
5.78                    -6.27098         130.085
5.8                     -6.16049         128.687
5.82                    -6.04453         127.171
5.84                    -5.93055          125.53
5.86                    -5.82575         123.781
5.88                    -5.73607         121.955
5.9                     -5.66514         120.101
5.92                     -5.6134         118.276
5.94                    -5.57739         116.544
5.96                    -5.54915         114.957
5.98                    -5.51635         113.553
6                       -5.46304         112.331
6.02                    -5.37185         111.247
6.04                    -5.22738         110.197
6.06                    -5.02026         109.033
6.08                    -4.75059         107.575
6.1                     -4.42907         105.647
6.12                    -4.07546         103.107
6.14                    -3.71528          99.858
6.16                    -3.37614         95.8593
6.18                    -3.08511         91.1112
6.2                     -2.86747          85.645
6.22                    -2.74677         79.5096
6.24                    -2.74575         72.7623
6.26                    -2.88807         65.4629
6.28                    -3.20058         57.6703
6.3                      -3.7168         49.4432
6.32                    -4.48247          40.843
6.34                    -5.56548         31.9418
6.36                    -7.07647         22.8443
6.38                    -9.21828         13.7497
6.4                     -12.4349         5.19491
6.42                    -18.0694        -0.33392
6.44                    -32.7537         59.1779
6.46                    -18.5779         136.069
6.48                    -12.7033         130.178
6.5                     -9.43526         120.312
