! TOUCHSTONE file generated by CST MICROWAVE STUDIO
! Date and time: Fri Oct 28 15:28:40 2022
! Project name: L.cst
! Parameters = {Di=1.27; Epsilon_r=1.56; InnerDiameter=1.27; Length=2; Lf=10; Lg=60; OuterConductorThickness=0.2921; OuterDiameter=3.6; Wf=3; Wp=41.2; de=1.5; df=6.8; g=0.8; gx=1.67431; gy=1.44575; h=2.34; hf=1.524; px=12.5884; py=11.9341; w=9.7; wx=10.9141; wy=10.4884}
! Header version: 2018
! Port assignment regex: !\s*Touchstone port\s*([0-9]+)\s*=\s*(CST MWS port|CST DS port)\s*([0-9]+|Zmin|Zmax)\s*\(\"(.*)\"\)(\s*mode\s*([0-9]+))?.*
! Touchstone port assignment:
! Touchstone port 1 = CST MWS port 1 ("")
# GHz S DB R 50
4.5                     -3.57484         48.3478
4.52                     -3.8158         45.6992
4.54                    -4.07015         42.9375
4.56                      -4.346          40.063
4.58                    -4.64944         37.1042
4.6                     -4.98248         34.1016
4.62                     -5.3431         31.0868
4.64                    -5.72718         28.0685
4.66                    -6.13122         25.0291
4.68                    -6.55473         21.9332
4.7                     -7.00108         18.7446
4.72                     -7.4766         15.4409
4.74                    -7.98841         12.0216
4.76                     -8.5421         8.50351
4.78                    -9.14037         4.90865
4.8                     -9.78303          1.2485
4.82                    -10.4685        -2.48899
4.84                     -11.196        -6.34413
4.86                    -11.9678         -10.381
4.88                      -12.79        -14.6764
4.9                     -13.6721        -19.3091
4.92                    -14.6244        -24.3563
4.94                    -15.6557        -29.9035
4.96                    -16.7692        -36.0653
4.98                    -17.9598        -43.0159
5                        -19.209        -51.0177
5.02                    -20.4764        -60.4277
5.04                    -21.6869         -71.638
5.06                    -22.7179        -84.8771
5.08                    -23.4141         -99.854
5.1                     -23.6583        -115.516
5.12                     -23.461        -130.406
5.14                    -22.9541        -143.446
5.16                    -22.2969        -154.279
5.18                    -21.6048        -163.054
5.2                      -20.939        -170.103
5.22                    -20.3241        -175.773
5.24                    -19.7668         179.635
5.26                    -19.2674         175.883
5.28                    -18.8254         172.804
5.3                     -18.4397         170.302
5.32                    -18.1065         168.343
5.34                    -17.8165         166.932
5.36                    -17.5539          166.08
5.38                    -17.2981         165.777
5.4                     -17.0271          165.97
5.42                    -16.7221         166.564
5.44                    -16.3702         167.439
5.46                    -15.9646         168.479
5.48                    -15.5014         169.582
5.5                     -14.9775          170.65
5.52                    -14.3906         171.574
5.54                     -13.742         172.223
5.56                    -13.0404         172.454
5.58                    -12.3029         172.149
5.6                      -11.553         171.236
5.62                    -10.8164         169.707
5.64                     -10.116         167.614
5.66                    -9.46966         165.049
5.68                    -8.88921         162.127
5.7                     -8.38041         158.972
5.72                    -7.94374         155.707
5.74                    -7.57483         152.448
5.76                    -7.26471         149.299
5.78                    -6.99979         146.342
5.8                     -6.76227         143.631
5.82                    -6.53149         141.171
5.84                    -6.28688         138.913
5.86                    -6.01238         136.744
5.88                    -5.70099         134.514
5.9                     -5.35725         132.065
5.92                    -4.99599         129.274
5.94                    -4.63807         126.077
5.96                    -4.30477          122.48
5.98                    -4.01334         118.539
6                       -3.77437         114.344
6.02                    -3.59136         109.987
6.04                    -3.46186         105.546
6.06                    -3.37992         101.067
6.08                     -3.3392         96.5567
6.1                     -3.33607         91.9938
6.12                    -3.37184         87.3394
6.14                    -3.45327         82.5583
6.16                    -3.59155         77.6364
6.18                    -3.80039         72.5879
6.2                     -4.09438         67.4552
6.22                    -4.48878         62.3017
6.24                    -5.00127         57.2096
6.26                    -5.65568          52.293
6.28                    -6.48711         47.7433
6.3                     -7.54552         43.9395
6.32                    -8.89022         41.6762
6.34                    -10.5433         42.6066
6.36                    -12.2834          49.701
6.38                    -13.1663         64.8344
6.4                     -12.1353         80.4328
6.42                         -10         86.8913
6.44                    -7.93011         84.7952
6.46                    -6.31327         77.3784
6.48                    -5.20678         66.6303
6.5                     -4.60786         53.5183
