! TOUCHSTONE file generated by CST MICROWAVE STUDIO
! Date and time: Fri Oct 28 20:55:52 2022
! Project name: L.cst
! Parameters = {Di=1.27; Epsilon_r=1.56; InnerDiameter=1.27; Length=2; Lf=10; Lg=60; OuterConductorThickness=0.2921; OuterDiameter=3.6; Wf=3; Wp=41.2; de=1.5; df=6.8; g=0.8; gx=0.429415; gy=1.76337; h=2.34; hf=1.524; px=10.8994; py=13.5433; w=9.7; wx=10.4699; wy=11.7799}
! Header version: 2018
! Port assignment regex: !\s*Touchstone port\s*([0-9]+)\s*=\s*(CST MWS port|CST DS port)\s*([0-9]+|Zmin|Zmax)\s*\(\"(.*)\"\)(\s*mode\s*([0-9]+))?.*
! Touchstone port assignment:
! Touchstone port 1 = CST MWS port 1 ("")
# GHz S DB R 50
4.5                     -7.47092         80.1712
4.52                    -7.41753         80.8956
4.54                    -7.55233         81.2151
4.56                    -7.59158         82.8146
4.58                    -7.45039         83.3271
4.6                     -7.46002         83.2574
4.62                    -7.42306         84.1125
4.64                    -7.24228         84.1237
4.66                    -7.18451         83.4817
4.68                    -7.12284         83.5232
4.7                     -6.94899         82.9775
4.72                    -6.87321         81.7722
4.74                    -6.82491         81.0794
4.76                    -6.68904         80.0236
4.78                    -6.62867         78.3242
4.8                     -6.61825         76.9951
4.82                    -6.54116         75.4772
4.84                    -6.52081         73.3332
4.86                    -6.56844         71.4208
4.88                    -6.57115         69.4422
4.9                     -6.61848         66.8454
4.92                    -6.75353          64.331
4.94                    -6.87271         61.8267
4.96                    -7.03693         58.6958
4.98                    -7.32174         55.4735
5                       -7.64274         52.3049
5.02                    -8.04067         48.4996
5.04                    -8.63776         44.4257
5.06                    -9.39638         40.5229
5.08                    -10.3663         36.1627
5.1                     -11.7923         31.7107
5.12                    -13.8254         28.6845
5.14                     -16.756         28.3851
5.16                     -21.575         38.9576
5.18                    -24.8044         95.5542
5.2                     -19.1317         130.486
5.22                    -14.8041         135.158
5.24                    -11.8484          132.31
5.26                     -9.8158         126.844
5.28                    -8.37408         121.085
5.3                     -7.24954         115.353
5.32                    -6.38726         109.437
5.34                    -5.75441         103.864
5.36                     -5.2303         98.7409
5.38                    -4.79231         93.6046
5.4                     -4.47258         88.6516
5.42                    -4.20203         84.1019
5.44                     -3.9519         79.5073
5.46                    -3.77746         74.8845
5.48                    -3.64179         70.5686
5.5                       -3.502         66.1939
5.52                    -3.42064         61.6259
5.54                    -3.38848         57.2952
5.56                     -3.3448          52.961
5.58                    -3.34835         48.3285
5.6                      -3.4187         43.8854
5.62                    -3.47645         39.5534
5.64                    -3.56811         34.8445
5.66                    -3.75095         30.2611
5.68                    -3.92961         25.9719
5.7                     -4.12705         21.2779
5.72                    -4.45224         16.6725
5.74                     -4.7924         12.7665
5.76                    -5.11606          8.6482
5.78                    -5.59477         4.81901
5.8                      -6.0466         2.74827
5.82                    -6.25301         1.00264
5.84                    -6.37058       -0.436319
5.86                    -5.88191        -0.94221
5.88                    -4.61824        -8.04085
5.9                     -3.90568        -24.8379
5.92                    -4.63251        -46.0571
5.94                    -6.90347        -65.3769
5.96                     -10.235        -77.7254
5.98                    -13.8592        -82.7824
6                       -17.7438        -82.0958
6.02                    -21.4693        -73.3306
6.04                     -24.782        -63.3614
6.06                    -28.4812        -57.8576
6.08                    -30.7978        -142.115
6.1                     -17.0572         143.644
6.12                    -9.47116         104.867
6.14                    -5.55375         69.5953
6.16                    -3.99605         38.7382
6.18                    -3.85085          15.495
6.2                     -3.90081      -0.0836851
6.22                    -3.60718        -14.3116
6.24                    -3.54926        -29.4789
6.26                    -3.72188        -42.4378
6.28                    -3.58949        -54.3808
6.3                     -3.38252        -68.4935
6.32                    -3.40325        -82.9318
6.34                    -3.28373        -96.6984
6.36                    -2.96582        -112.556
6.38                    -2.82798        -130.324
6.4                     -2.75086        -148.053
6.42                    -2.52252        -167.352
6.44                    -2.51965         170.545
6.46                    -2.97973         148.222
6.48                    -3.60565         126.896
6.5                     -4.49459         104.578
