! TOUCHSTONE file generated by CST MICROWAVE STUDIO
! Date and time: Fri Oct 28 12:58:56 2022
! Project name: L.cst
! Parameters = {Di=1.27; Epsilon_r=1.56; InnerDiameter=1.27; Length=2; Lf=10; Lg=60; OuterConductorThickness=0.2921; OuterDiameter=3.6; Wf=3; Wp=41.2; de=1.5; df=6.8; g=0.8; gx=0.572565; gy=4.3301; h=2.34; hf=1.524; px=12.3502; py=8.93144; w=9.7; wx=11.7777; wy=4.60135}
! Header version: 2018
! Port assignment regex: !\s*Touchstone port\s*([0-9]+)\s*=\s*(CST MWS port|CST DS port)\s*([0-9]+|Zmin|Zmax)\s*\(\"(.*)\"\)(\s*mode\s*([0-9]+))?.*
! Touchstone port assignment:
! Touchstone port 1 = CST MWS port 1 ("")
# GHz S DB R 50
4.5                     -2.82415         79.0808
4.52                    -3.07068         76.8084
4.54                    -3.38716          75.259
4.56                    -3.63416         74.2733
4.58                    -3.80627         72.9552
4.6                     -4.03033         71.0989
4.62                    -4.36534          69.445
4.64                    -4.72118         68.5568
4.66                    -4.99611         68.0119
4.68                    -5.23148         67.1032
4.7                     -5.53754         65.9728
4.72                    -5.91782         65.3756
4.74                    -6.26025         65.5411
4.76                    -6.50466         65.8249
4.78                    -6.73047         65.7557
4.8                     -7.01579         65.7772
4.82                    -7.30412         66.5053
4.84                    -7.48359         67.7075
4.86                    -7.56003         68.6195
4.88                    -7.63637         69.1364
4.9                     -7.73717         69.8578
4.92                     -7.7715         71.0085
4.94                    -7.68458         71.9918
4.96                       -7.55         72.3062
4.98                    -7.45009         72.2595
5                       -7.35695         72.3627
5.02                    -7.19334         72.4874
5.04                    -6.96639         72.0812
5.06                    -6.75942          71.048
5.08                    -6.60678         69.8509
5.1                     -6.45357         68.7808
5.12                    -6.24936         67.5368
5.14                    -6.03008          65.725
5.16                    -5.86256         63.4709
5.18                    -5.74657         61.2106
5.2                     -5.62007         59.0375
5.22                    -5.45555         56.5645
5.24                    -5.30371         53.5109
5.26                    -5.21777         50.1116
5.28                    -5.17622         46.7466
5.3                     -5.11458         43.3483
5.32                    -5.02351         39.4371
5.34                    -4.96859         34.7762
5.36                    -4.99821         29.6596
5.38                    -5.07466         24.4074
5.4                     -5.12601         18.7437
5.42                    -5.15826         11.9345
5.44                    -5.26396         3.56389
5.46                    -5.50541        -6.21396
5.48                    -5.82974        -17.3641
5.5                     -6.12284        -30.8575
5.52                    -6.34318        -48.6601
5.54                    -6.51911        -72.6045
5.56                    -6.56864        -103.134
5.58                    -6.27088        -138.207
5.6                     -5.60231        -173.579
5.62                    -4.90069         154.279
5.64                    -4.53622          126.67
5.66                     -4.6776          103.84
5.68                    -5.29521         85.9412
5.7                     -6.21702         72.9336
5.72                    -7.24182         64.0537
5.74                    -8.31832         58.1368
5.76                    -9.54261         55.2247
5.78                    -10.8164         57.2042
5.8                     -11.5223         64.7692
5.82                    -11.1601         73.1474
5.84                     -10.202         77.7674
5.86                    -9.18123         79.2817
5.88                    -8.17466         79.1264
5.9                     -7.17083         77.3713
5.92                     -6.2739         73.9682
5.94                     -5.5824         69.6512
5.96                    -5.06907         65.3689
5.98                    -4.62193          61.429
6                       -4.17769         57.4136
6.02                    -3.77975         52.9601
6.04                    -3.48878         48.3213
6.06                    -3.28501         44.0002
6.08                     -3.0895         40.0665
6.1                     -2.86918         36.0845
6.12                    -2.67599          31.773
6.14                    -2.56028         27.4155
6.16                     -2.4895         23.4276
6.18                    -2.38829         19.7111
6.2                     -2.24924         15.7405
6.22                    -2.14705         11.3308
6.24                    -2.12621         6.91648
6.26                    -2.12828         2.90116
6.28                     -2.0698        -1.03338
6.3                      -1.9755        -5.57859
6.32                    -1.95515        -10.7955
6.34                    -2.04375        -16.0168
6.36                    -2.13514        -20.8891
6.38                    -2.12816        -26.2304
6.4                     -2.11617        -33.2411
6.42                    -2.31174        -42.0242
6.44                    -2.81202        -51.6555
6.46                    -3.50308        -61.7211
6.48                    -4.23654        -74.0162
6.5                     -5.15438        -92.4876
