! TOUCHSTONE file generated by CST MICROWAVE STUDIO
! Date and time: Wed Oct 26 17:53:14 2022
! Project name: L.cst
! Parameters = {Di=1.27; Epsilon_r=1.56; InnerDiameter=1.27; Length=2; Lf=10; Lg=60; OuterConductorThickness=0.2921; OuterDiameter=3.6; Wf=3; Wp=41.2; de=1.5; df=6.8; g=0.8; gx=3.94075; gy=4.76701; h=2.34; hf=1.524; px=9.11235; py=10.2135; w=9.7; wx=5.1716; wy=5.44646}
! Header version: 2018
! Port assignment regex: !\s*Touchstone port\s*([0-9]+)\s*=\s*(CST MWS port|CST DS port)\s*([0-9]+|Zmin|Zmax)\s*\(\"(.*)\"\)(\s*mode\s*([0-9]+))?.*
! Touchstone port assignment:
! Touchstone port 1 = CST MWS port 1 ("")
# GHz S DB R 50
4.5                    -0.278677           98.35
4.52                   -0.285572         96.9534
4.54                   -0.292608         95.5477
4.56                   -0.299785          94.133
4.58                   -0.307109         92.7093
4.6                    -0.314578         91.2765
4.62                   -0.322193         89.8345
4.64                   -0.329952         88.3832
4.66                   -0.337852         86.9227
4.68                    -0.34589         85.4529
4.7                    -0.354064         83.9737
4.72                   -0.362369         82.4851
4.74                   -0.370802         80.9869
4.76                    -0.37936         79.4792
4.78                    -0.38804         77.9619
4.8                    -0.396841         76.4348
4.82                    -0.40576          74.898
4.84                   -0.414793         73.3514
4.86                   -0.423941          71.795
4.88                   -0.433202         70.2287
4.9                    -0.442577         68.6525
4.92                   -0.452063         67.0663
4.94                   -0.461664         65.4702
4.96                   -0.471376         63.8642
4.98                   -0.481202         62.2482
5                      -0.491141         60.6224
5.02                   -0.501195         58.9866
5.04                   -0.511362          57.341
5.06                   -0.521646         55.6856
5.08                   -0.532043         54.0205
5.1                    -0.542555         52.3458
5.12                   -0.553181         50.6615
5.14                    -0.56392         48.9678
5.16                   -0.574771         47.2648
5.18                   -0.585732         45.5526
5.2                    -0.596802         43.8314
5.22                   -0.607975         42.1013
5.24                   -0.619252         40.3626
5.26                   -0.630627         38.6153
5.28                   -0.642097         36.8597
5.3                    -0.653657          35.096
5.32                   -0.665301         33.3244
5.34                   -0.677026         31.5451
5.36                   -0.688824         29.7585
5.38                    -0.70069         27.9647
5.4                    -0.712616         26.1641
5.42                   -0.724596         24.3568
5.44                   -0.736622         22.5433
5.46                   -0.748686         20.7238
5.48                   -0.760782         18.8986
5.5                    -0.772899          17.068
5.52                    -0.78503         15.2324
5.54                   -0.797167         13.3922
5.56                     -0.8093         11.5476
5.58                   -0.821421         9.69911
5.6                    -0.833519         7.84701
5.62                   -0.845587         5.99169
5.64                   -0.857615         4.13355
5.66                   -0.869594         2.27299
5.68                   -0.881513        0.410399
5.7                    -0.893364        -1.45381
5.72                   -0.905137        -3.31924
5.74                    -0.91682        -5.18545
5.76                   -0.928406          -7.052
5.78                   -0.939886        -8.91855
5.8                    -0.951246        -10.7846
5.82                   -0.962478        -12.6498
5.84                   -0.973572        -14.5137
5.86                   -0.984517        -16.3758
5.88                   -0.995301        -18.2357
5.9                     -1.00592        -20.0931
5.92                    -1.01635        -21.9474
5.94                    -1.02659        -23.7984
5.96                    -1.03662        -25.6455
5.98                    -1.04644        -27.4885
6                       -1.05604        -29.3268
6.02                    -1.06539        -31.1602
6.04                     -1.0745        -32.9882
6.06                    -1.08334        -34.8106
6.08                    -1.09191        -36.6269
6.1                     -1.10019         -38.437
6.12                    -1.10818        -40.2403
6.14                    -1.11587        -42.0368
6.16                    -1.12324        -43.8261
6.18                    -1.13029        -45.6079
6.2                     -1.13702        -47.3821
6.22                     -1.1434        -49.1484
6.24                    -1.14945        -50.9066
6.26                    -1.15515        -52.6565
6.28                    -1.16052        -54.3981
6.3                     -1.16554        -56.1311
6.32                    -1.17023        -57.8555
6.34                    -1.17458         -59.571
6.36                    -1.17862        -61.2778
6.38                    -1.18235        -62.9756
6.4                     -1.18579        -64.6643
6.42                    -1.18896        -66.3438
6.44                    -1.19187        -68.0142
6.46                    -1.19455        -69.6753
6.48                    -1.19704        -71.3269
6.5                     -1.19935         -72.969
