! TOUCHSTONE file generated by CST MICROWAVE STUDIO
! Date and time: Fri Oct 28 11:56:40 2022
! Project name: L.cst
! Parameters = {Di=1.27; Epsilon_r=1.56; InnerDiameter=1.27; Length=2; Lf=10; Lg=60; OuterConductorThickness=0.2921; OuterDiameter=3.6; Wf=3; Wp=41.2; de=1.5; df=6.8; g=0.8; gx=2.44455; gy=3.33935; h=2.34; hf=1.524; px=8.17921; py=9.17585; w=9.7; wx=5.73466; wy=5.8365}
! Header version: 2018
! Port assignment regex: !\s*Touchstone port\s*([0-9]+)\s*=\s*(CST MWS port|CST DS port)\s*([0-9]+|Zmin|Zmax)\s*\(\"(.*)\"\)(\s*mode\s*([0-9]+))?.*
! Touchstone port assignment:
! Touchstone port 1 = CST MWS port 1 ("")
# GHz S DB R 50
4.5                    -0.333761         92.9483
4.52                    -0.34264         91.5328
4.54                   -0.351748         90.1067
4.56                   -0.361094           88.67
4.58                   -0.370683         87.2225
4.6                    -0.380515         85.7643
4.62                   -0.390591         84.2953
4.64                   -0.400909         82.8154
4.66                   -0.411466         81.3244
4.68                   -0.422256         79.8224
4.7                    -0.433277         78.3092
4.72                   -0.444523         76.7848
4.74                   -0.455989         75.2489
4.76                   -0.467672         73.7015
4.78                   -0.479569         72.1425
4.8                    -0.491674         70.5717
4.82                   -0.503987         68.9891
4.84                   -0.516506         67.3945
4.86                   -0.529229         65.7878
4.88                   -0.542158          64.169
4.9                    -0.555291         62.5379
4.92                   -0.568631         60.8944
4.94                   -0.582179         59.2386
4.96                   -0.595936         57.5702
4.98                   -0.609904         55.8894
5                      -0.624087         54.1961
5.02                   -0.638486         52.4901
5.04                   -0.653102         50.7717
5.06                   -0.667938         49.0407
5.08                   -0.682996         47.2973
5.1                    -0.698275         45.5414
5.12                   -0.713776         43.7732
5.14                   -0.729501         41.9927
5.16                   -0.745445            40.2
5.18                   -0.761608         38.3953
5.2                    -0.777989         36.5787
5.22                   -0.794582         34.7504
5.24                   -0.811383         32.9105
5.26                   -0.828387         31.0593
5.28                   -0.845587         29.1969
5.3                    -0.862977         27.3237
5.32                   -0.880548         25.4397
5.34                    -0.89829         23.5454
5.36                   -0.916194         21.6409
5.38                    -0.93425         19.7267
5.4                    -0.952445         17.8029
5.42                   -0.970766           15.87
5.44                   -0.989202         13.9282
5.46                    -1.00774          11.978
5.48                    -1.02636         10.0197
5.5                     -1.04505         8.05377
5.52                     -1.0638         6.08055
5.54                    -1.08259         4.10049
5.56                    -1.10141         2.11402
5.58                    -1.12023        0.121608
5.6                     -1.13904        -1.87629
5.62                    -1.15783         -3.8792
5.64                    -1.17657        -5.88662
5.66                    -1.19526        -7.89805
5.68                    -1.21387        -9.91298
5.7                     -1.23239        -11.9309
5.72                    -1.25079        -13.9513
5.74                    -1.26907        -15.9735
5.76                    -1.28721        -17.9971
5.78                    -1.30518        -20.0216
5.8                     -1.32297        -22.0463
5.82                    -1.34056        -24.0707
5.84                    -1.35794        -26.0943
5.86                    -1.37509        -28.1164
5.88                    -1.39199        -30.1366
5.9                     -1.40862        -32.1543
5.92                    -1.42497        -34.1688
5.94                    -1.44103        -36.1798
5.96                    -1.45676        -38.1866
5.98                    -1.47216        -40.1888
6                        -1.4872        -42.1857
6.02                    -1.50188         -44.177
6.04                    -1.51617        -46.1622
6.06                    -1.53006        -48.1407
6.08                    -1.54353        -50.1122
6.1                     -1.55657        -52.0762
6.12                    -1.56916        -54.0323
6.14                    -1.58129        -55.9802
6.16                    -1.59294        -57.9196
6.18                    -1.60411          -59.85
6.2                     -1.61478        -61.7713
6.22                    -1.62496        -63.6831
6.24                    -1.63462        -65.5853
6.26                    -1.64378        -67.4776
6.28                    -1.65243        -69.3599
6.3                     -1.66057        -71.2319
6.32                    -1.66822        -73.0937
6.34                    -1.67539         -74.945
6.36                    -1.68209        -76.7858
6.38                    -1.68833        -78.6161
6.4                     -1.69416        -80.4356
6.42                    -1.69959        -82.2445
6.44                    -1.70467        -84.0425
6.46                    -1.70942        -85.8297
6.48                    -1.71389         -87.606
6.5                     -1.71812        -89.3711
