! TOUCHSTONE file generated by CST MICROWAVE STUDIO
! Date and time: Fri Oct 28 16:33:53 2022
! Project name: L.cst
! Parameters = {Di=1.27; Epsilon_r=1.56; InnerDiameter=1.27; Length=2; Lf=10; Lg=60; OuterConductorThickness=0.2921; OuterDiameter=3.6; Wf=3; Wp=41.2; de=1.5; df=6.8; g=0.8; gx=4.41413; gy=1.51474; h=2.34; hf=1.524; px=9.19696; py=13.5032; w=9.7; wx=4.78283; wy=11.9885}
! Header version: 2018
! Port assignment regex: !\s*Touchstone port\s*([0-9]+)\s*=\s*(CST MWS port|CST DS port)\s*([0-9]+|Zmin|Zmax)\s*\(\"(.*)\"\)(\s*mode\s*([0-9]+))?.*
! Touchstone port assignment:
! Touchstone port 1 = CST MWS port 1 ("")
# GHz S DB R 50
4.5                    -0.434596         80.8587
4.52                   -0.444925         79.4144
4.54                   -0.435335         77.7349
4.56                   -0.459345         75.9595
4.58                   -0.486116         74.3738
4.6                    -0.483225         72.7294
4.62                   -0.491813         70.8874
4.64                   -0.521632         69.1225
4.66                   -0.532575         67.4307
4.68                   -0.533976         65.5705
4.7                     -0.55689         63.6501
4.72                   -0.579306         61.8307
4.74                   -0.583504         59.9414
4.76                   -0.596966         57.9113
4.78                    -0.62328           55.92
4.8                    -0.636266         53.9476
4.82                   -0.644284         51.8363
4.84                   -0.667224         49.6694
4.86                    -0.68873         47.5469
4.88                   -0.697934         45.3434
4.9                    -0.714557         43.0164
4.92                   -0.739818         40.6927
4.94                   -0.754985          38.348
4.96                   -0.767112          35.867
4.98                   -0.790431         33.3136
5                      -0.812137         30.7565
5.02                   -0.824447         28.0947
5.04                   -0.842723         25.2945
5.06                   -0.867645         22.4509
5.08                   -0.884429         19.5387
5.1                    -0.898863         16.4599
5.12                   -0.922792         13.2595
5.14                   -0.946056         9.98919
5.16                   -0.962058         6.55821
5.18                   -0.984115         2.92557
5.2                     -1.01427       -0.836367
5.22                    -1.04033         -4.7523
5.24                    -1.06727        -8.92103
5.26                    -1.10769        -13.3201
5.28                    -1.15512        -17.9045
5.3                     -1.20357        -22.7582
5.32                    -1.26633        -27.9407
5.34                    -1.34972        -33.3928
5.36                    -1.44383        -39.1236
5.38                    -1.55174         -45.238
5.4                     -1.68887        -51.7423
5.42                    -1.85377        -58.5805
5.44                    -2.03817         -65.821
5.46                    -2.25412        -73.5636
5.48                    -2.51629        -81.7716
5.5                     -2.81907        -90.4102
5.52                    -3.16137        -99.5798
5.54                    -3.56508        -109.326
5.56                    -4.04421        -119.526
5.58                    -4.58986        -130.096
5.6                     -5.20554        -141.068
5.62                    -5.91674        -152.319
5.64                    -6.72587        -163.502
5.66                    -7.60264        -174.368
5.68                    -8.53841         175.199
5.7                     -9.54794         165.607
5.72                     -10.585         157.569
5.74                    -11.5364         151.422
5.76                    -12.3261         147.142
5.78                    -12.8638         144.995
5.8                     -12.9354         144.551
5.82                    -12.4723         143.844
5.84                    -11.6705         141.678
5.86                    -10.6579         138.083
5.88                    -9.50221          132.72
5.9                     -8.35773         125.475
5.92                    -7.32058         117.042
5.94                    -6.35987         107.865
5.96                    -5.46731         97.7208
5.98                    -4.70729         86.5843
6                       -4.09724          74.836
6.02                    -3.58678         62.4829
6.04                    -3.17262         49.0181
6.06                    -2.91479         34.1088
6.08                    -2.83298         17.5834
6.1                     -2.90877        -1.37552
6.12                    -3.19728        -24.3602
6.14                    -3.79622        -53.0433
6.16                    -4.59176        -88.7132
6.18                     -5.0225        -130.807
6.2                     -4.53699        -173.968
6.22                    -3.48433         148.256
6.24                     -2.5535         117.658
6.26                    -1.99199         93.6838
6.28                    -1.62637         75.1786
6.3                     -1.24261         59.6599
6.32                   -0.971579         44.8479
6.34                    -1.03822         31.3199
6.36                    -1.24016         20.8589
6.38                    -1.13654          11.959
6.4                    -0.898063         1.26846
6.42                   -0.963113        -10.2465
6.44                    -1.10955        -20.1057
6.46                   -0.932967        -30.7342
6.48                   -0.896108        -45.0952
6.5                      -1.4156        -59.7885
