! TOUCHSTONE file generated by CST MICROWAVE STUDIO
! Date and time: Sat Oct 29 19:27:46 2022
! Project name: L.cst
! Parameters = {Di=1.27; Epsilon_r=1.56; InnerDiameter=1.27; Length=2; Lf=10; Lg=60; OuterConductorThickness=0.2921; OuterDiameter=3.6; Wf=3; Wp=41.2; de=1.5; df=6.8; g=0.8; gx=2.67881; gy=4.55162; h=2.34; hf=1.524; px=12.6517; py=11.5111; w=9.7; wx=9.97285; wy=6.95943}
! Header version: 2018
! Port assignment regex: !\s*Touchstone port\s*([0-9]+)\s*=\s*(CST MWS port|CST DS port)\s*([0-9]+|Zmin|Zmax)\s*\(\"(.*)\"\)(\s*mode\s*([0-9]+))?.*
! Touchstone port assignment:
! Touchstone port 1 = CST MWS port 1 ("")
# GHz S DB R 50
4.5                    -0.547351         93.4547
4.52                   -0.571029         91.9318
4.54                   -0.595394         90.4001
4.56                   -0.620362         88.8589
4.58                   -0.645875         87.3075
4.6                    -0.671892         85.7451
4.62                   -0.698393          84.171
4.64                   -0.725375         82.5843
4.66                   -0.752853         80.9843
4.68                   -0.780859         79.3703
4.7                    -0.809433         77.7415
4.72                   -0.838631         76.0974
4.74                   -0.868515         74.4374
4.76                   -0.899157          72.761
4.78                   -0.930632         71.0677
4.8                    -0.963021         69.3571
4.82                   -0.996406          67.629
4.84                    -1.03087         65.8831
4.86                     -1.0665         64.1192
4.88                    -1.10337         62.3372
4.9                     -1.14157          60.537
4.92                    -1.18118         58.7185
4.94                    -1.22226         56.8818
4.96                     -1.2649          55.027
4.98                    -1.30915          53.154
5                       -1.35508         51.2631
5.02                    -1.40276         49.3544
5.04                    -1.45224          47.428
5.06                    -1.50356         45.4841
5.08                    -1.55678          43.523
5.1                     -1.61194         41.5448
5.12                    -1.66909         39.5499
5.14                    -1.72826         37.5384
5.16                    -1.78949         35.5106
5.18                    -1.85281         33.4668
5.2                     -1.91825         31.4073
5.22                    -1.98584         29.3324
5.24                    -2.05561         27.2424
5.26                    -2.12758         25.1377
5.28                    -2.20179         23.0185
5.3                     -2.27825         20.8853
5.32                    -2.35699         18.7384
5.34                    -2.43803         16.5782
5.36                     -2.5214         14.4051
5.38                    -2.60713         12.2197
5.4                     -2.69524         10.0223
5.42                    -2.78575         7.81354
5.44                     -2.8787          5.5939
5.46                     -2.9741         3.36399
5.48                    -3.07199         1.12443
5.5                      -3.1724        -1.12409
5.52                    -3.27536        -3.38085
5.54                     -3.3809        -5.64507
5.56                    -3.48905        -7.91589
5.58                    -3.59984        -10.1924
5.6                     -3.71331        -12.4736
5.62                    -3.82949        -14.7585
5.64                    -3.94841         -17.046
5.66                    -4.07009        -19.3347
5.68                    -4.19457        -21.6235
5.7                     -4.32186        -23.9108
5.72                    -4.45199        -26.1952
5.74                    -4.58497        -28.4751
5.76                     -4.7208        -30.7487
5.78                    -4.85948        -33.0142
5.8                     -5.00099        -35.2698
5.82                     -5.1453        -37.5133
5.84                    -5.29236        -39.7426
5.86                    -5.44212        -41.9554
5.88                    -5.59446        -44.1492
5.9                     -5.74929        -46.3217
5.92                    -5.90644        -48.4703
5.94                    -6.06574        -50.5924
5.96                    -6.22695        -52.6854
5.98                    -6.38981        -54.7465
6                       -6.55398        -56.7732
6.02                    -6.71911         -58.763
6.04                    -6.88474        -60.7135
6.06                    -7.05039        -62.6227
6.08                    -7.21548        -64.4887
6.1                      -7.3794        -66.3101
6.12                    -7.54146        -68.0861
6.14                    -7.70091        -69.8164
6.16                    -7.85697        -71.5017
6.18                    -8.00881        -73.1435
6.2                      -8.1556        -74.7442
6.22                    -8.29653        -76.3076
6.24                    -8.43082        -77.8387
6.26                    -8.55776        -79.3434
6.28                    -8.67678        -80.8297
6.3                     -8.78746        -82.3061
6.32                    -8.88958        -83.7829
6.34                    -8.98316        -85.2711
6.36                    -9.06851        -86.7827
6.38                    -9.14626        -88.3303
6.4                     -9.21735        -89.9268
6.42                    -9.28312        -91.5853
6.44                    -9.34523        -93.3184
6.46                    -9.40574        -95.1385
6.48                    -9.46706        -97.0572
6.5                     -9.53198        -99.0855
