! TOUCHSTONE file generated by CST MICROWAVE STUDIO
! Date and time: Fri Oct 28 07:35:41 2022
! Project name: L.cst
! Parameters = {Di=1.27; Epsilon_r=1.56; InnerDiameter=1.27; Length=2; Lf=10; Lg=60; OuterConductorThickness=0.2921; OuterDiameter=3.6; Wf=3; Wp=41.2; de=1.5; df=6.8; g=0.8; gx=4.73007; gy=4.80329; h=2.34; hf=1.524; px=10.943; py=10.4424; w=9.7; wx=6.21295; wy=5.63915}
! Header version: 2018
! Port assignment regex: !\s*Touchstone port\s*([0-9]+)\s*=\s*(CST MWS port|CST DS port)\s*([0-9]+|Zmin|Zmax)\s*\(\"(.*)\"\)(\s*mode\s*([0-9]+))?.*
! Touchstone port assignment:
! Touchstone port 1 = CST MWS port 1 ("")
# GHz S DB R 50
4.5                    -0.294853         98.7381
4.52                   -0.302375         97.3293
4.54                   -0.310072         95.9108
4.56                   -0.317949         94.4825
4.58                   -0.326009         93.0444
4.6                    -0.334254         91.5965
4.62                   -0.342683         90.1387
4.64                   -0.351294         88.6709
4.66                   -0.360084         87.1931
4.68                    -0.36905         85.7051
4.7                    -0.378187          84.207
4.72                   -0.387492         82.6987
4.74                   -0.396961           81.18
4.76                    -0.40659         79.6509
4.78                   -0.416375         78.1113
4.8                    -0.426313         76.5611
4.82                   -0.436404         75.0002
4.84                   -0.446643         73.4286
4.86                   -0.457031         71.8463
4.88                   -0.467567          70.253
4.9                    -0.478249         68.6489
4.92                    -0.48908         67.0338
4.94                    -0.50006         65.4077
4.96                   -0.511188         63.7706
4.98                   -0.522468         62.1224
5                      -0.533899         60.4633
5.02                   -0.545483         58.7932
5.04                   -0.557222         57.1121
5.06                   -0.569116           55.42
5.08                   -0.581167         53.7171
5.1                    -0.593376         52.0035
5.12                    -0.60574         50.2791
5.14                   -0.618262         48.5441
5.16                    -0.63094         46.7986
5.18                   -0.643772         45.0428
5.2                    -0.656757         43.2768
5.22                   -0.669893         41.5008
5.24                   -0.683176         39.7149
5.26                   -0.696601         37.9194
5.28                   -0.710167         36.1144
5.3                    -0.723865         34.3002
5.32                   -0.737691         32.4771
5.34                    -0.75164         30.6452
5.36                   -0.765703         28.8048
5.38                   -0.779873         26.9563
5.4                    -0.794144         25.0999
5.42                   -0.808504         23.2359
5.44                   -0.822948         21.3647
5.46                   -0.837464         19.4865
5.48                   -0.852042         17.6018
5.5                    -0.866674         15.7109
5.52                   -0.881348         13.8142
5.54                   -0.896054          11.912
5.56                   -0.910781         10.0048
5.58                   -0.925517         8.09289
5.6                    -0.940252         6.17679
5.62                   -0.954975         4.25688
5.64                   -0.969671          2.3336
5.66                   -0.984333         0.40741
5.68                   -0.998946        -1.52125
5.7                      -1.0135        -3.45192
5.72                    -1.02798        -5.38413
5.74                    -1.04238         -7.3174
5.76                    -1.05667        -9.25122
5.78                    -1.07086        -11.1852
5.8                     -1.08493        -13.1188
5.82                    -1.09887        -15.0515
5.84                    -1.11265        -16.9829
5.86                    -1.12628        -18.9125
5.88                    -1.13973        -20.8398
5.9                       -1.153        -22.7642
5.92                    -1.16607        -24.6854
5.94                    -1.17892        -26.6029
5.96                    -1.19154        -28.5162
5.98                    -1.20392        -30.4248
6                       -1.21605        -32.3283
6.02                     -1.2279        -34.2263
6.04                    -1.23947        -36.1184
6.06                    -1.25074        -38.0042
6.08                    -1.26169        -39.8833
6.1                     -1.27232        -41.7553
6.12                    -1.28261        -43.6199
6.14                    -1.29254        -45.4768
6.16                    -1.30211        -47.3256
6.18                     -1.3113        -49.1662
6.2                     -1.32011        -50.9982
6.22                    -1.32852        -52.8214
6.24                    -1.33654        -54.6357
6.26                    -1.34415        -56.4408
6.28                    -1.35136        -58.2366
6.3                     -1.35817         -60.023
6.32                    -1.36458        -61.7997
6.34                     -1.3706        -63.5668
6.36                    -1.37624        -65.3242
6.38                    -1.38152        -67.0718
6.4                     -1.38645        -68.8094
6.42                    -1.39106        -70.5371
6.44                    -1.39538        -72.2547
6.46                    -1.39943        -73.9622
6.48                    -1.40325        -75.6596
6.5                     -1.40687        -77.3466
