! TOUCHSTONE file generated by CST MICROWAVE STUDIO
! Date and time: Fri Oct 28 06:51:17 2022
! Project name: L.cst
! Parameters = {Di=1.27; Epsilon_r=1.56; InnerDiameter=1.27; Length=2; Lf=10; Lg=60; OuterConductorThickness=0.2921; OuterDiameter=3.6; Wf=3; Wp=41.2; de=1.5; df=6.8; g=0.8; gx=2.66746; gy=3.57154; h=2.34; hf=1.524; px=13.095; py=14.7161; w=9.7; wx=10.4275; wy=11.1446}
! Header version: 2018
! Port assignment regex: !\s*Touchstone port\s*([0-9]+)\s*=\s*(CST MWS port|CST DS port)\s*([0-9]+|Zmin|Zmax)\s*\(\"(.*)\"\)(\s*mode\s*([0-9]+))?.*
! Touchstone port assignment:
! Touchstone port 1 = CST MWS port 1 ("")
# GHz S DB R 50
4.5                    -0.853134         86.2038
4.52                   -0.895916         84.4779
4.54                   -0.941199         82.9363
4.56                   -0.966956         81.2493
4.58                    -1.02098         79.5323
4.6                     -1.06062         77.9211
4.62                    -1.09975          76.137
4.64                    -1.15795         74.4217
4.66                     -1.1978         72.7036
4.68                    -1.25117         70.8612
4.7                     -1.30986         69.1156
4.72                    -1.35652         67.2834
4.74                    -1.42168         65.4056
4.76                    -1.48116          63.592
4.78                    -1.53962         61.6592
4.8                     -1.61328          59.748
4.82                    -1.67688          57.838
4.84                    -1.74951          55.826
4.86                    -1.82954         53.8666
4.88                    -1.90191         51.8481
4.9                     -1.98874         49.7743
4.92                    -2.07502         47.7434
4.94                    -2.16061         45.6187
4.96                    -2.26046         43.4898
4.98                    -2.35513         41.3647
5                       -2.45715         39.1454
5.02                    -2.56892         36.9553
5.04                    -2.67578         34.7208
5.06                    -2.79599         32.4211
5.08                    -2.91971         30.1553
5.1                     -3.04317         27.8073
5.12                    -3.18204         25.4371
5.14                    -3.31933          23.077
5.16                    -3.46351         20.6215
5.18                    -3.62086          18.182
5.2                     -3.77503         15.7102
5.22                     -3.9432         13.1584
5.24                    -4.11923         10.6412
5.26                    -4.29495         8.04677
5.28                     -4.4892         5.41064
5.3                     -4.68523          2.7983
5.32                    -4.88785       0.0781106
5.34                    -5.10928        -2.63641
5.36                     -5.3284        -5.36772
5.38                    -5.56326        -8.20962
5.4                     -5.81245        -11.0092
5.42                    -6.05977        -13.8884
5.44                    -6.33161        -16.8493
5.46                    -6.60998        -19.7636
5.48                    -6.89344        -22.8264
5.5                     -7.20698         -25.917
5.52                    -7.51918        -29.0088
5.54                    -7.85105        -32.3046
5.56                    -8.21355        -35.5699
5.58                    -8.57254        -38.9471
5.6                     -8.97365        -42.5487
5.62                    -9.40144        -46.0901
5.64                     -9.8377        -49.9184
5.66                    -10.3474        -53.9395
5.68                    -10.8808        -57.9437
5.7                      -11.463        -62.4683
5.72                    -12.1662        -67.0944
5.74                    -12.9095        -71.8903
5.76                    -13.8084        -77.5132
5.78                    -14.9342        -83.0846
5.8                     -16.2154        -89.3549
5.82                    -18.0259        -97.0854
5.84                    -20.6086        -104.709
5.86                    -24.5501         -116.14
5.88                    -35.2788        -151.212
5.9                     -28.4743         62.0045
5.92                    -19.9592         42.5113
5.94                    -14.4983         20.9567
5.96                    -11.1279        -7.99303
5.98                    -9.77701        -40.0421
6                       -10.1688        -70.8058
6.02                    -11.7837        -96.4909
6.04                    -13.6317        -116.108
6.06                    -14.9998        -135.841
6.08                    -16.4218        -159.939
6.1                     -17.6008         175.965
6.12                    -16.8459         147.025
6.14                    -15.1693         103.345
6.16                    -14.6663         51.0237
6.18                    -16.6739        -2.18849
6.2                      -23.135        -48.1516
6.22                    -35.6002        -11.1544
6.24                    -31.0947         11.9117
6.26                    -30.0581         36.2122
6.28                    -25.4411         22.7259
6.3                     -26.1047       -0.811594
6.32                     -26.412        -4.76132
6.34                    -25.3785        -37.5814
6.36                    -28.4407        -91.7168
6.38                    -29.6944         -126.65
6.4                      -21.264        -174.317
6.42                    -15.3823         116.427
6.44                    -12.7966         36.7918
6.46                    -10.9178        -50.9122
6.48                    -8.68362        -125.768
6.5                     -7.71909         -175.23
