! TOUCHSTONE file generated by CST MICROWAVE STUDIO
! Date and time: Sat Oct 29 21:47:33 2022
! Project name: L.cst
! Parameters = {Di=1.27; Epsilon_r=1.56; InnerDiameter=1.27; Length=2; Lf=10; Lg=60; OuterConductorThickness=0.2921; OuterDiameter=3.6; Wf=3; Wp=41.2; de=1.5; df=6.8; g=0.8; gx=4.93643; gy=3.12879; h=2.34; hf=1.524; px=9.94619; py=10.5133; w=9.7; wx=5.00976; wy=7.38455}
! Header version: 2018
! Port assignment regex: !\s*Touchstone port\s*([0-9]+)\s*=\s*(CST MWS port|CST DS port)\s*([0-9]+|Zmin|Zmax)\s*\(\"(.*)\"\)(\s*mode\s*([0-9]+))?.*
! Touchstone port assignment:
! Touchstone port 1 = CST MWS port 1 ("")
# GHz S DB R 50
4.5                     -0.30113         94.4505
4.52                   -0.308479         93.0186
4.54                   -0.316036         91.5745
4.56                   -0.323818         90.1182
4.58                   -0.331833         88.6496
4.6                    -0.340088         87.1687
4.62                   -0.348584         85.6753
4.64                   -0.357319         84.1695
4.66                   -0.366289         82.6511
4.68                   -0.375487           81.12
4.7                    -0.384906          79.576
4.72                   -0.394537         78.0191
4.74                   -0.404372         76.4491
4.76                     -0.4144         74.8659
4.78                   -0.424615         73.2692
4.8                    -0.435008          71.659
4.82                   -0.445571         70.0349
4.84                     -0.4563         68.3969
4.86                   -0.467188         66.7447
4.88                   -0.478232         65.0782
4.9                    -0.489428         63.3972
4.92                   -0.500776         61.7016
4.94                   -0.512273         59.9912
4.96                    -0.52392         58.2658
4.98                   -0.535716         56.5253
5                      -0.547662         54.7697
5.02                   -0.559762         52.9988
5.04                   -0.572014         51.2125
5.06                   -0.584421         49.4107
5.08                   -0.596984         47.5935
5.1                    -0.609705         45.7608
5.12                   -0.622583         43.9126
5.14                   -0.635619         42.0489
5.16                   -0.648812         40.1698
5.18                   -0.662161         38.2752
5.2                    -0.675662         36.3654
5.22                   -0.689314         34.4404
5.24                   -0.703111         32.5004
5.26                   -0.717048         30.5454
5.28                   -0.731119         28.5757
5.3                    -0.745316         26.5915
5.32                   -0.759632         24.5929
5.34                   -0.774055         22.5802
5.36                   -0.788575         20.5538
5.38                   -0.803181         18.5137
5.4                     -0.81786         16.4605
5.42                   -0.832597         14.3944
5.44                   -0.847381         12.3157
5.46                   -0.862195         10.2248
5.48                   -0.877023         8.12214
5.5                    -0.891851         6.00811
5.52                    -0.90666         3.88316
5.54                   -0.921436         1.74772
5.56                   -0.936159       -0.397723
5.58                   -0.950813        -2.55267
5.6                    -0.965382        -4.71662
5.62                   -0.979847        -6.88903
5.64                   -0.994192        -9.06935
5.66                     -1.0084         -11.257
5.68                    -1.02245        -13.4514
5.7                     -1.03634         -15.652
5.72                    -1.05004        -17.8582
5.74                    -1.06354        -20.0693
5.76                    -1.07682        -22.2846
5.78                    -1.08987        -24.5036
5.8                     -1.10268        -26.7256
5.82                    -1.11522        -28.9499
5.84                     -1.1275        -31.1758
5.86                    -1.13949        -33.4028
5.88                    -1.15119          -35.63
5.9                     -1.16258        -37.8568
5.92                    -1.17364        -40.0826
5.94                    -1.18438        -42.3067
5.96                    -1.19477        -44.5284
5.98                    -1.20481        -46.7471
6                       -1.21448        -48.9621
6.02                    -1.22378        -51.1727
6.04                    -1.23269        -53.3785
6.06                     -1.2412        -55.5788
6.08                     -1.2493         -57.773
6.1                     -1.25698        -59.9606
6.12                    -1.26423         -62.141
6.14                    -1.27104        -64.3139
6.16                     -1.2774        -66.4787
6.18                    -1.28331        -68.6351
6.2                     -1.28874        -70.7826
6.22                     -1.2937        -72.9209
6.24                    -1.29819        -75.0498
6.26                    -1.30219        -77.1689
6.28                    -1.30572        -79.2781
6.3                     -1.30876        -81.3772
6.32                    -1.31133        -83.4661
6.34                    -1.31344        -85.5447
6.36                    -1.31511        -87.6129
6.38                    -1.31634        -89.6706
6.4                     -1.31718        -91.7181
6.42                    -1.31764        -93.7551
6.44                    -1.31776        -95.7819
6.46                     -1.3176        -97.7984
6.48                    -1.31719        -99.8047
6.5                      -1.3166        -101.801
