! TOUCHSTONE file generated by CST MICROWAVE STUDIO
! Date and time: Thu Oct 27 10:53:34 2022
! Project name: L.cst
! Parameters = {Di=1.27; Epsilon_r=1.56; InnerDiameter=1.27; Length=2; Lf=10; Lg=60; OuterConductorThickness=0.2921; OuterDiameter=3.6; Wf=3; Wp=41.2; de=1.5; df=6.8; g=0.8; gx=3.63588; gy=3.70143; h=2.34; hf=1.524; px=9.57589; py=10.1284; w=9.7; wx=5.94; wy=6.42695}
! Header version: 2018
! Port assignment regex: !\s*Touchstone port\s*([0-9]+)\s*=\s*(CST MWS port|CST DS port)\s*([0-9]+|Zmin|Zmax)\s*\(\"(.*)\"\)(\s*mode\s*([0-9]+))?.*
! Touchstone port assignment:
! Touchstone port 1 = CST MWS port 1 ("")
# GHz S DB R 50
4.5                    -0.323785          95.099
4.52                   -0.332156         93.6873
4.54                   -0.340748         92.2646
4.56                    -0.34957         90.8309
4.58                   -0.358631          89.386
4.6                    -0.367932           87.93
4.62                   -0.377474         86.4627
4.64                   -0.387256         84.9841
4.66                   -0.397275         83.4941
4.68                   -0.407525         81.9926
4.7                    -0.418004         80.4795
4.72                   -0.428704         78.9546
4.74                   -0.439619          77.418
4.76                   -0.450744         75.8693
4.78                   -0.462075         74.3085
4.8                    -0.473607         72.7354
4.82                   -0.485336           71.15
4.84                    -0.49726          69.552
4.86                   -0.509376         67.9414
4.88                   -0.521682          66.318
4.9                    -0.534181         64.6817
4.92                   -0.546869         63.0324
4.94                   -0.559749           61.37
4.96                   -0.572822         59.6944
4.98                   -0.586088         58.0055
5                      -0.599552         56.3033
5.02                   -0.613214         54.5878
5.04                   -0.627077         52.8588
5.06                   -0.641142         51.1164
5.08                   -0.655411         49.3606
5.1                    -0.669885         47.5915
5.12                   -0.684563          45.809
5.14                   -0.699448         44.0132
5.16                   -0.714537         42.2042
5.18                    -0.72983         40.3821
5.2                    -0.745323          38.547
5.22                   -0.761013         36.6991
5.24                   -0.776897         34.8384
5.26                   -0.792969         32.9653
5.28                   -0.809223         31.0798
5.3                    -0.825652         29.1822
5.32                   -0.842246         27.2727
5.34                   -0.858999         25.3515
5.36                   -0.875899          23.419
5.38                   -0.892935         21.4754
5.4                    -0.910096          19.521
5.42                   -0.927369         17.5561
5.44                    -0.94474         15.5811
5.46                   -0.962196         13.5964
5.48                   -0.979722         11.6022
5.5                    -0.997303         9.59905
5.52                    -1.01492          7.5873
5.54                    -1.03257         5.56739
5.56                    -1.05021         3.53975
5.58                    -1.06785         1.50485
5.6                     -1.08547       -0.536843
5.62                    -1.10303        -2.58484
5.64                    -1.12054        -4.63864
5.66                    -1.13797        -6.69772
5.68                     -1.1553        -8.76156
5.7                     -1.17252        -10.8296
5.72                     -1.1896        -12.9013
5.74                    -1.20654        -14.9762
5.76                    -1.22332        -17.0535
5.78                    -1.23991        -19.1328
5.8                      -1.2563        -21.2134
5.82                    -1.27248        -23.2949
5.84                    -1.28843        -25.3765
5.86                    -1.30413        -27.4578
5.88                    -1.31956         -29.538
5.9                     -1.33471        -31.6166
5.92                    -1.34956         -33.693
5.94                     -1.3641        -35.7666
5.96                     -1.3783        -37.8369
5.98                    -1.39216        -39.9032
6                       -1.40566         -41.965
6.02                    -1.41877        -44.0218
6.04                    -1.43149         -46.073
6.06                     -1.4438        -48.1182
6.08                    -1.45568        -50.1567
6.1                     -1.46711        -52.1883
6.12                    -1.47809        -54.2123
6.14                     -1.4886        -56.2284
6.16                    -1.49862        -58.2363
6.18                    -1.50814        -60.2355
6.2                     -1.51716        -62.2257
6.22                    -1.52567        -64.2067
6.24                    -1.53365        -66.1781
6.26                     -1.5411        -68.1397
6.28                    -1.54803        -70.0914
6.3                     -1.55443        -72.0329
6.32                    -1.56031        -73.9642
6.34                    -1.56568         -75.885
6.36                    -1.57056        -77.7954
6.38                    -1.57496        -79.6952
6.4                      -1.5789        -81.5844
6.42                    -1.58243         -83.463
6.44                    -1.58556        -85.3309
6.46                    -1.58834         -87.188
6.48                    -1.59082        -89.0344
6.5                     -1.59303          -90.87
