! TOUCHSTONE file generated by CST MICROWAVE STUDIO
! Date and time: Thu Oct 27 11:41:38 2022
! Project name: L.cst
! Parameters = {Di=1.27; Epsilon_r=1.56; InnerDiameter=1.27; Length=2; Lf=10; Lg=60; OuterConductorThickness=0.2921; OuterDiameter=3.6; Wf=3; Wp=41.2; de=1.5; df=6.8; g=0.8; gx=1.32437; gy=4.05815; h=2.34; hf=1.524; px=10.9879; py=13.7513; w=9.7; wx=9.66353; wy=9.6931}
! Header version: 2018
! Port assignment regex: !\s*Touchstone port\s*([0-9]+)\s*=\s*(CST MWS port|CST DS port)\s*([0-9]+|Zmin|Zmax)\s*\(\"(.*)\"\)(\s*mode\s*([0-9]+))?.*
! Touchstone port assignment:
! Touchstone port 1 = CST MWS port 1 ("")
# GHz S DB R 50
4.5                    -0.749358         89.4476
4.52                   -0.780415         87.9059
4.54                   -0.813987          86.358
4.56                   -0.849425         84.8066
4.58                   -0.886009          83.252
4.6                    -0.923147         81.6919
4.62                     -0.9605         80.1226
4.64                   -0.998042         78.5401
4.66                    -1.03604         76.9405
4.68                    -1.07497         75.3215
4.7                     -1.11537         73.6824
4.72                    -1.15778         72.0239
4.74                    -1.20254         70.3482
4.76                    -1.24985         68.6579
4.78                    -1.29968         66.9553
4.8                     -1.35185         65.2424
4.82                     -1.4061           63.52
4.84                    -1.46218         61.7878
4.86                     -1.5199         60.0444
4.88                    -1.57922         58.2883
4.9                     -1.64026         56.5176
4.92                    -1.70324          54.731
4.94                    -1.76849         52.9279
4.96                    -1.83637         51.1085
4.98                    -1.90717         49.2741
5                       -1.98111         47.4265
5.02                    -2.05828         45.5677
5.04                    -2.13867         43.6996
5.06                    -2.22218         41.8238
5.08                    -2.30864         39.9411
5.1                     -2.39793         38.0517
5.12                    -2.48995         36.1554
5.14                     -2.5847         34.2517
5.16                     -2.6823           32.34
5.18                    -2.78293         30.4203
5.2                     -2.88681         28.4932
5.22                    -2.99419           26.56
5.24                    -3.10524         24.6228
5.26                    -3.22005          22.684
5.28                     -3.3386         20.7465
5.3                     -3.46075         18.8128
5.32                    -3.58627         16.8851
5.34                    -3.71487          14.965
5.36                    -3.84625         13.0536
5.38                    -3.98016         11.1513
5.4                     -4.11641         9.25812
5.42                     -4.2549         7.37433
5.44                     -4.3956         5.50046
5.46                    -4.53849         3.63767
5.48                    -4.68355         1.78788
5.5                     -4.83063      -0.0463848
5.52                    -4.97947        -1.86221
5.54                    -5.12962        -3.65675
5.56                    -5.28044        -5.42775
5.58                    -5.43117        -7.17401
5.6                     -5.58097        -8.89574
5.62                    -5.72903        -10.5947
5.64                     -5.8746         -12.274
5.66                    -6.01713        -13.9378
5.68                    -6.15626        -15.5908
5.7                     -6.29183        -17.2375
5.72                    -6.42379         -18.882
5.74                    -6.55215        -20.5273
5.76                    -6.67687         -22.176
5.78                    -6.79776        -23.8309
5.8                     -6.91449        -25.4952
5.82                     -7.0266         -27.174
5.84                    -7.13366        -28.8748
5.86                    -7.23541        -30.6084
5.88                    -7.33199        -32.3881
5.9                     -7.42416        -34.2295
5.92                    -7.51345        -36.1492
5.94                    -7.60222        -38.1627
5.96                    -7.69365        -40.2832
5.98                    -7.79156        -42.5199
6                       -7.90026        -44.8774
6.02                    -8.02435        -47.3556
6.04                    -8.16857        -49.9499
6.06                    -8.33775        -52.6527
6.08                    -8.53693        -55.4538
6.1                     -8.77156        -58.3418
6.12                    -9.04791        -61.3039
6.14                    -9.37364         -64.325
6.16                     -9.7585        -67.3845
6.18                    -10.2152        -70.4515
6.2                     -10.7604        -73.4757
6.22                    -11.4162        -76.3724
6.24                    -12.2112        -78.9967
6.26                    -13.1826        -81.0974
6.28                    -14.3764        -82.2252
6.3                     -15.8402        -81.5467
6.32                    -17.5825        -77.4801
6.34                    -19.4017        -67.3066
6.36                    -20.4768        -48.9873
6.38                    -19.7381        -28.4144
6.4                        -17.7          -15.13
6.42                    -15.4901        -9.72758
6.44                    -13.5441        -9.21345
6.46                    -11.9232          -11.48
6.48                    -10.5982        -15.3733
6.5                     -9.53055         -20.249
