! TOUCHSTONE file generated by CST MICROWAVE STUDIO
! Date and time: Sat Oct 29 20:08:46 2022
! Project name: L.cst
! Parameters = {Di=1.27; Epsilon_r=1.56; InnerDiameter=1.27; Length=2; Lf=10; Lg=60; OuterConductorThickness=0.2921; OuterDiameter=3.6; Wf=3; Wp=41.2; de=1.5; df=6.8; g=0.8; gx=3.62844; gy=3.16358; h=2.34; hf=1.524; px=9.53561; py=13.3786; w=9.7; wx=5.90717; wy=10.215}
! Header version: 2018
! Port assignment regex: !\s*Touchstone port\s*([0-9]+)\s*=\s*(CST MWS port|CST DS port)\s*([0-9]+|Zmin|Zmax)\s*\(\"(.*)\"\)(\s*mode\s*([0-9]+))?.*
! Touchstone port assignment:
! Touchstone port 1 = CST MWS port 1 ("")
# GHz S DB R 50
4.5                    -0.353715         90.9554
4.52                   -0.353584         89.4748
4.54                   -0.358993         87.9595
4.56                   -0.370438         86.4314
4.58                   -0.386669         84.9093
4.6                    -0.405299         83.4039
4.62                   -0.423635         81.9158
4.64                   -0.439482         80.4366
4.66                   -0.451708         78.9525
4.68                    -0.46044         77.4489
4.7                     -0.46686         75.9145
4.72                   -0.472727          74.344
4.74                   -0.479805          72.739
4.76                    -0.48936         71.1066
4.78                   -0.501859         69.4562
4.8                    -0.516942          67.797
4.82                   -0.533606          66.135
4.84                   -0.550566         64.4719
4.86                   -0.566642         62.8045
4.88                   -0.581094         61.1264
4.9                    -0.593793         59.4298
4.92                   -0.605199         57.7079
4.94                   -0.616183         55.9568
4.96                   -0.627739         54.1759
4.98                   -0.640688         52.3682
5                      -0.655464         50.5386
5.02                   -0.672014         48.6926
5.04                   -0.689852         46.8346
5.06                    -0.70822         44.9663
5.08                   -0.726323         43.0869
5.1                    -0.743558         41.1926
5.12                   -0.759676         39.2785
5.14                   -0.774832         37.3395
5.16                   -0.789526         35.3718
5.18                   -0.804439         33.3739
5.2                    -0.820228          31.347
5.22                    -0.83734         29.2939
5.24                   -0.855889         27.2187
5.26                   -0.875631         25.1253
5.28                   -0.896037         23.0157
5.3                    -0.916451         20.8903
5.32                   -0.936278         18.7466
5.34                   -0.955154         16.5809
5.36                   -0.973049         14.3885
5.38                   -0.990278         12.1651
5.4                     -1.00741          9.9082
5.42                     -1.0251         7.61748
5.44                    -1.04392         5.29484
5.46                    -1.06418         2.94377
5.48                    -1.08584        0.568281
5.5                     -1.10852        -1.82839
5.52                    -1.13161        -4.24483
5.54                    -1.15442        -6.68207
5.56                    -1.17642         -9.1435
5.58                    -1.19736        -11.6342
5.6                     -1.21742        -14.1594
5.62                    -1.23714        -16.7237
5.64                    -1.25732         -19.329
5.66                    -1.27882        -21.9747
5.68                     -1.3023        -24.6573
5.7                     -1.32805        -27.3718
5.72                    -1.35586        -30.1129
5.74                    -1.38509        -32.8766
5.76                     -1.4148        -35.6621
5.78                      -1.444        -38.4724
5.8                     -1.47197        -41.3137
5.82                    -1.49852        -44.1951
5.84                    -1.52409        -47.1255
5.86                    -1.54974        -50.1125
5.88                    -1.57695        -53.1596
5.9                     -1.60723        -56.2656
5.92                    -1.64174         -59.425
5.94                    -1.68093        -62.6294
5.96                    -1.72435        -65.8706
5.98                    -1.77071        -69.1439
6                       -1.81815        -72.4512
6.02                    -1.86478        -75.8026
6.04                    -1.90939        -79.2171
6.06                      -1.952        -82.7193
6.08                    -1.99432        -86.3361
6.1                     -2.03974        -90.0905
6.12                    -2.09292         -93.997
6.14                    -2.15903        -98.0586
6.16                    -2.24277        -102.266
6.18                    -2.34744        -106.602
6.2                     -2.47421        -111.044
6.22                    -2.62186         -115.58
6.24                    -2.78716        -120.209
6.26                    -2.96609        -124.961
6.28                    -3.15582        -129.897
6.3                     -3.35728         -135.11
6.32                    -3.57775        -140.723
6.34                    -3.83283        -146.872
6.36                    -4.14737        -153.696
6.38                    -4.55581        -161.327
6.4                      -5.1027        -169.897
6.42                    -5.84494         -179.56
6.44                    -6.85752         169.448
6.46                    -8.24571         156.684
6.48                    -10.1663          141.15
6.5                     -12.8388         120.225
