! TOUCHSTONE file generated by CST MICROWAVE STUDIO
! Date and time: Sat Oct 29 19:20:16 2022
! Project name: L.cst
! Parameters = {Di=1.27; Epsilon_r=1.56; InnerDiameter=1.27; Length=2; Lf=10; Lg=60; OuterConductorThickness=0.2921; OuterDiameter=3.6; Wf=3; Wp=41.2; de=1.5; df=6.8; g=0.8; gx=1.50373; gy=1.42148; h=2.34; hf=1.524; px=14.1421; py=13.9676; w=9.7; wx=12.6383; wy=12.5461}
! Header version: 2018
! Port assignment regex: !\s*Touchstone port\s*([0-9]+)\s*=\s*(CST MWS port|CST DS port)\s*([0-9]+|Zmin|Zmax)\s*\(\"(.*)\"\)(\s*mode\s*([0-9]+))?.*
! Touchstone port assignment:
! Touchstone port 1 = CST MWS port 1 ("")
# GHz S DB R 50
4.5                     -11.4961         78.2573
4.52                    -11.5699         81.1008
4.54                    -11.6269         83.5285
4.56                    -11.6341         86.0752
4.58                    -11.5259         88.2853
4.6                     -11.3854         89.6827
4.62                    -11.2815         90.7098
4.64                    -11.1624         91.6493
4.66                    -11.0108          92.122
4.68                    -10.8943          92.032
4.7                     -10.8349         91.7795
4.72                    -10.7872         91.4722
4.74                    -10.7506          90.816
4.76                    -10.7791         89.8372
4.78                    -10.8761         88.8711
4.8                     -11.0068         87.9106
4.82                    -11.1902         86.7461
4.84                    -11.4742         85.5089
4.86                    -11.8629          84.514
4.88                    -12.3417         83.8141
4.9                     -12.9496          83.395
4.92                     -13.751         83.7396
4.94                    -14.7472         85.7328
4.96                    -15.8853         90.2852
4.98                     -17.053         98.8094
5                       -17.8003          112.94
5.02                    -17.3442         130.126
5.04                    -15.7026         143.444
5.06                    -13.6558         150.391
5.08                    -11.6898         152.421
5.1                     -9.97671         151.179
5.12                    -8.56946         147.963
5.14                    -7.44811         143.769
5.16                    -6.55753         139.179
5.18                    -5.85075         134.478
5.2                     -5.29207         129.876
5.22                    -4.83915         125.526
5.24                    -4.44697         121.419
5.26                     -4.0902         117.414
5.28                    -3.76711           113.4
5.3                     -3.47726         109.361
5.32                    -3.21337         105.258
5.34                    -2.97819         101.006
5.36                     -2.7841         96.5994
5.38                    -2.63345         92.1029
5.4                      -2.5182          87.531
5.42                     -2.4354         82.8324
5.44                    -2.39145         77.9798
5.46                    -2.38745         73.0035
5.48                    -2.41416         67.8755
5.5                     -2.47189         62.4837
5.52                    -2.57144         56.7683
5.54                    -2.70984         50.7064
5.56                    -2.87311         44.0694
5.58                    -3.09531         36.4689
5.6                     -3.43635          27.939
5.62                    -3.80411         19.1158
5.64                    -3.85296         7.09239
5.66                    -3.75583        -11.9742
5.68                    -4.61141        -43.4851
5.7                     -7.18969        -76.3219
5.72                    -7.48931        -97.4895
5.74                    -4.97149        -137.036
5.76                     -3.4496        -175.293
5.78                    -2.53018         154.937
5.8                     -2.12176         130.408
5.82                    -3.38051         105.572
5.84                    -3.64701         125.955
5.86                     -1.5841         107.966
5.88                    -1.23996         95.3033
5.9                      -1.1232         85.4893
5.92                    -1.06064         77.0538
5.94                    -1.01736         69.2285
5.96                    -1.00798         61.6018
5.98                    -1.04006         54.0969
6                       -1.06755         46.5538
6.02                    -1.04519         38.1171
6.04                    -1.16465         26.1936
6.06                     -1.2061         18.0773
6.08                    -1.21818        -1.06724
6.1                     -7.21734        -60.1694
6.12                    -5.37397        -10.9198
6.14                    -4.84353        -49.6663
6.16                    -4.45532        -107.461
6.18                    -2.54629        -173.532
6.2                     -0.94856         137.154
6.22                   -0.341433         105.812
6.24                   -0.205584         85.5531
6.26                   -0.204137         71.6373
6.28                   -0.192971         61.1312
6.3                    -0.188797         52.3237
6.32                   -0.240931         44.7731
6.34                   -0.304205         38.4698
6.36                   -0.310709          32.887
6.38                   -0.299118            27.4
6.4                    -0.339535         22.1458
6.42                   -0.393764         17.5181
6.44                    -0.38765         13.1958
6.46                   -0.363636          8.6331
6.48                   -0.399727         4.08978
6.5                    -0.449872       0.0714103
