! TOUCHSTONE file generated by CST MICROWAVE STUDIO
! Date and time: Thu Oct 27 08:33:08 2022
! Project name: L.cst
! Parameters = {Di=1.27; Epsilon_r=1.56; InnerDiameter=1.27; Length=2; Lf=10; Lg=60; OuterConductorThickness=0.2921; OuterDiameter=3.6; Wf=3; Wp=41.2; de=1.5; df=6.8; g=0.8; gx=4.32556; gy=2.59781; h=2.34; hf=1.524; px=12.5505; py=10.0334; w=9.7; wx=8.22495; wy=7.43557}
! Header version: 2018
! Port assignment regex: !\s*Touchstone port\s*([0-9]+)\s*=\s*(CST MWS port|CST DS port)\s*([0-9]+|Zmin|Zmax)\s*\(\"(.*)\"\)(\s*mode\s*([0-9]+))?.*
! Touchstone port assignment:
! Touchstone port 1 = CST MWS port 1 ("")
# GHz S DB R 50
4.5                    -0.513349         88.3145
4.52                   -0.531503         86.6696
4.54                   -0.551297         85.0047
4.56                    -0.57263         83.3202
4.58                   -0.595391         81.6164
4.6                    -0.619463         79.8932
4.62                   -0.644726         78.1505
4.64                   -0.671067         76.3878
4.66                   -0.698381         74.6044
4.68                   -0.726578         72.7996
4.7                    -0.755579         70.9726
4.72                   -0.785323         69.1222
4.74                   -0.815766         67.2476
4.76                   -0.846881         65.3476
4.78                   -0.878656         63.4211
4.8                    -0.911096         61.4669
4.82                   -0.944219          59.484
4.84                   -0.978056         57.4713
4.86                    -1.01265         55.4278
4.88                    -1.04805         53.3526
4.9                      -1.0843         51.2448
4.92                    -1.12147         49.1037
4.94                    -1.15962         46.9285
4.96                    -1.19881         44.7186
4.98                    -1.23909         42.4734
5                       -1.28052         40.1926
5.02                    -1.32315         37.8758
5.04                    -1.36701         35.5227
5.06                    -1.41214         33.1332
5.08                    -1.45855         30.7071
5.1                     -1.50626         28.2445
5.12                    -1.55526         25.7455
5.14                    -1.60555         23.2101
5.16                    -1.65709         20.6387
5.18                    -1.70985         18.0315
5.2                     -1.76378          15.389
5.22                    -1.81881         12.7116
5.24                    -1.87487         9.99993
5.26                    -1.93186         7.25462
5.28                     -1.9897          4.4763
5.3                     -2.04826         1.66585
5.32                    -2.10744        -1.17583
5.34                     -2.1671        -4.04774
5.36                     -2.2271        -6.94879
5.38                     -2.2873        -9.87779
5.4                     -2.34755        -12.8335
5.42                    -2.40771        -15.8144
5.44                     -2.4676        -18.8191
5.46                    -2.52708        -21.8459
5.48                    -2.58599        -24.8932
5.5                     -2.64417        -27.9592
5.52                    -2.70148        -31.0418
5.54                    -2.75776        -34.1392
5.56                    -2.81287        -37.2492
5.58                    -2.86669        -40.3696
5.6                     -2.91909        -43.4981
5.62                    -2.96995        -46.6324
5.64                    -3.01918        -49.7701
5.66                    -3.06669        -52.9087
5.68                    -3.11239        -56.0458
5.7                     -3.15622        -59.1787
5.72                    -3.19814         -62.305
5.74                    -3.23809        -65.4222
5.76                    -3.27607        -68.5276
5.78                    -3.31204         -71.619
5.8                     -3.34602        -74.6938
5.82                    -3.37799        -77.7496
5.84                    -3.40798        -80.7844
5.86                    -3.43602        -83.7957
5.88                    -3.46211        -86.7816
5.9                     -3.48631          -89.74
5.92                    -3.50865        -92.6693
5.94                    -3.52915        -95.5677
5.96                    -3.54786        -98.4338
5.98                    -3.56483        -101.266
6                       -3.58007        -104.063
6.02                    -3.59364        -106.825
6.04                    -3.60556         -109.55
6.06                    -3.61587        -112.237
6.08                    -3.62458        -114.887
6.1                     -3.63175        -117.499
6.12                    -3.63739        -120.074
6.14                    -3.64154         -122.61
6.16                    -3.64424        -125.109
6.18                    -3.64552        -127.572
6.2                     -3.64545        -129.999
6.22                    -3.64409         -132.39
6.24                    -3.64151        -134.747
6.26                    -3.63781        -137.072
6.28                    -3.63309        -139.365
6.3                     -3.62751        -141.627
6.32                     -3.6212        -143.861
6.34                    -3.61434        -146.067
6.36                    -3.60715        -148.246
6.38                    -3.59984          -150.4
6.4                     -3.59267        -152.529
6.42                    -3.58589        -154.636
6.44                    -3.57979        -156.719
6.46                    -3.57466        -158.779
6.48                    -3.57079        -160.817
6.5                     -3.56847        -162.833
