! TOUCHSTONE file generated by CST MICROWAVE STUDIO
! Date and time: Fri Oct 28 13:15:18 2022
! Project name: L.cst
! Parameters = {Di=1.27; Epsilon_r=1.56; InnerDiameter=1.27; Length=2; Lf=10; Lg=60; OuterConductorThickness=0.2921; OuterDiameter=3.6; Wf=3; Wp=41.2; de=1.5; df=6.8; g=0.8; gx=4.23868; gy=3.15971; h=2.34; hf=1.524; px=9.59597; py=13.638; w=9.7; wx=5.35728; wy=10.4783}
! Header version: 2018
! Port assignment regex: !\s*Touchstone port\s*([0-9]+)\s*=\s*(CST MWS port|CST DS port)\s*([0-9]+|Zmin|Zmax)\s*\(\"(.*)\"\)(\s*mode\s*([0-9]+))?.*
! Touchstone port assignment:
! Touchstone port 1 = CST MWS port 1 ("")
# GHz S DB R 50
4.5                    -0.353758         91.5241
4.52                   -0.347645         90.1277
4.54                   -0.342514         88.6461
4.56                   -0.344877          87.105
4.58                   -0.356827         85.5484
4.6                    -0.375756         84.0151
4.62                   -0.396224         82.5215
4.64                   -0.412868         81.0569
4.66                   -0.422904          79.592
4.68                   -0.427123         78.0949
4.7                    -0.429052         76.5461
4.72                   -0.432924         74.9467
4.74                   -0.441613         73.3142
4.76                   -0.455464         71.6728
4.78                   -0.472439         70.0408
4.8                    -0.489332         68.4227
4.82                     -0.5034         66.8086
4.84                   -0.513612         65.1799
4.86                   -0.520973         63.5189
4.88                   -0.527839         61.8173
4.9                    -0.536679         60.0785
4.92                   -0.548892         58.3152
4.94                   -0.564257         56.5423
4.96                    -0.58117         54.7694
4.98                   -0.597511         52.9968
5                      -0.611681         51.2158
5.02                   -0.623332         49.4133
5.04                   -0.633438          47.578
5.06                   -0.643753          45.706
5.08                   -0.655916         43.8015
5.1                    -0.670685         41.8745
5.12                   -0.687623         39.9353
5.14                   -0.705364         37.9897
5.16                   -0.722298         36.0361
5.18                   -0.737346         34.0666
5.2                    -0.750459         32.0703
5.22                   -0.762598         30.0391
5.24                   -0.775245         27.9708
5.26                   -0.789673         25.8701
5.28                   -0.806347         23.7456
5.3                    -0.824711         21.6059
5.32                   -0.843467         19.4548
5.34                   -0.861201         17.2896
5.36                   -0.877063         15.1021
5.38                   -0.891179          12.882
5.4                    -0.904595         10.6221
5.42                   -0.918785         8.32106
5.44                   -0.934947         5.98408
5.46                   -0.953439         3.62006
5.48                   -0.973593         1.23719
5.5                    -0.994021        -1.16138
5.52                    -1.01327        -3.57954
5.54                    -1.03056        -6.02694
5.56                    -1.04617         -8.5149
5.58                    -1.06139        -11.0514
5.6                       -1.078        -13.6373
5.62                    -1.09737        -16.2662
5.64                    -1.11991        -18.9272
5.66                    -1.14475        -21.6108
5.68                    -1.17016        -24.3134
5.7                     -1.19431        -27.0406
5.72                    -1.21623        -29.8055
5.74                    -1.23636        -32.6238
5.76                    -1.25653        -35.5066
5.78                    -1.27923        -38.4558
5.8                     -1.30651        -41.4628
5.82                    -1.33899        -44.5126
5.84                    -1.37549        -47.5916
5.86                    -1.41339        -50.6949
5.88                    -1.44982        -53.8322
5.9                     -1.48315        -57.0259
5.92                    -1.51401        -60.3043
5.94                    -1.54552        -63.6904
5.96                     -1.5822        -67.1922
5.98                    -1.62827        -70.8001
6                       -1.68575        -74.4908
6.02                    -1.75345        -78.2407
6.04                    -1.82726        -82.0407
6.06                    -1.90197        -85.9084
6.08                     -1.9742        -89.8913
6.1                     -2.04513        -94.0558
6.12                     -2.1218        -98.4664
6.14                    -2.21603        -103.162
6.16                    -2.34133        -108.143
6.18                    -2.50884         -113.37
6.2                     -2.72372        -118.781
6.22                    -2.98337        -124.325
6.24                    -3.27853            -130
6.26                    -3.59822        -135.891
6.28                    -3.93828        -142.185
6.3                     -4.31094        -149.159
6.32                    -4.75163        -157.135
6.34                    -5.32064        -166.444
6.36                    -6.10184        -177.427
6.38                     -7.2036         169.458
6.4                     -8.76451         153.356
6.42                    -10.9445         132.251
6.44                    -13.7101         100.986
6.46                    -15.4835          52.033
6.48                    -13.6157         1.28498
6.5                     -10.5272        -32.9825
