! TOUCHSTONE file generated by CST MICROWAVE STUDIO
! Date and time: Fri Oct 28 12:47:28 2022
! Project name: L.cst
! Parameters = {Di=1.27; Epsilon_r=1.56; InnerDiameter=1.27; Length=2; Lf=10; Lg=60; OuterConductorThickness=0.2921; OuterDiameter=3.6; Wf=3; Wp=41.2; de=1.5; df=6.8; g=0.8; gx=0.752599; gy=2.11958; h=2.34; hf=1.524; px=11.27; py=14.1855; w=9.7; wx=10.5174; wy=12.0659}
! Header version: 2018
! Port assignment regex: !\s*Touchstone port\s*([0-9]+)\s*=\s*(CST MWS port|CST DS port)\s*([0-9]+|Zmin|Zmax)\s*\(\"(.*)\"\)(\s*mode\s*([0-9]+))?.*
! Touchstone port assignment:
! Touchstone port 1 = CST MWS port 1 ("")
# GHz S DB R 50
4.5                     -3.57809         60.6509
4.52                    -3.79534         58.8172
4.54                    -4.04591         57.1414
4.56                    -4.28285         55.4428
4.58                    -4.55777         53.7929
4.6                     -4.82064         52.2578
4.62                    -5.11337         50.6819
4.64                    -5.40545         49.3203
4.66                     -5.7105         47.8883
4.68                    -6.02996          46.697
4.7                      -6.3443         45.4846
4.72                    -6.68303         44.4651
4.74                    -7.00498         43.5284
4.76                    -7.35007         42.6986
4.78                    -7.67627         42.0556
4.8                     -8.01355         41.4431
4.82                    -8.33647          41.074
4.84                    -8.65279         40.6919
4.86                    -8.96174         40.5451
4.88                    -9.24613         40.3768
4.9                     -9.52953         40.3682
4.92                    -9.77554         40.3615
4.94                    -10.0231         40.3846
4.96                    -10.2311          40.448
4.98                    -10.4368         40.3979
5                       -10.6134         40.4066
5.02                    -10.7792         40.1992
5.04                     -10.934         40.0182
5.06                    -11.0707         39.5857
5.08                    -11.2154         39.0996
5.1                     -11.3409         38.3823
5.12                    -11.4895         37.5018
5.14                    -11.6263         36.4389
5.16                     -11.797         35.0893
5.18                    -11.9752         33.6113
5.2                     -12.1932         31.7368
5.22                    -12.4532         29.7482
5.24                    -12.7605         27.3091
5.26                    -13.1605         24.6874
5.28                    -13.6336         21.6499
5.3                     -14.2705         18.2716
5.32                    -15.0586          14.594
5.34                    -16.1359          10.384
5.36                    -17.5837         6.09418
5.38                    -19.6743         1.22865
5.4                     -23.0045        -2.86666
5.42                    -29.4812        -4.14288
5.44                    -38.4767         127.303
5.46                    -24.8425         144.364
5.48                    -19.2953         139.319
5.5                     -15.8369         131.434
5.52                    -13.3311         123.112
5.54                    -11.4033         113.895
5.56                    -9.92404         104.583
5.58                    -8.70537         94.9134
5.6                     -7.76232         84.9604
5.62                    -6.94967         74.8435
5.64                    -6.28068         63.8876
5.66                    -5.67838          52.306
5.68                    -5.08797         38.5483
5.7                     -4.58472         21.7898
5.72                    -4.21575         -1.2527
5.74                    -4.90399        -33.4072
5.76                     -7.5561        -70.8459
5.78                    -11.9325        -107.282
5.8                     -15.9204        -141.446
5.82                    -17.4156        -175.612
5.84                    -16.6571         160.478
5.86                    -14.6836         145.342
5.88                    -12.4575         134.543
5.9                     -9.98187         124.029
5.92                    -7.44089         111.855
5.94                    -4.74186          92.942
5.96                    -3.35837         64.5538
5.98                    -4.29416         36.6972
6                       -6.52018         21.4609
6.02                    -7.91259         14.3725
6.04                    -9.07216         7.98332
6.06                    -9.68374         2.82389
6.08                     -10.419        -5.11346
6.1                     -10.9362        -10.6648
6.12                    -11.1034        -21.5122
6.14                    -11.5331        -33.9933
6.16                    -11.4411        -52.7085
6.18                    -11.7175        -79.2837
6.2                     -11.1174        -109.772
6.22                    -9.32695        -149.372
6.24                    -7.40212         170.923
6.26                    -5.24541         134.702
6.28                    -3.81366         97.6115
6.3                     -3.66405         66.4617
6.32                    -2.89008         39.7582
6.34                    -2.50502       -0.270472
6.36                    -5.65195        -47.9882
6.38                     -14.531        -65.1139
6.4                     -12.4085        -44.1947
6.42                    -11.7467        -80.4508
6.44                    -12.1176        -101.741
6.46                     -9.7756        -130.525
6.48                    -8.75338          -160.5
6.5                     -6.96088        -178.541
