! TOUCHSTONE file generated by CST MICROWAVE STUDIO
! Date and time: Thu Oct 27 05:18:08 2022
! Project name: L.cst
! Parameters = {Di=1.27; Epsilon_r=1.56; InnerDiameter=1.27; Length=2; Lf=10; Lg=60; OuterConductorThickness=0.2921; OuterDiameter=3.6; Wf=3; Wp=41.2; de=1.5; df=6.8; g=0.8; gx=1.58635; gy=3.03256; h=2.34; hf=1.524; px=13.6482; py=12.1271; w=9.7; wx=12.0618; wy=9.09459}
! Header version: 2018
! Port assignment regex: !\s*Touchstone port\s*([0-9]+)\s*=\s*(CST MWS port|CST DS port)\s*([0-9]+|Zmin|Zmax)\s*\(\"(.*)\"\)(\s*mode\s*([0-9]+))?.*
! Touchstone port assignment:
! Touchstone port 1 = CST MWS port 1 ("")
# GHz S DB R 50
4.5                     -3.38298         69.4536
4.52                    -3.60564         67.6845
4.54                    -3.84921         66.0305
4.56                    -4.12003         64.4122
4.58                    -4.40671         62.7753
4.6                     -4.69692         61.1655
4.62                    -4.99124         59.6873
4.64                    -5.30033         58.3763
4.66                    -5.63184         57.1814
4.68                    -5.97823         56.0532
4.7                     -6.32571         55.0066
4.72                    -6.66986          54.128
4.74                    -7.01534         53.4732
4.76                    -7.36851         53.0068
4.78                    -7.72434         52.6723
4.8                     -8.06751          52.447
4.82                    -8.38841         52.3746
4.84                    -8.68661         52.5024
4.86                    -8.96714         52.7911
4.88                    -9.22961         53.1535
4.9                     -9.46267         53.5141
4.92                      -9.657         53.8526
4.94                    -9.81347          54.188
4.96                    -9.94096          54.486
4.98                     -10.049         54.6513
5                       -10.1375         54.5953
5.02                    -10.2029         54.2756
5.04                    -10.2497         53.7149
5.06                    -10.2897          52.923
5.08                    -10.3384         51.8397
5.1                     -10.4033          50.395
5.12                    -10.4839         48.5437
5.14                    -10.5856         46.2991
5.16                    -10.7221         43.6841
5.18                    -10.9138         40.6399
5.2                     -11.1787         37.0605
5.22                    -11.5274         32.8409
5.24                    -11.9782         27.9075
5.26                    -12.5685         22.1788
5.28                    -13.3558          15.427
5.3                     -14.4123         7.19181
5.32                    -15.8214        -3.28101
5.34                    -17.6835         -17.371
5.36                    -20.0511        -38.1672
5.38                    -22.3178        -71.7211
5.4                     -22.1699        -115.607
5.42                    -19.6478        -148.869
5.44                    -17.1006        -169.102
5.46                     -15.101         177.791
5.48                    -13.4931         168.923
5.5                     -12.0361         162.831
5.52                     -10.559         157.972
5.54                    -9.04879         152.674
5.56                      -7.624         145.996
5.58                    -6.41037         138.061
5.6                     -5.46369          129.56
5.62                    -4.77324         121.132
5.64                    -4.29265         113.105
5.66                    -3.96488         105.569
5.68                    -3.73853         98.5304
5.7                     -3.57932         91.9724
5.72                    -3.47224         85.8279
5.74                    -3.40836         79.9639
5.76                    -3.37505         74.2163
5.78                    -3.36063         68.4786
5.8                     -3.36459         62.7065
5.82                    -3.40381         56.8293
5.84                    -3.50043         50.6741
5.86                    -3.67444         43.9385
5.88                     -3.9867         36.2247
5.9                     -4.79215         27.6947
5.92                    -5.69888         29.7993
5.94                    -4.88859         21.2679
5.96                     -5.2816         7.64306
5.98                    -6.26779        -9.17513
6                       -8.00983        -33.3282
6.02                    -10.7374        -74.9516
6.04                    -11.3541        -146.447
6.06                    -7.69522          155.23
6.08                     -5.0144         120.689
6.1                     -3.64827         97.6147
6.12                    -2.95326         81.0721
6.14                    -2.58507         68.6536
6.16                    -2.40457         58.8237
6.18                     -2.3317         50.4748
6.2                       -2.291         42.9973
6.22                    -2.23789         36.3019
6.24                    -2.19718          30.429
6.26                    -2.22807         25.0521
6.28                    -2.33392         19.4354
6.3                     -2.41646         12.9974
6.32                    -2.36201         5.85148
6.34                    -2.29373        -2.57883
6.36                    -7.64538          13.744
6.38                    -1.97645         5.14714
6.4                     -2.11102       -0.914649
6.42                    -2.41155        -6.48545
6.44                     -2.5735        -12.7447
6.46                    -2.52164        -18.4778
6.48                    -2.43065        -22.8303
6.5                     -2.48584        -26.4549
