! TOUCHSTONE file generated by CST MICROWAVE STUDIO
! Date and time: Sat Oct 29 10:48:23 2022
! Project name: L.cst
! Parameters = {Di=1.27; Epsilon_r=1.56; InnerDiameter=1.27; Length=2; Lf=10; Lg=60; OuterConductorThickness=0.2921; OuterDiameter=3.6; Wf=3; Wp=41.2; de=1.5; df=6.8; g=0.8; gx=4.56035; gy=3.85383; h=2.34; hf=1.524; px=13.9619; py=14.0722; w=9.7; wx=9.40158; wy=10.2184}
! Header version: 2018
! Port assignment regex: !\s*Touchstone port\s*([0-9]+)\s*=\s*(CST MWS port|CST DS port)\s*([0-9]+|Zmin|Zmax)\s*\(\"(.*)\"\)(\s*mode\s*([0-9]+))?.*
! Touchstone port assignment:
! Touchstone port 1 = CST MWS port 1 ("")
# GHz S DB R 50
4.5                      -0.5383         93.6167
4.52                   -0.551228         92.2023
4.54                   -0.556912         90.7061
4.56                   -0.565903         89.1187
4.58                   -0.585328         87.4839
4.6                     -0.61457         85.8609
4.62                   -0.646796         84.2812
4.64                   -0.674465         82.7306
4.66                   -0.694661         81.1643
4.68                   -0.710564         79.5416
4.7                    -0.728492         77.8535
4.72                   -0.753148         76.1243
4.74                   -0.784609         74.3908
4.76                   -0.818833         72.6751
4.78                    -0.85092         70.9703
4.8                    -0.878631         69.2485
4.82                   -0.903721         67.4816
4.84                   -0.930335         65.6608
4.86                   -0.961912         63.8005
4.88                   -0.998897         61.9257
4.9                     -1.03873         60.0535
4.92                     -1.0779         58.1812
4.94                    -1.11452         56.2897
4.96                    -1.14956         54.3576
4.98                    -1.18598          52.376
5                       -1.22658         50.3538
5.02                    -1.27204         48.3094
5.04                    -1.32066         46.2575
5.06                    -1.36969         44.1981
5.08                    -1.41737         42.1172
5.1                     -1.46416         39.9968
5.12                    -1.51237         37.8276
5.14                    -1.56449         35.6146
5.16                    -1.62146         33.3728
5.18                    -1.68212          31.116
5.2                     -1.74412         28.8467
5.22                    -1.80565         26.5538
5.24                    -1.86679         24.2209
5.26                    -1.92947         21.8373
5.28                    -1.99615         19.4052
5.3                     -2.06809          16.938
5.32                    -2.14457           14.45
5.34                     -2.2234         11.9464
5.36                    -2.30255         9.41881
5.38                    -2.38167         6.85077
5.4                     -2.46245         4.22924
5.42                     -2.5475         1.55373
5.44                    -2.63861        -1.16322
5.46                    -2.73549        -3.90472
5.48                    -2.83593         -6.6616
5.5                      -2.9374        -9.43962
5.52                    -3.03889        -12.2562
5.54                    -3.14181        -15.1286
5.56                    -3.24919        -18.0616
5.58                     -3.3636        -21.0429
5.6                     -3.48535        -24.0513
5.62                     -3.6121        -27.0709
5.64                    -3.74031        -30.1036
5.66                    -3.86779        -33.1696
5.68                    -3.99544        -36.2944
5.7                     -4.12694        -39.4913
5.72                    -4.26637        -42.7502
5.74                    -4.41525        -46.0432
5.76                    -4.57113        -49.3428
5.78                    -4.72883        -52.6441
5.8                      -4.8839        -55.9717
5.82                    -5.03612        -59.3681
5.84                    -5.19033        -62.8656
5.86                    -5.35372        -66.4625
5.88                     -5.5309        -70.1211
5.9                     -5.72018        -73.7918
5.92                    -5.91377        -77.4504
5.94                    -6.10254         -81.126
5.96                    -6.28305        -84.8938
5.98                    -6.46172        -88.8322
6                       -6.65239        -92.9694
6.02                    -6.86798        -97.2578
6.04                    -7.11121          -101.6
6.06                    -7.37064        -105.919
6.08                    -7.62611        -110.232
6.1                     -7.86309        -114.686
6.12                    -8.08738        -119.493
6.14                    -8.32811        -124.808
6.16                    -8.62415        -130.628
6.18                    -9.00151        -136.781
6.2                     -9.45382        -143.042
6.22                    -9.93767        -149.349
6.24                    -10.3959        -156.035
6.26                    -10.8104        -163.915
6.28                    -11.2494        -174.071
6.3                     -11.8627         172.445
6.32                    -12.8317         154.534
6.34                    -14.2891         130.385
6.36                    -16.0647         96.4526
6.38                    -16.9734         50.1485
6.4                     -15.6728         2.15842
6.42                    -13.4463        -35.9655
6.44                    -11.6397        -66.4883
6.46                    -10.5799        -93.2294
6.48                    -10.3191        -118.124
6.5                     -10.9329        -142.002
