! TOUCHSTONE file generated by CST MICROWAVE STUDIO
! Date and time: Sun Oct 30 00:13:22 2022
! Project name: L.cst
! Parameters = {Di=1.27; Epsilon_r=1.56; InnerDiameter=1.27; Length=2; Lf=10; Lg=60; OuterConductorThickness=0.2921; OuterDiameter=3.6; Wf=3; Wp=41.2; de=1.5; df=6.8; g=0.8; gx=0.800805; gy=3.47957; h=2.34; hf=1.524; px=11.4143; py=14.9212; w=9.7; wx=10.6135; wy=11.4417}
! Header version: 2018
! Port assignment regex: !\s*Touchstone port\s*([0-9]+)\s*=\s*(CST MWS port|CST DS port)\s*([0-9]+|Zmin|Zmax)\s*\(\"(.*)\"\)(\s*mode\s*([0-9]+))?.*
! Touchstone port assignment:
! Touchstone port 1 = CST MWS port 1 ("")
# GHz S DB R 50
4.5                      -1.8986         79.6996
4.52                     -1.9859         78.2566
4.54                    -2.10631         76.5008
4.56                    -2.21756          75.078
4.58                    -2.33605         73.3429
4.6                     -2.46914         71.9114
4.62                    -2.58952         70.2366
4.64                    -2.74086         68.7875
4.66                    -2.86679         67.2004
4.68                     -3.0322         65.7353
4.7                     -3.16737         64.2553
4.72                    -3.34193         62.7881
4.74                    -3.48943         61.4238
4.76                    -3.66798          59.982
4.78                    -3.82909         58.7278
4.8                     -4.00766         57.3475
4.82                    -4.18068         56.1929
4.84                    -4.35645          54.906
4.86                    -4.53739         53.8421
4.88                     -4.7074         52.6691
4.9                     -4.89116         51.6826
4.92                    -5.05262         50.6349
4.94                    -5.23287         49.7059
4.96                    -5.38381         48.7805
4.98                    -5.55332         47.8854
5                       -5.69276         47.0558
5.02                    -5.84549         46.1699
5.04                    -5.97292          45.389
5.06                     -6.1059         44.4823
5.08                    -6.22193         43.6934
5.1                     -6.33524         42.7293
5.12                    -6.44289         41.8713
5.14                    -6.54003         40.8136
5.16                    -6.64516         39.8234
5.18                    -6.73433         38.6464
5.2                      -6.8447         37.4716
5.22                    -6.93899         36.1572
5.24                    -7.06533         34.7691
5.26                     -7.1827         33.3121
5.28                     -7.3404          31.721
5.3                     -7.50304         30.1489
5.32                    -7.71321         28.4165
5.34                    -7.94949         26.8234
5.36                    -8.23897         25.1149
5.38                     -8.5819         23.7275
5.4                     -8.97852         22.4132
5.42                    -9.45145         21.7183
5.44                    -9.95808         21.5182
5.46                    -10.5237         22.4048
5.48                    -11.0328         24.3772
5.5                      -11.474         27.7542
5.52                    -11.6545         32.1511
5.54                    -11.5883          36.926
5.56                    -11.1752         41.1348
5.58                    -10.5961          43.954
5.6                     -9.86534         45.2944
5.62                    -9.16401         44.9859
5.64                    -8.47287         43.6697
5.66                     -7.8816         41.1785
5.68                    -7.35483         38.2768
5.7                     -6.91489         34.5626
5.72                    -6.54748         30.7499
5.74                    -6.22047         26.2327
5.76                    -5.95219         21.5164
5.78                    -5.66151         15.5814
5.8                     -5.45689         7.94473
5.82                    -5.54395        -4.14603
5.84                    -7.23016        -18.9346
5.86                    -10.7051        -21.0758
5.88                    -12.7149        -5.86883
5.9                     -12.7855         7.74996
5.92                    -12.1009           16.24
5.94                    -11.3112          21.723
5.96                    -10.3384         24.3794
5.98                     -9.4673         25.6318
6                       -8.51402          24.923
6.02                    -7.78397          23.711
6.04                    -6.91178         21.6801
6.06                    -6.22322         20.0814
6.08                    -4.69402         17.1421
6.1                     -3.69333         4.60386
6.12                    -4.17913         -5.3399
6.14                    -4.43196        -8.59977
6.16                    -4.35384        -12.9404
6.18                    -4.29723        -17.0481
6.2                     -4.18077        -21.7467
6.22                    -4.12374        -26.6319
6.24                    -4.08189        -31.6986
6.26                     -4.0597        -37.0551
6.28                    -4.12127        -42.6437
6.3                     -4.15525        -48.2377
6.32                    -4.30592        -54.6814
6.34                     -4.4467        -60.6811
6.36                    -4.72248        -68.8002
6.38                    -5.24863         -75.396
6.4                     -5.75619        -85.2263
6.42                    -7.34483        -92.6769
6.44                    -8.53551        -102.939
6.46                    -18.9581        -108.245
6.48                    -7.39804        -29.3657
6.5                      -3.3211        -70.7373
