! TOUCHSTONE file generated by CST MICROWAVE STUDIO
! Date and time: Sat Oct 29 12:41:05 2022
! Project name: L.cst
! Parameters = {Di=1.27; Epsilon_r=1.56; InnerDiameter=1.27; Length=2; Lf=10; Lg=60; OuterConductorThickness=0.2921; OuterDiameter=3.6; Wf=3; Wp=41.2; de=1.5; df=6.8; g=0.8; gx=0.866693; gy=1.2505; h=2.34; hf=1.524; px=11.1526; py=10.5395; w=9.7; wx=10.2859; wy=9.28904}
! Header version: 2018
! Port assignment regex: !\s*Touchstone port\s*([0-9]+)\s*=\s*(CST MWS port|CST DS port)\s*([0-9]+|Zmin|Zmax)\s*\(\"(.*)\"\)(\s*mode\s*([0-9]+))?.*
! Touchstone port assignment:
! Touchstone port 1 = CST MWS port 1 ("")
# GHz S DB R 50
4.5                     -4.02284         49.0422
4.52                    -4.29128         46.7062
4.54                    -4.57704          44.332
4.56                    -4.88298          41.925
4.58                    -5.21173         39.4956
4.6                     -5.56553         37.0578
4.62                    -5.94618         34.6279
4.64                    -6.35494         32.2237
4.66                    -6.79267         29.8628
4.68                    -7.25987         27.5624
4.7                     -7.75687         25.3381
4.72                    -8.28397         23.2041
4.74                    -8.84167         21.1737
4.76                    -9.43083         19.2597
4.78                    -10.0529         17.4763
4.8                       -10.71         15.8407
4.82                    -11.4049         14.3763
4.84                    -12.1409         13.1155
4.86                     -12.922         12.1038
4.88                     -13.752         11.4043
4.9                      -14.634         11.1035
4.92                    -15.5691          11.317
4.94                    -16.5542         12.1956
4.96                    -17.5788         13.9278
4.98                    -18.6191         16.7313
5                        -19.632         20.8186
5.02                    -20.5486          26.314
5.04                    -21.2795         33.1163
5.06                    -21.7384         40.7747
5.08                    -21.8832         48.5297
5.1                     -21.7406         55.5856
5.12                    -21.3894         61.4113
5.14                    -20.9192         65.8303
5.16                    -20.4023         68.9167
5.18                     -19.886          70.852
5.2                      -19.397         71.8322
5.22                    -18.9488          72.026
5.24                    -18.5472         71.5645
5.26                    -18.1938         70.5431
5.28                    -17.8885         69.0283
5.3                     -17.6307         67.0644
5.32                    -17.4195         64.6786
5.34                    -17.2542         61.8854
5.36                    -17.1343         58.6888
5.38                    -17.0589         55.0835
5.4                     -17.0269         51.0556
5.42                    -17.0365         46.5821
5.44                    -17.0845         41.6298
5.46                    -17.1663         36.1551
5.48                    -17.2746         30.1042
5.5                     -17.3985         23.4151
5.52                    -17.5231         16.0237
5.54                    -17.6278         7.87499
5.56                    -17.6864        -1.05876
5.58                    -17.6682        -10.7536
5.6                     -17.5418        -21.1107
5.62                    -17.2814        -31.9467
5.64                    -16.8734         -43.012
5.66                    -16.3213        -54.0368
5.68                    -15.6444        -64.7869
5.7                     -14.8724        -75.1025
5.72                    -14.0384        -84.9072
5.74                    -13.1729        -94.1932
5.76                    -12.3014        -102.997
5.78                    -11.4435        -111.376
5.8                     -10.6135        -119.394
5.82                    -9.82148        -127.112
5.84                    -9.07457        -134.581
5.86                    -8.37742        -141.843
5.88                    -7.73309        -148.932
5.9                     -7.14347         -155.87
5.92                    -6.60959        -162.675
5.94                    -6.13182        -169.354
5.96                       -5.71        -175.913
5.98                    -5.34352          177.65
6                       -5.03132         171.339
6.02                    -4.77193         165.163
6.04                    -4.56338         159.132
6.06                    -4.40318         153.257
6.08                    -4.28828          147.55
6.1                     -4.21498         142.023
6.12                    -4.17896         136.685
6.14                    -4.17525         131.542
6.16                    -4.19831         126.595
6.18                    -4.24227         121.836
6.2                     -4.30115         117.249
6.22                    -4.36933         112.809
6.24                    -4.44201         108.477
6.26                    -4.51574          104.21
6.28                    -4.58889          99.955
6.3                     -4.66189         95.6564
6.32                    -4.73729         91.2601
6.34                    -4.81959         86.7165
6.36                    -4.91486         81.9837
6.38                    -5.03017         77.0284
6.4                     -5.17313         71.8262
6.42                    -5.35144           66.36
6.44                    -5.57247         60.6177
6.46                    -5.84307         54.5888
6.48                     -6.1694         48.2609
6.5                     -6.55683         41.6155
