! TOUCHSTONE file generated by CST MICROWAVE STUDIO
! Date and time: Fri Oct 28 21:33:02 2022
! Project name: L.cst
! Parameters = {Di=1.27; Epsilon_r=1.56; InnerDiameter=1.27; Length=2; Lf=10; Lg=60; OuterConductorThickness=0.2921; OuterDiameter=3.6; Wf=3; Wp=41.2; de=1.5; df=6.8; g=0.8; gx=2.15267; gy=1.93557; h=2.34; hf=1.524; px=11.7599; py=11.4171; w=9.7; wx=9.60719; wy=9.4815}
! Header version: 2018
! Port assignment regex: !\s*Touchstone port\s*([0-9]+)\s*=\s*(CST MWS port|CST DS port)\s*([0-9]+|Zmin|Zmax)\s*\(\"(.*)\"\)(\s*mode\s*([0-9]+))?.*
! Touchstone port assignment:
! Touchstone port 1 = CST MWS port 1 ("")
# GHz S DB R 50
4.5                     -1.19186         68.7943
4.52                    -1.26474         66.7691
4.54                    -1.33942         64.7222
4.56                    -1.41572         62.6495
4.58                    -1.49357         60.5465
4.6                       -1.573         58.4089
4.62                    -1.65414         56.2324
4.64                    -1.73722         54.0131
4.66                    -1.82251         51.7471
4.68                    -1.91037         49.4311
4.7                     -2.00117          47.062
4.72                    -2.09532         44.6371
4.74                    -2.19325         42.1541
4.76                    -2.29536          39.611
4.78                    -2.40206          37.006
4.8                     -2.51374         34.3377
4.82                    -2.63074         31.6049
4.84                    -2.75338         28.8066
4.86                    -2.88193         25.9419
4.88                    -3.01662         23.0099
4.9                     -3.15762         20.0101
4.92                    -3.30505         16.9417
4.94                    -3.45896          13.804
4.96                    -3.61935         10.5964
4.98                    -3.78616         7.31818
5                       -3.95924         3.96859
5.02                     -4.1384        0.546893
5.04                    -4.32334        -2.94766
5.06                    -4.51371         -6.5158
5.08                    -4.70906        -10.1583
5.1                     -4.90887        -13.8756
5.12                    -5.11253        -17.6684
5.14                    -5.31933        -21.5368
5.16                    -5.52848        -25.4808
5.18                    -5.73909        -29.5001
5.2                     -5.95019        -33.5938
5.22                    -6.16074        -37.7605
5.24                    -6.36959        -41.9981
5.26                    -6.57557        -46.3034
5.28                    -6.77744         -50.673
5.3                     -6.97395        -55.1018
5.32                    -7.16383        -59.5841
5.34                    -7.34585        -64.1128
5.36                    -7.51884        -68.6798
5.38                    -7.68171         -73.276
5.4                      -7.8335        -77.8912
5.42                    -7.97339        -82.5146
5.44                    -8.10074        -87.1344
5.46                     -8.2151        -91.7388
5.48                    -8.31622        -96.3156
5.5                     -8.40405        -100.853
5.52                    -8.47875        -105.338
5.54                    -8.54064        -109.762
5.56                     -8.5902        -114.113
5.58                    -8.62805        -118.382
5.6                     -8.65489        -122.562
5.62                    -8.67151        -126.645
5.64                    -8.67871        -130.627
5.66                     -8.6773        -134.502
5.68                    -8.66809        -138.267
5.7                     -8.65182        -141.922
5.72                    -8.62921        -145.464
5.74                    -8.60086        -148.895
5.76                    -8.56736        -152.215
5.78                    -8.52917        -155.426
5.8                     -8.48671        -158.531
5.82                     -8.4403        -161.532
5.84                    -8.39023        -164.434
5.86                    -8.33671        -167.241
5.88                    -8.27991        -169.957
5.9                     -8.21996        -172.588
5.92                    -8.15696        -175.138
5.94                    -8.09101        -177.612
5.96                    -8.02218         179.976
5.98                    -7.95054         177.642
6                        -7.8762          175.36
6.02                    -7.79923         173.131
6.04                    -7.71975         170.949
6.06                    -7.63788          168.81
6.08                    -7.55375         166.708
6.1                     -7.46753         164.638
6.12                    -7.37937         162.595
6.14                    -7.28944         160.576
6.16                    -7.19791         158.576
6.18                    -7.10494         156.591
6.2                     -7.01069         154.618
6.22                    -6.91528         152.654
6.24                    -6.81882         150.694
6.26                    -6.72141         148.737
6.28                    -6.62307         146.779
6.3                     -6.52384         144.818
6.32                    -6.42368          142.85
6.34                    -6.32255         140.872
6.36                    -6.22035         138.881
6.38                      -6.117         136.872
6.4                     -6.01238         134.843
6.42                    -5.90638         132.787
6.44                    -5.79891           130.7
6.46                    -5.68991         128.575
6.48                    -5.57939         126.407
6.5                     -5.46743         124.186
