! TOUCHSTONE file generated by CST MICROWAVE STUDIO
! Date and time: Fri Oct 28 07:22:59 2022
! Project name: L.cst
! Parameters = {Di=1.27; Epsilon_r=1.56; InnerDiameter=1.27; Length=2; Lf=10; Lg=60; OuterConductorThickness=0.2921; OuterDiameter=3.6; Wf=3; Wp=41.2; de=1.5; df=6.8; g=0.8; gx=2.53667; gy=2.86553; h=2.34; hf=1.524; px=8.42499; py=11.6041; w=9.7; wx=5.88832; wy=8.73859}
! Header version: 2018
! Port assignment regex: !\s*Touchstone port\s*([0-9]+)\s*=\s*(CST MWS port|CST DS port)\s*([0-9]+|Zmin|Zmax)\s*\(\"(.*)\"\)(\s*mode\s*([0-9]+))?.*
! Touchstone port assignment:
! Touchstone port 1 = CST MWS port 1 ("")
# GHz S DB R 50
4.5                    -0.374036         87.2932
4.52                   -0.383668         85.8385
4.54                   -0.393538         84.3716
4.56                   -0.403665         82.8923
4.58                   -0.414065         81.4004
4.6                     -0.42475         79.8961
4.62                   -0.435726         78.3791
4.64                   -0.446996         76.8494
4.66                   -0.458562         75.3069
4.68                   -0.470421         73.7515
4.7                     -0.48257         72.1831
4.72                   -0.495004         70.6016
4.74                   -0.507718         69.0067
4.76                   -0.520705         67.3985
4.78                    -0.53396         65.7767
4.8                    -0.547476         64.1411
4.82                   -0.561248         62.4915
4.84                   -0.575271         60.8279
4.86                    -0.58954         59.1499
4.88                   -0.604052         57.4575
4.9                    -0.618806         55.7505
4.92                   -0.633797         54.0287
4.94                   -0.649024         52.2919
4.96                   -0.664489           50.54
4.98                    -0.68019         48.7728
5                      -0.696128         46.9902
5.02                   -0.712302         45.1921
5.04                   -0.728716         43.3784
5.06                   -0.745368         41.5489
5.08                   -0.762261         39.7037
5.1                    -0.779394         37.8425
5.12                   -0.796768         35.9655
5.14                   -0.814383         34.0725
5.16                   -0.832239         32.1635
5.18                   -0.850332         30.2386
5.2                    -0.868663         28.2977
5.22                   -0.887226          26.341
5.24                    -0.90602         24.3685
5.26                   -0.925038         22.3802
5.28                   -0.944275         20.3762
5.3                    -0.963725         18.3567
5.32                    -0.98338         16.3218
5.34                    -1.00323         14.2717
5.36                    -1.02327         12.2065
5.38                    -1.04348         10.1264
5.4                     -1.06386         8.03165
5.42                    -1.08439         5.92244
5.44                    -1.10507         3.79903
5.46                    -1.12586         1.66169
5.48                    -1.14677       -0.489306
5.5                     -1.16778        -2.65366
5.52                    -1.18887        -4.83104
5.54                    -1.21003        -7.02113
5.56                    -1.23123        -9.22358
5.58                    -1.25248         -11.438
5.6                     -1.27374         -13.664
5.62                      -1.295        -15.9013
5.64                    -1.31625        -18.1493
5.66                    -1.33747        -20.4077
5.68                    -1.35865        -22.6761
5.7                     -1.37977        -24.9539
5.72                    -1.40081        -27.2408
5.74                    -1.42177        -29.5362
5.76                    -1.44262        -31.8396
5.78                    -1.46335        -34.1506
5.8                     -1.48396        -36.4687
5.82                    -1.50442        -38.7934
5.84                    -1.52472        -41.1242
5.86                    -1.54486        -43.4606
5.88                    -1.56482         -45.802
5.9                     -1.58459        -48.1481
5.92                    -1.60416        -50.4982
5.94                    -1.62353         -52.852
5.96                    -1.64267        -55.2089
5.98                    -1.66159        -57.5685
6                       -1.68027        -59.9304
6.02                     -1.6987        -62.2941
6.04                    -1.71689        -64.6593
6.06                    -1.73481        -67.0256
6.08                    -1.75246        -69.3926
6.1                     -1.76985        -71.7601
6.12                    -1.78695        -74.1278
6.14                    -1.80377        -76.4954
6.16                     -1.8203         -78.863
6.18                    -1.83654        -81.2302
6.2                     -1.85249        -83.5971
6.22                    -1.86815        -85.9637
6.24                    -1.88352        -88.3299
6.26                    -1.89861         -90.696
6.28                    -1.91344        -93.0622
6.3                     -1.92801        -95.4288
6.32                    -1.94235         -97.796
6.34                    -1.95648        -100.164
6.36                    -1.97044        -102.534
6.38                    -1.98427        -104.907
6.4                     -1.99802        -107.282
6.42                    -2.01175        -109.661
6.44                    -2.02554        -112.045
6.46                    -2.03946        -114.434
6.48                    -2.05362        -116.829
6.5                     -2.06814        -119.233
