! TOUCHSTONE file generated by CST MICROWAVE STUDIO
! Date and time: Thu Oct 27 01:51:28 2022
! Project name: L.cst
! Parameters = {Di=1.27; Epsilon_r=1.56; InnerDiameter=1.27; Length=2; Lf=10; Lg=60; OuterConductorThickness=0.2921; OuterDiameter=3.6; Wf=3; Wp=41.2; de=1.5; df=6.8; g=0.8; gx=1.91664; gy=0.896976; h=2.34; hf=1.524; px=9.46025; py=8.37609; w=9.7; wx=7.54361; wy=7.47912}
! Header version: 2018
! Port assignment regex: !\s*Touchstone port\s*([0-9]+)\s*=\s*(CST MWS port|CST DS port)\s*([0-9]+|Zmin|Zmax)\s*\(\"(.*)\"\)(\s*mode\s*([0-9]+))?.*
! Touchstone port assignment:
! Touchstone port 1 = CST MWS port 1 ("")
# GHz S DB R 50
4.5                    -0.699337         69.5551
4.52                   -0.731571         67.7015
4.54                   -0.764956          65.829
4.56                    -0.79929         63.9366
4.58                   -0.834409          62.023
4.6                     -0.87018         60.0866
4.62                   -0.906509          58.126
4.64                   -0.943331         56.1393
4.66                   -0.980615         54.1252
4.68                    -1.01835         52.0819
4.7                     -1.05657         50.0079
4.72                     -1.0953         47.9019
4.74                     -1.1346         45.7625
4.76                    -1.17454         43.5885
4.78                    -1.21519         41.3789
4.8                     -1.25664         39.1326
4.82                    -1.29896          36.849
4.84                    -1.34223         34.5274
4.86                    -1.38653         32.1672
4.88                    -1.43191         29.7682
4.9                     -1.47844         27.3299
4.92                    -1.52615         24.8524
4.94                    -1.57507         22.3356
4.96                    -1.62521         19.7796
4.98                    -1.67658         17.1846
5                       -1.72914          14.551
5.02                    -1.78287         11.8791
5.04                    -1.83771         9.16948
5.06                    -1.89359         6.42273
5.08                    -1.95043         3.63956
5.1                     -2.00812        0.820744
5.12                    -2.06655        -2.03282
5.14                     -2.1256        -4.92016
5.16                    -2.18512         -7.8402
5.18                    -2.24497        -10.7918
5.2                     -2.30498        -13.7736
5.22                    -2.36499        -16.7842
5.24                    -2.42482        -19.8223
5.26                     -2.4843        -22.8861
5.28                    -2.54326         -25.974
5.3                      -2.6015        -29.0843
5.32                    -2.65886         -32.215
5.34                    -2.71516         -35.364
5.36                    -2.77025        -38.5294
5.38                    -2.82395        -41.7088
5.4                     -2.87613        -44.9001
5.42                    -2.92665        -48.1008
5.44                    -2.97539        -51.3084
5.46                    -3.02224        -54.5206
5.48                     -3.0671        -57.7348
5.5                     -3.10992        -60.9483
5.52                    -3.15061        -64.1587
5.54                    -3.18916        -67.3632
5.56                    -3.22553        -70.5593
5.58                    -3.25972        -73.7444
5.6                     -3.29174        -76.9161
5.62                    -3.32162        -80.0718
5.64                     -3.3494         -83.209
5.66                    -3.37512        -86.3256
5.68                    -3.39887        -89.4193
5.7                     -3.42071        -92.4878
5.72                    -3.44073        -95.5293
5.74                    -3.45902        -98.5418
5.76                    -3.47567        -101.524
5.78                    -3.49077        -104.473
5.8                     -3.50443        -107.389
5.82                    -3.51673        -110.269
5.84                    -3.52778        -113.114
5.86                    -3.53766        -115.921
5.88                    -3.54646         -118.69
5.9                     -3.55425         -121.42
5.92                     -3.5611        -124.111
5.94                     -3.5671        -126.762
5.96                    -3.57228        -129.373
5.98                    -3.57672        -131.945
6                       -3.58046        -134.477
6.02                    -3.58354        -136.969
6.04                    -3.58602        -139.423
6.06                    -3.58793        -141.838
6.08                    -3.58932        -144.216
6.1                     -3.59024        -146.557
6.12                    -3.59073        -148.862
6.14                    -3.59087        -151.132
6.16                    -3.59073        -153.369
6.18                    -3.59038        -155.574
6.2                     -3.58993        -157.748
6.22                    -3.58949        -159.892
6.24                     -3.5892        -162.009
6.26                     -3.5892        -164.098
6.28                    -3.58968        -166.162
6.3                     -3.59081        -168.201
6.32                    -3.59283        -170.216
6.34                    -3.59594         -172.21
6.36                     -3.6004        -174.181
6.38                    -3.60645         -176.13
6.4                     -3.61437        -178.058
6.42                     -3.6244        -179.965
6.44                    -3.63681         178.151
6.46                    -3.65182          176.29
6.48                    -3.66965         174.453
6.5                     -3.69047         172.641
