! TOUCHSTONE file generated by CST MICROWAVE STUDIO
! Date and time: Sat Oct 29 14:34:39 2022
! Project name: L.cst
! Parameters = {Di=1.27; Epsilon_r=1.56; InnerDiameter=1.27; Length=2; Lf=10; Lg=60; OuterConductorThickness=0.2921; OuterDiameter=3.6; Wf=3; Wp=41.2; de=1.5; df=6.8; g=0.8; gx=1.15107; gy=2.71836; h=2.34; hf=1.524; px=13.2969; py=10.3225; w=9.7; wx=12.1459; wy=7.6041}
! Header version: 2018
! Port assignment regex: !\s*Touchstone port\s*([0-9]+)\s*=\s*(CST MWS port|CST DS port)\s*([0-9]+|Zmin|Zmax)\s*\(\"(.*)\"\)(\s*mode\s*([0-9]+))?.*
! Touchstone port assignment:
! Touchstone port 1 = CST MWS port 1 ("")
# GHz S DB R 50
4.5                     -5.37118         66.0796
4.52                    -5.74948         64.9427
4.54                    -6.11985         64.1884
4.56                    -6.52902         63.5659
4.58                    -6.90935         63.1487
4.6                     -7.30981         63.1254
4.62                    -7.69501         63.1762
4.64                    -8.05225         63.6773
4.66                    -8.40842         64.3288
4.68                    -8.70326         65.2199
4.7                     -8.97792         66.4057
4.72                    -9.19614         67.5718
4.74                    -9.35435         68.9768
4.76                    -9.47642         70.2754
4.78                    -9.52232         71.5187
4.8                     -9.53639         72.6928
4.82                    -9.49822         73.5386
4.84                    -9.41961         74.2724
4.86                    -9.32507         74.6365
4.88                    -9.19295         74.7301
4.9                     -9.06234         74.5649
4.92                    -8.91632         74.0054
4.94                    -8.76965         73.2479
4.96                    -8.63399         72.1167
4.98                    -8.49458         70.7326
5                       -8.37951         69.0818
5.02                    -8.26926         67.0962
5.04                    -8.18074         64.9036
5.06                    -8.11465         62.3542
5.08                    -8.06377          59.555
5.1                     -8.04976         56.4277
5.12                    -8.05444         52.9429
5.14                    -8.10003          49.135
5.16                    -8.18133         44.8508
5.18                    -8.30336         40.1567
5.2                     -8.48438         34.8678
5.22                    -8.71481         28.9555
5.24                    -9.02545         22.2804
5.26                    -9.40886         14.6144
5.28                    -9.88904         5.84168
5.3                     -10.4682        -4.49977
5.32                    -11.1362        -16.6453
5.34                    -11.8718        -31.2204
5.36                    -12.5581        -48.5244
5.38                    -13.0596        -68.5761
5.4                     -13.1483        -90.2696
5.42                    -12.7894        -111.464
5.44                    -12.0556        -130.182
5.46                    -11.1277        -145.241
5.48                    -10.0241        -156.872
5.5                     -8.68771        -166.064
5.52                     -7.1271        -175.184
5.54                    -5.57496         174.197
5.56                    -4.33881         162.211
5.58                    -3.49401          150.23
5.6                      -2.9793          139.22
5.62                    -2.66605         129.418
5.64                    -2.48094         120.809
5.66                      -2.368         113.082
5.68                    -2.29684         106.158
5.7                     -2.26103         99.7692
5.72                    -2.23511         93.8538
5.74                    -2.23563         88.3036
5.76                    -2.23796          82.981
5.78                     -2.2583         77.9617
5.8                     -2.28727         73.0334
5.82                    -2.30803         68.3761
5.84                    -2.33101         63.6997
5.86                    -2.32141         58.8765
5.88                    -2.35861         53.8948
5.9                     -2.40144         48.5328
5.92                    -2.48572         43.1955
5.94                    -2.64158         36.9842
5.96                    -2.86228         30.3087
5.98                    -3.87408         23.7262
6                         -4.054         26.7415
6.02                     -3.3201         18.6686
6.04                    -3.51674         9.00298
6.06                    -3.82967        -2.38924
6.08                    -4.40534        -15.4287
6.1                     -5.26671        -33.5883
6.12                       -6.48        -58.8084
6.14                    -7.80577        -98.5711
6.16                    -7.61861        -151.403
6.18                    -5.54332         159.509
6.2                     -3.65769         124.893
6.22                    -2.48705         99.9168
6.24                    -1.87892         82.2004
6.26                    -1.55038         68.1965
6.28                    -1.35283         57.6319
6.3                     -1.29218         48.3777
6.32                    -1.17967         40.8328
6.34                    -1.21983         34.0687
6.36                    -1.13124         27.6665
6.38                    -1.17898         22.5439
6.4                     -1.16259         16.4299
6.42                    -1.11022         12.2695
6.44                    -1.26745         6.43507
6.46                    -1.00949         1.79409
6.48                     -1.4396         -2.7912
6.5                    -0.979729        -14.2619
