! TOUCHSTONE file generated by CST MICROWAVE STUDIO
! Date and time: Fri Oct 28 19:20:31 2022
! Project name: L.cst
! Parameters = {Di=1.27; Epsilon_r=1.56; InnerDiameter=1.27; Length=2; Lf=10; Lg=60; OuterConductorThickness=0.2921; OuterDiameter=3.6; Wf=3; Wp=41.2; de=1.5; df=6.8; g=0.8; gx=3.37551; gy=2.94309; h=2.34; hf=1.524; px=10.0339; py=14.0097; w=9.7; wx=6.65835; wy=11.0666}
! Header version: 2018
! Port assignment regex: !\s*Touchstone port\s*([0-9]+)\s*=\s*(CST MWS port|CST DS port)\s*([0-9]+|Zmin|Zmax)\s*\(\"(.*)\"\)(\s*mode\s*([0-9]+))?.*
! Touchstone port assignment:
! Touchstone port 1 = CST MWS port 1 ("")
# GHz S DB R 50
4.5                    -0.419708         87.2555
4.52                   -0.462973         85.8509
4.54                    -0.46857         84.5406
4.56                   -0.452037         83.0098
4.58                   -0.459454         81.2893
4.6                    -0.495941         79.6593
4.62                   -0.523802         78.2082
4.64                   -0.523048         76.7257
4.66                   -0.518834         75.0489
4.68                   -0.538677         73.2957
4.7                    -0.571886         71.6563
4.72                   -0.589636         70.1049
4.74                   -0.589588         68.4601
4.76                    -0.59654         66.6703
4.78                   -0.622763         64.8751
4.8                    -0.651208         63.1784
4.82                   -0.663582         61.4967
4.84                   -0.667804         59.6999
4.86                   -0.683798         57.8092
4.88                   -0.712754         55.9507
4.9                    -0.736908         54.1586
4.92                   -0.747561         52.3294
4.94                   -0.757526         50.3868
4.96                    -0.78031         48.3933
4.98                   -0.809822         46.4459
5                      -0.830718         44.5272
5.02                   -0.842092         42.5366
5.04                   -0.858077         40.4462
5.06                   -0.885688         38.3376
5.08                   -0.914569         36.2724
5.1                    -0.933367         34.1983
5.12                   -0.947031         32.0311
5.14                   -0.968709         29.7827
5.16                   -0.999488          27.538
5.18                    -1.02705         25.3224
5.2                     -1.04473         23.0619
5.22                    -1.06164         20.6964
5.24                    -1.08849          18.269
5.26                    -1.12122         15.8568
5.28                    -1.14727         13.4502
5.3                     -1.16496         10.9645
5.32                    -1.18614         8.36758
5.34                    -1.21815         5.72618
5.36                    -1.25255         3.10149
5.38                    -1.27794        0.450959
5.4                     -1.29772        -2.31216
5.42                    -1.32538        -5.18934
5.44                    -1.36416        -8.09613
5.46                    -1.40188         -10.994
5.48                    -1.42944        -13.9569
5.5                     -1.45551        -17.0667
5.52                    -1.49426        -20.2908
5.54                      -1.544        -23.5322
5.56                    -1.58916        -26.7823
5.58                    -1.62402        -30.1478
5.6                     -1.66298        -33.7003
5.62                    -1.72014        -37.3696
5.64                    -1.78784        -41.0511
5.66                    -1.84717        -44.7778
5.68                    -1.89744        -48.6976
5.7                     -1.96045        -52.8683
5.72                    -2.05026        -57.1754
5.74                    -2.15207        -61.5106
5.76                    -2.24376        -65.9682
5.78                    -2.33307        -70.7548
5.8                       -2.454        -75.9114
5.82                      -2.623        -81.2577
5.84                    -2.81671        -86.6717
5.86                    -3.00888        -92.3338
5.88                    -3.22187        -98.5494
5.9                     -3.51441        -105.337
5.92                    -3.91323        -112.373
5.94                    -4.37816        -119.444
5.96                    -4.86049        -126.884
5.98                     -5.3983         -135.33
6                       -6.10862        -144.978
6.02                    -7.05966        -155.384
6.04                    -8.16484         -166.38
6.06                    -9.25942        -179.626
6.08                    -10.3487         160.804
6.1                     -11.4913          129.77
6.12                    -11.8929         84.2593
6.14                    -10.3167         34.2979
6.16                    -7.88167        -7.03637
6.18                    -5.97003        -40.2727
6.2                     -4.89148        -68.3982
6.22                    -4.55843         -92.612
6.24                    -4.74909        -113.137
6.26                    -5.14626        -130.347
6.28                    -5.43177        -145.744
6.3                     -5.46893        -161.811
6.32                     -5.3279         179.289
6.34                    -5.11206         156.481
6.36                    -4.84535         129.147
6.38                    -4.48114         97.4344
6.4                      -3.9736         62.4915
6.42                    -3.38036         26.3755
6.44                    -2.89241        -8.81438
6.46                    -2.73586        -41.5014
6.48                    -3.04195        -70.3284
6.5                     -3.71634        -93.7764
