! TOUCHSTONE file generated by CST MICROWAVE STUDIO
! Date and time: Sat Oct 29 21:51:21 2022
! Project name: L.cst
! Parameters = {Di=1.27; Epsilon_r=1.56; InnerDiameter=1.27; Length=2; Lf=10; Lg=60; OuterConductorThickness=0.2921; OuterDiameter=3.6; Wf=3; Wp=41.2; de=1.5; df=6.8; g=0.8; gx=1.4318; gy=3.06589; h=2.34; hf=1.524; px=10.5138; py=11.0138; w=9.7; wx=9.08197; wy=7.94793}
! Header version: 2018
! Port assignment regex: !\s*Touchstone port\s*([0-9]+)\s*=\s*(CST MWS port|CST DS port)\s*([0-9]+|Zmin|Zmax)\s*\(\"(.*)\"\)(\s*mode\s*([0-9]+))?.*
! Touchstone port assignment:
! Touchstone port 1 = CST MWS port 1 ("")
# GHz S DB R 50
4.5                    -0.773848         82.4099
4.52                   -0.810608          80.775
4.54                   -0.848669         79.1284
4.56                   -0.887907         77.4693
4.58                   -0.928235         75.7965
4.6                    -0.969595         74.1089
4.62                    -1.01196         72.4052
4.64                    -1.05533         70.6843
4.66                    -1.09974         68.9449
4.68                    -1.14524         67.1859
4.7                     -1.19191         65.4061
4.72                    -1.23986         63.6047
4.74                    -1.28917         61.7806
4.76                       -1.34         59.9332
4.78                    -1.39245         58.0615
4.8                     -1.44668          56.165
4.82                    -1.50283         54.2434
4.84                    -1.56104         52.2961
4.86                    -1.62144         50.3229
4.88                    -1.68419         48.3237
4.9                     -1.74941         46.2983
4.92                    -1.81724         44.2466
4.94                    -1.88779         42.1689
4.96                    -1.96117         40.0652
4.98                    -2.03749         37.9356
5                       -2.11685         35.7804
5.02                    -2.19932            33.6
5.04                    -2.28499         31.3946
5.06                    -2.37391         29.1645
5.08                    -2.46614         26.9103
5.1                     -2.56173         24.6322
5.12                    -2.66071         22.3308
5.14                    -2.76311         20.0064
5.16                    -2.86894         17.6597
5.18                     -2.9782          15.291
5.2                      -3.0909          12.901
5.22                    -3.20702         10.4902
5.24                    -3.32654         8.05922
5.26                    -3.44943         5.60869
5.28                    -3.57565         3.13916
5.3                     -3.70516        0.651382
5.32                     -3.8379        -1.85392
5.34                    -3.97381        -4.37597
5.36                    -4.11282        -6.91394
5.38                    -4.25484        -9.46694
5.4                     -4.39979         -12.034
5.42                    -4.54757        -14.6142
5.44                    -4.69808        -17.2063
5.46                     -4.8512        -19.8092
5.48                    -5.00681        -22.4216
5.5                     -5.16478        -25.0421
5.52                    -5.32496        -27.6693
5.54                    -5.48721        -30.3014
5.56                    -5.65135        -32.9368
5.58                    -5.81721        -35.5737
5.6                      -5.9846        -38.2099
5.62                    -6.15333        -40.8434
5.64                    -6.32316        -43.4719
5.66                    -6.49388        -46.0928
5.68                    -6.66521        -48.7037
5.7                      -6.8369        -51.3017
5.72                    -7.00863         -53.884
5.74                     -7.1801        -56.4476
5.76                    -7.35094        -58.9891
5.78                    -7.52078        -61.5054
5.8                      -7.6892        -63.9933
5.82                    -7.85574        -66.4491
5.84                    -8.01988        -68.8696
5.86                     -8.1811        -71.2513
5.88                    -8.33878        -73.5909
5.9                     -8.49227        -75.8852
5.92                    -8.64085        -78.1314
5.94                    -8.78376        -80.3268
5.96                    -8.92017        -82.4692
5.98                    -9.04919         -84.557
6                       -9.16988        -86.5891
6.02                    -9.28126        -88.5653
6.04                    -9.38233        -90.4862
6.06                    -9.47207        -92.3536
6.08                    -9.54944          -94.17
6.1                     -9.61348        -95.9395
6.12                    -9.66325        -97.6673
6.14                    -9.69792        -99.3596
6.16                    -9.71678        -101.024
6.18                    -9.71927        -102.669
6.2                     -9.70502        -104.305
6.22                    -9.67387        -105.942
6.24                    -9.62589        -107.591
6.26                    -9.56138        -109.262
6.28                    -9.48088        -110.969
6.3                     -9.38519        -112.721
6.32                    -9.27528        -114.529
6.34                    -9.15235        -116.404
6.36                    -9.01777        -118.354
6.38                    -8.87303        -120.388
6.4                     -8.71972        -122.514
6.42                    -8.55954        -124.736
6.44                    -8.39421        -127.062
6.46                    -8.22548        -129.495
6.48                    -8.05512         -132.04
6.5                     -7.88488        -134.699
