! TOUCHSTONE file generated by CST MICROWAVE STUDIO
! Date and time: Wed Oct 26 20:58:44 2022
! Project name: L.cst
! Parameters = {Di=1.27; Epsilon_r=1.56; InnerDiameter=1.27; Length=2; Lf=10; Lg=60; OuterConductorThickness=0.2921; OuterDiameter=3.6; Wf=3; Wp=41.2; de=1.5; df=6.8; g=0.8; gx=1.93006; gy=1.66348; h=2.34; hf=1.524; px=9.59848; py=11.003; w=9.7; wx=7.66842; wy=9.33951}
! Header version: 2018
! Port assignment regex: !\s*Touchstone port\s*([0-9]+)\s*=\s*(CST MWS port|CST DS port)\s*([0-9]+|Zmin|Zmax)\s*\(\"(.*)\"\)(\s*mode\s*([0-9]+))?.*
! Touchstone port assignment:
! Touchstone port 1 = CST MWS port 1 ("")
# GHz S DB R 50
4.5                     -0.63741         74.5744
4.52                   -0.654865         72.7789
4.54                   -0.676164         70.9587
4.56                   -0.701051         69.1164
4.58                   -0.729211         67.2542
4.6                    -0.760299         65.3734
4.62                   -0.793952         63.4749
4.64                   -0.829808          61.559
4.66                   -0.867517         59.6252
4.68                   -0.906749         57.6729
4.7                     -0.94721         55.7008
4.72                   -0.988641         53.7075
4.74                    -1.03082         51.6911
4.76                    -1.07358         49.6498
4.78                    -1.11679         47.5814
4.8                     -1.16035         45.4836
4.82                    -1.20423         43.3543
4.84                    -1.24842         41.1914
4.86                    -1.29294         38.9925
4.88                    -1.33784         36.7559
4.9                     -1.38321         34.4794
4.92                    -1.42915         32.1614
4.94                    -1.47577         29.8004
4.96                    -1.52319         27.3948
4.98                    -1.57152         24.9435
5                        -1.6209         22.4454
5.02                    -1.67143         19.8996
5.04                    -1.72324         17.3055
5.06                    -1.77639         14.6625
5.08                    -1.83099         11.9704
5.1                     -1.88707         9.22884
5.12                    -1.94469         6.43787
5.14                    -2.00386         3.59757
5.16                    -2.06457         0.70819
5.18                     -2.1268        -2.22989
5.2                     -2.19048        -5.21615
5.22                    -2.25555        -8.24996
5.24                     -2.3219        -11.3306
5.26                    -2.38941        -14.4569
5.28                    -2.45794        -17.6283
5.3                     -2.52731        -20.8433
5.32                    -2.59735        -24.1006
5.34                    -2.66786         -27.399
5.36                    -2.73862        -30.7367
5.38                     -2.8094         -34.112
5.4                     -2.87997         -37.523
5.42                    -2.95007        -40.9677
5.44                    -3.01947         -44.444
5.46                    -3.08791        -47.9494
5.48                    -3.15514        -51.4815
5.5                     -3.22091        -55.0376
5.52                    -3.28501         -58.615
5.54                    -3.34719        -62.2107
5.56                    -3.40725        -65.8218
5.58                    -3.46499        -69.4451
5.6                     -3.52024        -73.0775
5.62                    -3.57286        -76.7157
5.64                    -3.62269        -80.3566
5.66                    -3.66965        -83.9968
5.68                    -3.71363        -87.6331
5.7                      -3.7546        -91.2623
5.72                    -3.79251        -94.8814
5.74                    -3.82735        -98.4873
5.76                    -3.85914        -102.077
5.78                    -3.88792        -105.648
5.8                     -3.91374        -109.199
5.82                    -3.93667        -112.725
5.84                    -3.95681        -116.227
5.86                    -3.97427        -119.701
5.88                    -3.98917        -123.146
5.9                     -4.00164        -126.561
5.92                    -4.01184        -129.945
5.94                    -4.01992        -133.297
5.96                    -4.02605        -136.617
5.98                    -4.03042        -139.904
6                       -4.03323        -143.159
6.02                    -4.03467        -146.382
6.04                    -4.03497        -149.574
6.06                    -4.03438        -152.735
6.08                    -4.03314        -155.867
6.1                     -4.03154         -158.97
6.12                    -4.02989        -162.047
6.14                    -4.02851        -165.097
6.16                    -4.02776        -168.124
6.18                    -4.02803        -171.128
6.2                     -4.02974        -174.111
6.22                    -4.03335        -177.074
6.24                    -4.03936         179.982
6.26                    -4.04828         177.055
6.28                    -4.06069         174.145
6.3                     -4.07719         171.252
6.32                     -4.0984         168.376
6.34                    -4.12497         165.517
6.36                    -4.15758         162.678
6.38                    -4.19692         159.859
6.4                     -4.24366         157.064
6.42                    -4.29848         154.297
6.44                    -4.36201         151.563
6.46                     -4.4348         148.868
6.48                    -4.51735          146.22
6.5                     -4.60997         143.627
