! TOUCHSTONE file generated by CST MICROWAVE STUDIO
! Date and time: Fri Oct 28 16:28:34 2022
! Project name: L.cst
! Parameters = {Di=1.27; Epsilon_r=1.56; InnerDiameter=1.27; Length=2; Lf=10; Lg=60; OuterConductorThickness=0.2921; OuterDiameter=3.6; Wf=3; Wp=41.2; de=1.5; df=6.8; g=0.8; gx=4.89896; gy=2.73178; h=2.34; hf=1.524; px=11.8536; py=13.8891; w=9.7; wx=6.95461; wy=11.1574}
! Header version: 2018
! Port assignment regex: !\s*Touchstone port\s*([0-9]+)\s*=\s*(CST MWS port|CST DS port)\s*([0-9]+|Zmin|Zmax)\s*\(\"(.*)\"\)(\s*mode\s*([0-9]+))?.*
! Touchstone port assignment:
! Touchstone port 1 = CST MWS port 1 ("")
# GHz S DB R 50
4.5                    -0.434971         90.8696
4.52                     -0.4228         89.4254
4.54                   -0.422567         87.7433
4.56                   -0.454376         86.0955
4.58                   -0.481943         84.6277
4.6                    -0.481653         83.1298
4.62                   -0.480959         81.4401
4.64                   -0.504776         79.7113
4.66                   -0.533777         78.1087
4.68                   -0.542807         76.5274
4.7                    -0.544496          74.803
4.72                   -0.563069         72.9982
4.74                    -0.59174          71.267
4.76                   -0.607871         69.5807
4.78                     -0.6135         67.7953
4.8                    -0.629199           65.91
4.82                   -0.656875         64.0516
4.84                   -0.678423         62.2428
4.86                   -0.688807         60.3715
4.88                   -0.703575          58.395
4.9                    -0.730198         56.4057
4.92                    -0.75593         54.4582
4.94                   -0.771505         52.4763
4.96                   -0.786952         50.3932
4.98                   -0.812746         48.2647
5                      -0.841658          46.161
5.02                   -0.862531         44.0418
5.04                   -0.880007         41.8306
5.06                   -0.905521          39.548
5.08                    -0.93702         37.2672
5.1                    -0.963295         34.9808
5.12                   -0.984091          32.614
5.14                    -1.01014         30.1557
5.16                    -1.04399         27.6712
5.18                    -1.07593         25.1815
5.2                     -1.10155         22.6233
5.22                    -1.12951         19.9586
5.24                     -1.1661          17.236
5.26                    -1.20446         14.4985
5.28                    -1.23707         11.7023
5.3                     -1.26934         8.78952
5.32                    -1.31027         5.78447
5.34                    -1.35691         2.74414
5.36                    -1.40001       -0.349206
5.38                    -1.44087        -3.56406
5.4                     -1.48973        -6.90585
5.42                     -1.5484        -10.3138
5.44                    -1.60758         -13.775
5.46                    -1.66387        -17.3563
5.48                    -1.72685        -21.0961
5.5                     -1.80339        -24.9433
5.52                    -1.88629        -28.8527
5.54                    -1.96739        -32.8749
5.56                    -2.05304        -37.0803
5.58                    -2.15466        -41.4449
5.6                     -2.26977         -45.898
5.62                    -2.38648        -50.4568
5.64                    -2.50511         -55.216
5.66                    -2.63988        -60.2005
5.68                    -2.79616        -65.3314
5.7                     -2.96154        -70.5746
5.72                     -3.1278        -76.0271
5.74                    -3.30811        -81.7804
5.76                    -3.51833        -87.7789
5.78                    -3.75173        -93.9235
5.8                     -3.99031        -100.263
5.82                    -4.23784        -106.952
5.84                     -4.5186        -114.007
5.86                    -4.83891        -121.275
5.88                    -5.17248        -128.683
5.9                     -5.49842        -136.399
5.92                    -5.83426        -144.594
5.94                    -6.20307        -153.156
5.96                    -6.57979        -161.862
5.98                    -6.90574        -170.799
6                       -7.16194          179.64
6.02                    -7.38305         169.283
6.04                    -7.57576         158.372
6.06                    -7.67053         147.035
6.08                    -7.59821          134.81
6.1                     -7.38376         121.062
6.12                     -7.0984         105.657
6.14                    -6.75549         88.7113
6.16                    -6.33257          69.829
6.18                    -5.89544         48.0651
6.2                     -5.63369         22.7113
6.22                    -5.76011        -6.24719
6.24                    -6.40576        -38.3677
6.26                    -7.54657        -73.0163
6.28                    -8.89466        -109.205
6.3                     -9.79652        -145.173
6.32                    -9.51297        -179.326
6.34                    -8.01631         147.408
6.36                    -6.10481          113.02
6.38                    -4.58384         76.8765
6.4                      -3.9041         38.9947
6.42                    -4.30544        -1.17637
6.44                    -5.95009        -45.9787
6.46                       -8.59        -102.125
6.48                    -9.63888        -174.691
6.5                      -7.4101         122.609
