! TOUCHSTONE file generated by CST MICROWAVE STUDIO
! Date and time: Thu Oct 27 07:24:41 2022
! Project name: L.cst
! Parameters = {Di=1.27; Epsilon_r=1.56; InnerDiameter=1.27; Length=2; Lf=10; Lg=60; OuterConductorThickness=0.2921; OuterDiameter=3.6; Wf=3; Wp=41.2; de=1.5; df=6.8; g=0.8; gx=0.930435; gy=4.92745; h=2.34; hf=1.524; px=12.3189; py=11.922; w=9.7; wx=11.3885; wy=6.99456}
! Header version: 2018
! Port assignment regex: !\s*Touchstone port\s*([0-9]+)\s*=\s*(CST MWS port|CST DS port)\s*([0-9]+|Zmin|Zmax)\s*\(\"(.*)\"\)(\s*mode\s*([0-9]+))?.*
! Touchstone port assignment:
! Touchstone port 1 = CST MWS port 1 ("")
# GHz S DB R 50
4.5                     -1.41225         88.8158
4.52                    -1.48325         87.4295
4.54                    -1.53428         85.8437
4.56                    -1.60872         84.0564
4.58                    -1.72011         82.3193
4.6                     -1.83908         80.7885
4.62                    -1.93585         79.3384
4.64                    -2.01902         77.7561
4.66                    -2.12044           76.03
4.68                     -2.2517         74.3459
4.7                     -2.39147         72.8314
4.72                    -2.51604         71.4004
4.74                    -2.63059          69.887
4.76                    -2.75991         68.2754
4.78                    -2.91419          66.713
4.8                     -3.07653         65.3114
4.82                    -3.22643         64.0077
4.84                    -3.36666         62.6634
4.86                    -3.51758         61.2594
4.88                    -3.68812         59.9211
4.9                     -3.86329         58.7496
4.92                    -4.02376         57.6919
4.94                    -4.17064         56.6202
4.96                    -4.32163         55.5107
4.98                    -4.48454         54.4736
5                       -4.64475         53.5989
5.02                    -4.78327         52.8294
5.04                    -4.90072         52.0338
5.06                    -5.01409         51.1796
5.08                    -5.13095         50.3638
5.1                     -5.23717         49.6623
5.12                    -5.31501         49.0046
5.14                    -5.36677         48.2498
5.16                     -5.4111         47.3595
5.18                    -5.45703         46.4248
5.2                     -5.49212         45.5143
5.22                    -5.50082         44.5514
5.24                    -5.48804         43.3924
5.26                    -5.47502         41.9997
5.28                    -5.47323         40.4689
5.3                     -5.47197         38.8756
5.32                    -5.45651         37.1455
5.34                    -5.43294          35.126
5.36                    -5.42596          32.766
5.38                    -5.45209         30.1607
5.4                     -5.50401          27.396
5.42                     -5.5676         24.3883
5.44                    -5.65245         20.9286
5.46                    -5.79736         16.8888
5.48                    -6.04339         12.3211
5.5                     -6.41089         7.30819
5.52                    -6.91686         1.71541
5.54                    -7.63195        -4.86015
5.56                    -8.74104        -12.8169
5.58                    -10.6002        -22.1492
5.6                      -13.935        -31.9621
5.62                    -21.1506        -36.8892
5.64                    -26.7648         87.1684
5.66                    -15.7181         93.7857
5.68                    -11.4622         83.4168
5.7                     -9.27808         72.2826
5.72                     -8.1805         62.3006
5.74                     -7.7318         54.2906
5.76                    -7.63972         48.5617
5.78                    -7.68859         44.9111
5.8                     -7.75094         42.8163
5.82                     -7.7728         41.8411
5.84                    -7.71076         41.7651
5.86                    -7.50143         42.2479
5.88                    -7.11433         42.5936
5.9                     -6.60586         42.1223
5.92                    -6.07848         40.6747
5.94                     -5.5979         38.5673
5.96                    -5.16515         36.1581
5.98                     -4.7529         33.5311
6                       -4.35655         30.5534
6.02                    -4.00525         27.1718
6.04                    -3.72645         23.5769
6.06                    -3.50988         20.0521
6.08                    -3.31328         16.6827
6.1                     -3.10811         13.2584
6.12                    -2.91449         9.52788
6.14                     -2.7778          5.5302
6.16                    -2.71045         1.58429
6.18                    -2.66686        -2.09107
6.2                     -2.59034        -5.73101
6.22                    -2.49149        -9.86017
6.24                    -2.45476        -14.6849
6.26                     -2.5488        -19.8029
6.28                    -2.73982        -24.6556
6.3                     -2.91508          -29.41
6.32                    -3.05268         -35.316
6.34                    -3.37187        -43.6983
6.36                     -4.2843        -54.7066
6.38                    -6.34285        -66.9969
6.4                      -10.549        -76.3988
6.42                    -19.2739        -53.8309
6.44                    -14.7377         21.6864
6.46                    -9.35924         21.6414
6.48                    -7.08811         14.8744
6.5                     -5.95307         11.3533
