! TOUCHSTONE file generated by CST MICROWAVE STUDIO
! Date and time: Thu Oct 27 03:05:58 2022
! Project name: L.cst
! Parameters = {Di=1.27; Epsilon_r=1.56; InnerDiameter=1.27; Length=2; Lf=10; Lg=60; OuterConductorThickness=0.2921; OuterDiameter=3.6; Wf=3; Wp=41.2; de=1.5; df=6.8; g=0.8; gx=1.55163; gy=0.949475; h=2.34; hf=1.524; px=14.961; py=13.7057; w=9.7; wx=13.4093; wy=12.7563}
! Header version: 2018
! Port assignment regex: !\s*Touchstone port\s*([0-9]+)\s*=\s*(CST MWS port|CST DS port)\s*([0-9]+|Zmin|Zmax)\s*\(\"(.*)\"\)(\s*mode\s*([0-9]+))?.*
! Touchstone port assignment:
! Touchstone port 1 = CST MWS port 1 ("")
# GHz S DB R 50
4.5                     -8.37775         109.197
4.52                    -8.24248         108.392
4.54                    -8.10302         107.386
4.56                     -8.0254         106.137
4.58                    -7.97258         104.977
4.6                     -7.94294         103.557
4.62                    -7.97643         102.136
4.64                    -8.02705         100.723
4.66                    -8.13462         99.1413
4.68                    -8.29996         97.7126
4.7                     -8.50569         96.2536
4.72                    -8.80181         94.8836
4.74                    -9.16523         93.8403
4.76                    -9.61992         93.0257
4.78                     -10.195         92.9211
4.8                     -10.8563         93.8042
4.82                    -11.6217         96.1487
4.84                    -12.3834         100.926
4.86                    -12.9377         108.349
4.88                    -13.0171         118.072
4.9                     -12.3909         127.646
4.92                    -11.2626         134.434
4.94                    -9.94093         137.758
4.96                    -8.69058         137.978
4.98                    -7.64756         136.243
5                         -6.825         133.393
5.02                    -6.23164         130.071
5.04                    -5.82674          126.93
5.06                    -5.54813          124.28
5.08                    -5.33418         122.394
5.1                     -5.07978         121.256
5.12                    -4.72041         120.333
5.14                    -4.25494         119.072
5.16                    -3.73155         116.985
5.18                    -3.23879         114.013
5.2                     -2.81856          110.45
5.22                    -2.48334         106.495
5.24                     -2.2368         102.389
5.26                    -2.05608          98.264
5.28                    -1.93436         94.1104
5.3                     -1.86538         90.0057
5.32                      -1.836          85.911
5.34                    -1.85703          81.814
5.36                    -1.92444         77.8455
5.38                    -2.01062         74.0672
5.4                     -2.06909         70.1352
5.42                    -2.19363         65.6786
5.44                    -2.43551         61.1284
5.46                    -2.79611         57.1574
5.48                    -3.09306         54.5521
5.5                     -2.91215         51.3919
5.52                    -2.55485         41.9913
5.54                    -3.02424          24.557
5.56                     -6.0335        -5.53442
5.58                    -22.9572        -164.445
5.6                     -5.46397         97.4906
5.62                    -3.05898         66.3376
5.64                    -2.70783         43.2324
5.66                     -3.2202         19.2431
5.68                    -4.73829        -13.5498
5.7                     -7.51866        -70.7497
5.72                    -7.28158        -156.127
5.74                     -4.3803         147.831
5.76                    -2.90731          116.66
5.78                    -2.47191         96.1133
5.8                     -3.32738         86.6408
5.82                    -3.15788         74.6377
5.84                    -1.37348         75.8642
5.86                    -1.12909         65.2395
5.88                    -1.05141          56.533
5.9                     -1.09763         48.9951
5.92                     -1.1102         42.0293
5.94                     -1.1501         34.6814
5.96                     -1.2538         27.3053
5.98                    -1.33361         19.4313
6                       -1.48268         10.2525
6.02                    -1.75083      -0.0279522
6.04                    -2.11263          -12.59
6.06                     -3.4651        -28.2126
6.08                    -1.20492        -37.0885
6.1                     -1.88675        -74.8161
6.12                    -2.16614        -116.175
6.14                    -1.75942        -163.635
6.16                    -1.06396          153.07
6.18                   -0.585585         120.201
6.2                     -0.33837         96.7051
6.22                   -0.213781         79.3499
6.24                   -0.186428          65.966
6.26                   -0.185079         55.3769
6.28                   -0.179464         46.3918
6.3                    -0.207698         38.5885
6.32                   -0.222807         31.7865
6.34                   -0.230504         25.4253
6.36                   -0.263491         19.6019
6.38                   -0.268861          14.204
6.4                    -0.282436         8.88568
6.42                   -0.310104         3.95398
6.44                   -0.305156       -0.862472
6.46                   -0.327069        -5.67183
6.48                   -0.342015        -10.1469
6.5                    -0.333569        -14.7336
