! TOUCHSTONE file generated by CST MICROWAVE STUDIO
! Date and time: Sat Oct 29 17:33:16 2022
! Project name: L.cst
! Parameters = {Di=1.27; Epsilon_r=1.56; InnerDiameter=1.27; Length=2; Lf=10; Lg=60; OuterConductorThickness=0.2921; OuterDiameter=3.6; Wf=3; Wp=41.2; de=1.5; df=6.8; g=0.8; gx=4.63801; gy=3.09771; h=2.34; hf=1.524; px=9.76253; py=11.9794; w=9.7; wx=5.12452; wy=8.88165}
! Header version: 2018
! Port assignment regex: !\s*Touchstone port\s*([0-9]+)\s*=\s*(CST MWS port|CST DS port)\s*([0-9]+|Zmin|Zmax)\s*\(\"(.*)\"\)(\s*mode\s*([0-9]+))?.*
! Touchstone port assignment:
! Touchstone port 1 = CST MWS port 1 ("")
# GHz S DB R 50
4.5                    -0.318044         93.6377
4.52                   -0.325686         92.2304
4.54                   -0.333498         90.8096
4.56                   -0.341515         89.3753
4.58                   -0.349765         87.9273
4.6                    -0.358271         86.4656
4.62                   -0.367048           84.99
4.64                   -0.376106         83.5004
4.66                   -0.385455         81.9968
4.68                   -0.395093          80.479
4.7                    -0.405021         78.9468
4.72                   -0.415234         77.4001
4.74                   -0.425724         75.8387
4.76                   -0.436485         74.2625
4.78                   -0.447508         72.6711
4.8                    -0.458783         71.0644
4.82                     -0.4703         69.4421
4.84                   -0.482051         67.8039
4.86                   -0.494027         66.1497
4.88                    -0.50622         64.4791
4.9                    -0.518625         62.7917
4.92                   -0.531235         61.0874
4.94                   -0.544047         59.3658
4.96                   -0.557056         57.6266
4.98                   -0.570261         55.8696
5                      -0.583662         54.0945
5.02                   -0.597258         52.3009
5.04                    -0.61105         50.4886
5.06                    -0.62504         48.6574
5.08                   -0.639229          46.807
5.1                    -0.653621         44.9372
5.12                   -0.668217         43.0477
5.14                    -0.68302         41.1385
5.16                   -0.698034         39.2092
5.18                   -0.713258         37.2599
5.2                    -0.728694         35.2902
5.22                   -0.744343         33.3001
5.24                   -0.760205         31.2896
5.26                   -0.776279         29.2586
5.28                   -0.792562         27.2069
5.3                     -0.80905         25.1346
5.32                    -0.82574         23.0417
5.34                   -0.842623         20.9282
5.36                   -0.859695         18.7942
5.38                   -0.876944         16.6397
5.4                    -0.894362         14.4649
5.42                   -0.911939         12.2698
5.44                   -0.929658         10.0547
5.46                   -0.947509         7.81966
5.48                   -0.965475         5.56492
5.5                    -0.983541         3.29072
5.52                    -1.00169        0.997312
5.54                    -1.01991        -1.31502
5.56                    -1.03817        -3.64597
5.58                    -1.05645         -5.9952
5.6                     -1.07475        -8.36235
5.62                    -1.09304         -10.747
5.64                    -1.11129        -13.1488
5.66                    -1.12949        -15.5673
5.68                    -1.14762         -18.002
5.7                     -1.16567        -20.4525
5.72                     -1.1836        -22.9181
5.74                    -1.20141        -25.3985
5.76                    -1.21907         -27.893
5.78                    -1.23658        -30.4011
5.8                      -1.2539        -32.9222
5.82                    -1.27104        -35.4556
5.84                    -1.28798        -38.0009
5.86                    -1.30471        -40.5573
5.88                    -1.32121        -43.1241
5.9                     -1.33747        -45.7009
5.92                     -1.3535        -48.2868
5.94                    -1.36927        -50.8813
5.96                     -1.3848        -53.4837
5.98                    -1.40007        -56.0934
6                       -1.41509        -58.7096
6.02                    -1.42985        -61.3319
6.04                    -1.44435        -63.9595
6.06                    -1.45859         -66.592
6.08                    -1.47259        -69.2288
6.1                     -1.48634        -71.8692
6.12                    -1.49984         -74.513
6.14                    -1.51312        -77.1595
6.16                    -1.52616        -79.8085
6.18                      -1.539        -82.4595
6.2                     -1.55162        -85.1123
6.22                    -1.56406        -87.7667
6.24                    -1.57633        -90.4225
6.26                    -1.58844        -93.0796
6.28                    -1.60043        -95.7381
6.3                     -1.61231        -98.3981
6.32                    -1.62413         -101.06
6.34                    -1.63591        -103.723
6.36                    -1.64771        -106.389
6.38                    -1.65958        -109.058
6.4                     -1.67158         -111.73
6.42                    -1.68379        -114.406
6.44                     -1.6963        -117.086
6.46                    -1.70919        -119.773
6.48                    -1.72261        -122.466
6.5                     -1.73666        -125.167
