! TOUCHSTONE file generated by CST MICROWAVE STUDIO
! Date and time: Wed Oct 26 23:03:04 2022
! Project name: L.cst
! Parameters = {Di=1.27; Epsilon_r=1.56; InnerDiameter=1.27; Length=2; Lf=10; Lg=60; OuterConductorThickness=0.2921; OuterDiameter=3.6; Wf=3; Wp=41.2; de=1.5; df=6.8; g=0.8; gx=2.51555; gy=3.56164; h=2.34; hf=1.524; px=8.79564; py=12.5507; w=9.7; wx=6.2801; wy=8.98902}
! Header version: 2018
! Port assignment regex: !\s*Touchstone port\s*([0-9]+)\s*=\s*(CST MWS port|CST DS port)\s*([0-9]+|Zmin|Zmax)\s*\(\"(.*)\"\)(\s*mode\s*([0-9]+))?.*
! Touchstone port assignment:
! Touchstone port 1 = CST MWS port 1 ("")
# GHz S DB R 50
4.5                     -0.36373          91.432
4.52                   -0.373535         90.0125
4.54                   -0.383611         88.5826
4.56                   -0.393951         87.1424
4.58                   -0.404547         85.6918
4.6                    -0.415392         84.2306
4.62                   -0.426476         82.7587
4.64                   -0.437794          81.276
4.66                   -0.449336         79.7823
4.68                   -0.461097         78.2773
4.7                    -0.473072         76.7611
4.72                   -0.485256         75.2332
4.74                   -0.497648         73.6937
4.76                   -0.510245         72.1423
4.78                   -0.523049         70.5787
4.8                     -0.53606         69.0029
4.82                    -0.54928         67.4147
4.84                   -0.562713         65.8138
4.86                   -0.576364         64.2002
4.88                   -0.590236         62.5736
4.9                    -0.604333          60.934
4.92                   -0.618664         59.2812
4.94                   -0.633232         57.6152
4.96                   -0.648043         55.9357
4.98                   -0.663103         54.2428
5                      -0.678415         52.5363
5.02                   -0.693986         50.8161
5.04                   -0.709819         49.0823
5.06                   -0.725915         47.3348
5.08                    -0.74228         45.5736
5.1                    -0.758912         43.7986
5.12                   -0.775814         42.0099
5.14                   -0.792984         40.2075
5.16                   -0.810423         38.3913
5.18                   -0.828127         36.5615
5.2                    -0.846093         34.7181
5.22                   -0.864318         32.8611
5.24                   -0.882795         30.9907
5.26                   -0.901518         29.1069
5.28                   -0.920483         27.2098
5.3                     -0.93968         25.2994
5.32                   -0.959102          23.376
5.34                   -0.978739         21.4397
5.36                   -0.998582         19.4906
5.38                    -1.01862         17.5288
5.4                     -1.03885         15.5545
5.42                    -1.05925         13.5679
5.44                    -1.07981         11.5693
5.46                    -1.10053         9.55867
5.48                    -1.12139         7.53637
5.5                     -1.14238         5.50259
5.52                    -1.16349         3.45758
5.54                    -1.18471         1.40158
5.56                    -1.20602       -0.665141
5.58                    -1.22743        -2.74231
5.6                     -1.24891        -4.82964
5.62                    -1.27046        -6.92683
5.64                    -1.29206        -9.03357
5.66                    -1.31371        -11.1495
5.68                    -1.33541        -13.2744
5.7                     -1.35713        -15.4077
5.72                    -1.37887        -17.5493
5.74                    -1.40064        -19.6986
5.76                     -1.4224        -21.8553
5.78                    -1.44417        -24.0191
5.8                     -1.46593        -26.1895
5.82                    -1.48767        -28.3662
5.84                    -1.50939        -30.5487
5.86                    -1.53108        -32.7367
5.88                    -1.55272        -34.9296
5.9                     -1.57432        -37.1272
5.92                    -1.59586         -39.329
5.94                    -1.61733        -41.5346
5.96                    -1.63872        -43.7437
5.98                    -1.66001        -45.9559
6                       -1.68119        -48.1709
6.02                    -1.70225        -50.3883
6.04                    -1.72317        -52.6079
6.06                    -1.74392        -54.8295
6.08                     -1.7645        -57.0528
6.1                     -1.78489        -59.2777
6.12                    -1.80505        -61.5041
6.14                    -1.82497         -63.732
6.16                    -1.84462        -65.9616
6.18                      -1.864        -68.1928
6.2                     -1.88308        -70.4261
6.22                    -1.90184        -72.6617
6.24                    -1.92027        -74.9001
6.26                    -1.93838        -77.1419
6.28                    -1.95617        -79.3879
6.3                     -1.97365         -81.639
6.32                    -1.99086        -83.8961
6.34                    -2.00783        -86.1606
6.36                    -2.02464        -88.4337
6.38                    -2.04138         -90.717
6.4                     -2.05817        -93.0123
6.42                    -2.07516        -95.3214
6.44                    -2.09255        -97.6465
6.46                    -2.11057        -99.9897
6.48                     -2.1295        -102.354
6.5                     -2.14971         -104.74
