! TOUCHSTONE file generated by CST MICROWAVE STUDIO
! Date and time: Wed Oct 26 19:39:47 2022
! Project name: L.cst
! Parameters = {Di=1.27; Epsilon_r=1.56; InnerDiameter=1.27; Length=2; Lf=10; Lg=60; OuterConductorThickness=0.2921; OuterDiameter=3.6; Wf=3; Wp=41.2; de=1.5; df=6.8; g=0.8; gx=1.32645; gy=1.43918; h=2.34; hf=1.524; px=12.3661; py=11.1995; w=9.7; wx=11.0396; wy=9.76028}
! Header version: 2018
! Port assignment regex: !\s*Touchstone port\s*([0-9]+)\s*=\s*(CST MWS port|CST DS port)\s*([0-9]+|Zmin|Zmax)\s*\(\"(.*)\"\)(\s*mode\s*([0-9]+))?.*
! Touchstone port assignment:
! Touchstone port 1 = CST MWS port 1 ("")
# GHz S DB R 50
4.5                     -4.68686          46.346
4.52                    -5.02462           43.85
4.54                    -5.38641         41.3003
4.56                    -5.77906          38.717
4.58                    -6.20645         36.1401
4.6                     -6.66852         33.6102
4.62                    -7.16252         31.1505
4.64                    -7.68581         28.7599
4.66                    -8.23868         26.4197
4.68                     -8.8256         24.1125
4.7                     -9.45428         21.8405
4.72                    -10.1331         19.6347
4.74                    -10.8686         17.5505
4.76                    -11.6637         15.6521
4.78                    -12.5195         13.9957
4.8                     -13.4367         12.6217
4.82                    -14.4205         11.5635
4.84                    -15.4817         10.8752
4.86                    -16.6367         10.6714
4.88                    -17.9027         11.1668
4.9                     -19.2899         12.7089
4.92                    -20.7885         15.7953
4.94                    -22.3486         21.0583
4.96                    -23.8499         29.1404
4.98                    -25.0758         40.2949
5                       -25.7598         53.6828
5.02                    -25.7634         67.1733
5.04                    -25.2095          78.578
5.06                    -24.3628         86.9541
5.08                    -23.4473         92.4837
5.1                     -22.5932         95.7788
5.12                    -21.8596         97.4669
5.14                    -21.2643         98.0562
5.16                    -20.8035         97.9111
5.18                    -20.4652         97.2622
5.2                     -20.2381         96.2321
5.22                    -20.1172         94.8708
5.24                    -20.1069         93.1978
5.26                    -20.2203          91.237
5.28                    -20.4769         89.0346
5.3                     -20.9015         86.6586
5.32                    -21.5262         84.1853
5.34                    -22.3982         81.6845
5.36                    -23.5975         79.2183
5.38                    -25.2769         76.8793
5.4                     -27.7663         74.9444
5.42                    -31.9604         74.6554
5.44                    -42.1805         90.2931
5.46                    -37.0353        -136.119
5.48                     -28.709        -131.215
5.5                     -24.1743        -133.455
5.52                     -20.997        -137.168
5.54                    -18.5364        -141.508
5.56                    -16.5298        -146.219
5.58                    -14.8457        -151.198
5.6                     -13.4114        -156.389
5.62                    -12.1857        -161.741
5.64                    -11.1437        -167.182
5.66                    -10.2689        -172.612
5.68                      -9.546          -177.9
5.7                     -8.95613         177.103
5.72                    -8.47277         172.542
5.74                    -8.06024         168.519
5.76                    -7.67583         165.048
5.78                     -7.2774         162.016
5.8                     -6.83514          159.19
5.82                    -6.34168         156.271
5.84                    -5.81354         153.001
5.86                    -5.28256         149.229
5.88                    -4.78323          144.94
5.9                     -4.34278         140.221
5.92                    -3.97673          135.21
5.94                    -3.68879         130.054
5.96                    -3.47344         124.874
5.98                    -3.31969         119.748
6                       -3.21525         114.704
6.02                    -3.15001         109.731
6.04                    -3.11808         104.797
6.06                    -3.11765         99.8676
6.08                    -3.14926         94.9189
6.1                     -3.21341         89.9369
6.12                     -3.3092         84.9053
6.14                    -3.43487         79.7884
6.16                    -3.59041         74.5199
6.18                    -3.78108         69.0049
6.2                     -4.02023         63.1373
6.22                       -4.33         56.8226
6.24                    -4.73999         49.9959
6.26                      -5.285         42.6231
6.28                    -6.00411         34.6827
6.3                     -6.94261         26.1276
6.32                    -8.15901         16.8188
6.34                    -9.74028         6.39927
6.36                    -11.8306        -6.00932
6.38                     -14.672        -22.7653
6.4                     -18.4441        -51.3012
6.42                    -20.6765        -106.438
6.44                    -17.2868        -156.367
6.46                    -13.4289         177.574
6.48                    -10.5763         160.362
6.5                     -8.49316         146.342
