! TOUCHSTONE file generated by CST MICROWAVE STUDIO
! Date and time: Fri Oct 28 00:16:52 2022
! Project name: L.cst
! Parameters = {Di=1.27; Epsilon_r=1.56; InnerDiameter=1.27; Length=2; Lf=10; Lg=60; OuterConductorThickness=0.2921; OuterDiameter=3.6; Wf=3; Wp=41.2; de=1.5; df=6.8; g=0.8; gx=2.79254; gy=2.5684; h=2.34; hf=1.524; px=10.5009; py=8.36594; w=9.7; wx=7.70831; wy=5.79754}
! Header version: 2018
! Port assignment regex: !\s*Touchstone port\s*([0-9]+)\s*=\s*(CST MWS port|CST DS port)\s*([0-9]+|Zmin|Zmax)\s*\(\"(.*)\"\)(\s*mode\s*([0-9]+))?.*
! Touchstone port assignment:
! Touchstone port 1 = CST MWS port 1 ("")
# GHz S DB R 50
4.5                    -0.496483         85.9145
4.52                   -0.512768         84.3368
4.54                   -0.529863         82.7423
4.56                   -0.547749         81.1313
4.58                   -0.566398         79.5036
4.6                     -0.58578         77.8592
4.62                   -0.605861         76.1979
4.64                    -0.62661         74.5195
4.66                   -0.647994         72.8236
4.68                   -0.669985           71.11
4.7                     -0.69256         69.3782
4.72                   -0.715697         67.6279
4.74                   -0.739381         65.8585
4.76                   -0.763603         64.0698
4.78                   -0.788358         62.2612
4.8                    -0.813645         60.4322
4.82                   -0.839468         58.5826
4.84                   -0.865837         56.7117
4.86                    -0.89276         54.8194
4.88                   -0.920252         52.9052
4.9                     -0.94833         50.9688
4.92                   -0.977009         49.0099
4.94                    -1.00631         47.0284
4.96                    -1.03624         45.0239
4.98                    -1.06682         42.9965
5                       -1.09807         40.9459
5.02                       -1.13         38.8721
5.04                    -1.16261         36.7751
5.06                    -1.19592         34.6551
5.08                    -1.22992         32.5119
5.1                     -1.26461         30.3459
5.12                    -1.29998         28.1571
5.14                    -1.33603         25.9458
5.16                    -1.37274         23.7124
5.18                    -1.41009          21.457
5.2                     -1.44806         19.1802
5.22                    -1.48661         16.8823
5.24                    -1.52572         14.5637
5.26                    -1.56534         12.2251
5.28                    -1.60543         9.86688
5.3                     -1.64595         7.48968
5.32                    -1.68684         5.09416
5.34                    -1.72806           2.681
5.36                    -1.76955        0.250937
5.38                    -1.81124        -2.19526
5.4                     -1.85308        -4.65676
5.42                    -1.89501        -7.13271
5.44                    -1.93696        -9.62219
5.46                    -1.97887        -12.1243
5.48                    -2.02068         -14.638
5.5                     -2.06231        -17.1622
5.52                    -2.10371         -19.696
5.54                    -2.14481        -22.2381
5.56                    -2.18555        -24.7875
5.58                    -2.22586         -27.343
5.6                      -2.2657        -29.9033
5.62                      -2.305        -32.4673
5.64                    -2.34372        -35.0337
5.66                     -2.3818        -37.6011
5.68                    -2.41919        -40.1684
5.7                     -2.45585        -42.7342
5.72                    -2.49173        -45.2972
5.74                    -2.52681        -47.8561
5.76                    -2.56105        -50.4094
5.78                    -2.59441        -52.9561
5.8                     -2.62687        -55.4947
5.82                     -2.6584         -58.024
5.84                    -2.68899        -60.5427
5.86                     -2.7186        -63.0496
5.88                    -2.74723        -65.5436
5.9                     -2.77485        -68.0234
5.92                    -2.80146         -70.488
5.94                    -2.82705        -72.9363
5.96                     -2.8516        -75.3673
5.98                    -2.87512        -77.7802
6                       -2.89758         -80.174
6.02                    -2.91899         -82.548
6.04                    -2.93935        -84.9014
6.06                    -2.95865        -87.2337
6.08                     -2.9769        -89.5443
6.1                      -2.9941        -91.8328
6.12                    -3.01026        -94.0987
6.14                    -3.02539        -96.3418
6.16                     -3.0395         -98.562
6.18                    -3.05261        -100.759
6.2                     -3.06475        -102.933
6.22                    -3.07595        -105.084
6.24                    -3.08624        -107.211
6.26                    -3.09569        -109.316
6.28                    -3.10433        -111.398
6.3                     -3.11223        -113.458
6.32                    -3.11947        -115.496
6.34                    -3.12614        -117.513
6.36                    -3.13232        -119.507
6.38                    -3.13812        -121.481
6.4                     -3.14365        -123.434
6.42                    -3.14902        -125.366
6.44                    -3.15437        -127.277
6.46                    -3.15983        -129.168
6.48                    -3.16551        -131.038
6.5                     -3.17154        -132.888
