! TOUCHSTONE file generated by CST MICROWAVE STUDIO
! Date and time: Fri Oct 28 06:27:31 2022
! Project name: L.cst
! Parameters = {Di=1.27; Epsilon_r=1.56; InnerDiameter=1.27; Length=2; Lf=10; Lg=60; OuterConductorThickness=0.2921; OuterDiameter=3.6; Wf=3; Wp=41.2; de=1.5; df=6.8; g=0.8; gx=2.3494; gy=0.95274; h=2.34; hf=1.524; px=10.4081; py=10.9343; w=9.7; wx=8.05867; wy=9.98159}
! Header version: 2018
! Port assignment regex: !\s*Touchstone port\s*([0-9]+)\s*=\s*(CST MWS port|CST DS port)\s*([0-9]+|Zmin|Zmax)\s*\(\"(.*)\"\)(\s*mode\s*([0-9]+))?.*
! Touchstone port assignment:
! Touchstone port 1 = CST MWS port 1 ("")
# GHz S DB R 50
4.5                    -0.853746         64.6248
4.52                   -0.901601         62.5196
4.54                   -0.951754         60.3985
4.56                    -1.00306         58.2584
4.58                    -1.05459         56.0941
4.6                     -1.10567         53.8989
4.62                    -1.15592         51.6652
4.64                    -1.20525         49.3853
4.66                    -1.25385         47.0519
4.68                    -1.30209         44.6583
4.7                     -1.35052         42.1991
4.72                    -1.39979         39.6699
4.74                    -1.45054         37.0678
4.76                    -1.50341         34.3909
4.78                    -1.55894         31.6383
4.8                     -1.61756           28.81
4.82                    -1.67957         25.9062
4.84                    -1.74512         22.9278
4.86                    -1.81422         19.8753
4.88                    -1.88674         16.7492
4.9                     -1.96244         13.5497
4.92                    -2.04099         10.2762
4.94                      -2.122         6.92798
4.96                    -2.20502         3.50357
4.98                    -2.28962      0.00112625
5                       -2.37537        -3.58155
5.02                    -2.46184        -7.24684
5.04                    -2.54868        -10.9972
5.06                    -2.63558        -14.8347
5.08                    -2.72229        -18.7612
5.1                     -2.80858        -22.7779
5.12                    -2.89432        -26.8852
5.14                    -2.97938        -31.0826
5.16                    -3.06366        -35.3682
5.18                    -3.14709        -39.7391
5.2                      -3.2296        -44.1912
5.22                     -3.3111        -48.7188
5.24                    -3.39149        -53.3151
5.26                    -3.47067        -57.9718
5.28                    -3.54847        -62.6797
5.3                     -3.62473        -67.4284
5.32                    -3.69924        -72.2065
5.34                    -3.77174        -77.0019
5.36                    -3.84196        -81.8022
5.38                    -3.90959        -86.5946
5.4                     -3.97426        -91.3663
5.42                    -4.03558         -96.105
5.44                    -4.09312        -100.799
5.46                    -4.14641        -105.437
5.48                    -4.19495        -110.011
5.5                     -4.23822        -114.511
5.52                     -4.2757        -118.932
5.54                    -4.30689         -123.27
5.56                    -4.33134        -127.522
5.58                     -4.3487        -131.688
5.6                     -4.35873        -135.772
5.62                     -4.3614        -139.777
5.64                    -4.35689        -143.709
5.66                    -4.34565        -147.576
5.68                    -4.32841        -151.386
5.7                     -4.30623        -155.148
5.72                    -4.28046         -158.87
5.74                    -4.25277        -162.561
5.76                    -4.22507        -166.226
5.78                     -4.1995        -169.872
5.8                     -4.17836        -173.501
5.82                    -4.16406        -177.113
5.84                    -4.15902         179.294
5.86                    -4.16564         175.725
5.88                     -4.1862         172.189
5.9                     -4.22278         168.696
5.92                    -4.27723         165.262
5.94                    -4.35099         161.904
5.96                    -4.44509         158.644
5.98                    -4.55994         155.505
6                       -4.69524         152.514
6.02                    -4.84976         149.701
6.04                    -5.02113         147.097
6.06                    -5.20567         144.732
6.08                    -5.39808         142.637
6.1                     -5.59138         140.834
6.12                    -5.77683         139.338
6.14                    -5.94421         138.149
6.16                    -6.08245         137.248
6.18                    -6.18068         136.589
6.2                     -6.22964         136.106
6.22                     -6.2232         135.711
6.24                    -6.15956         135.304
6.26                    -6.04174         134.783
6.28                    -5.87719         134.062
6.3                     -5.67667         133.073
6.32                    -5.45271         131.775
6.34                     -5.2182         130.153
6.36                    -4.98521         128.214
6.38                    -4.76435         125.981
6.4                     -4.56436         123.493
6.42                    -4.39206         120.795
6.44                    -4.25236         117.938
6.46                    -4.14837         114.979
6.48                    -4.08135         111.974
6.5                     -4.05072         108.984
