! TOUCHSTONE file generated by CST MICROWAVE STUDIO
! Date and time: Fri Oct 28 10:22:18 2022
! Project name: L.cst
! Parameters = {Di=1.27; Epsilon_r=1.56; InnerDiameter=1.27; Length=2; Lf=10; Lg=60; OuterConductorThickness=0.2921; OuterDiameter=3.6; Wf=3; Wp=41.2; de=1.5; df=6.8; g=0.8; gx=4.60432; gy=3.7609; h=2.34; hf=1.524; px=11.079; py=9.62008; w=9.7; wx=6.47464; wy=5.85918}
! Header version: 2018
! Port assignment regex: !\s*Touchstone port\s*([0-9]+)\s*=\s*(CST MWS port|CST DS port)\s*([0-9]+|Zmin|Zmax)\s*\(\"(.*)\"\)(\s*mode\s*([0-9]+))?.*
! Touchstone port assignment:
! Touchstone port 1 = CST MWS port 1 ("")
# GHz S DB R 50
4.5                    -0.329499         96.4015
4.52                   -0.338248         94.9693
4.54                   -0.347263         93.5252
4.56                   -0.356558         92.0694
4.58                   -0.366135         90.6016
4.6                    -0.375995         89.1219
4.62                    -0.38614         87.6302
4.64                   -0.396565         86.1265
4.66                   -0.407263         84.6105
4.68                   -0.418228         83.0823
4.7                    -0.429453         81.5416
4.72                   -0.440929         79.9884
4.74                   -0.452651         78.4225
4.76                   -0.464609         76.8438
4.78                   -0.476798         75.2521
4.8                    -0.489214         73.6471
4.82                   -0.501851         72.0289
4.84                   -0.514707         70.3972
4.86                   -0.527778         68.7518
4.88                   -0.541066         67.0927
4.9                    -0.554569         65.4196
4.92                   -0.568291         63.7325
4.94                    -0.58223         62.0312
4.96                    -0.59639         60.3156
4.98                   -0.610773         58.5857
5                      -0.625383         56.8413
5.02                   -0.640224         55.0825
5.04                   -0.655297         53.3092
5.06                   -0.670607         51.5214
5.08                   -0.686155          49.719
5.1                    -0.701943         47.9023
5.12                   -0.717973         46.0711
5.14                   -0.734245         44.2255
5.16                   -0.750758         42.3657
5.18                   -0.767511         40.4918
5.2                    -0.784501          38.604
5.22                   -0.801723         36.7023
5.24                   -0.819175          34.787
5.26                   -0.836847         32.8583
5.28                   -0.854733         30.9164
5.3                    -0.872826         28.9616
5.32                   -0.891114         26.9941
5.34                   -0.909586         25.0142
5.36                   -0.928232         23.0223
5.38                   -0.947036         21.0188
5.4                    -0.965984         19.0039
5.42                   -0.985062          16.978
5.44                    -1.00425         14.9416
5.46                    -1.02354         12.8951
5.48                    -1.04291         10.8388
5.5                     -1.06233         8.77341
5.52                     -1.0818         6.69924
5.54                    -1.10129         4.61685
5.56                    -1.12078         2.52674
5.58                    -1.14026        0.429464
5.6                     -1.15969        -1.67443
5.62                    -1.17908        -3.78436
5.64                    -1.19838        -5.89974
5.66                    -1.21759        -8.01998
5.68                    -1.23668        -10.1444
5.7                     -1.25563        -12.2725
5.72                    -1.27443        -14.4035
5.74                    -1.29305        -16.5368
5.76                    -1.31147        -18.6717
5.78                    -1.32968        -20.8076
5.8                     -1.34765        -22.9439
5.82                    -1.36538        -25.0797
5.84                    -1.38283        -27.2144
5.86                    -1.39999        -29.3474
5.88                    -1.41685        -31.4779
5.9                     -1.43337        -33.6053
5.92                    -1.44956        -35.7289
5.94                    -1.46538         -37.848
5.96                    -1.48082         -39.962
5.98                    -1.49587        -42.0703
6                       -1.51049        -44.1721
6.02                    -1.52469         -46.267
6.04                    -1.53843        -48.3542
6.06                    -1.55171        -50.4334
6.08                     -1.5645        -52.5038
6.1                     -1.57678        -54.5651
6.12                    -1.58855        -56.6166
6.14                    -1.59978        -58.6581
6.16                    -1.61047        -60.6891
6.18                     -1.6206        -62.7091
6.2                     -1.63015         -64.718
6.22                    -1.63913        -66.7153
6.24                    -1.64752        -68.7008
6.26                    -1.65532        -70.6743
6.28                    -1.66254        -72.6357
6.3                     -1.66917        -74.5847
6.32                    -1.67522        -76.5213
6.34                    -1.68071        -78.4454
6.36                    -1.68566        -80.3569
6.38                    -1.69009        -82.2558
6.4                     -1.69404        -84.1421
6.42                    -1.69753        -86.0158
6.44                    -1.70061        -87.8768
6.46                    -1.70333        -89.7251
6.48                    -1.70574        -91.5607
6.5                     -1.70789        -93.3835
