! TOUCHSTONE file generated by CST MICROWAVE STUDIO
! Date and time: Thu Oct 27 01:43:42 2022
! Project name: L.cst
! Parameters = {Di=1.27; Epsilon_r=1.56; InnerDiameter=1.27; Length=2; Lf=10; Lg=60; OuterConductorThickness=0.2921; OuterDiameter=3.6; Wf=3; Wp=41.2; de=1.5; df=6.8; g=0.8; gx=1.04835; gy=4.09888; h=2.34; hf=1.524; px=14.7177; py=11.2682; w=9.7; wx=13.6694; wy=7.1693}
! Header version: 2018
! Port assignment regex: !\s*Touchstone port\s*([0-9]+)\s*=\s*(CST MWS port|CST DS port)\s*([0-9]+|Zmin|Zmax)\s*\(\"(.*)\"\)(\s*mode\s*([0-9]+))?.*
! Touchstone port assignment:
! Touchstone port 1 = CST MWS port 1 ("")
# GHz S DB R 50
4.5                     -4.86575          100.35
4.52                    -4.81883         100.568
4.54                    -4.70956         100.494
4.56                    -4.61977         100.115
4.58                    -4.50295         99.7206
4.6                     -4.37369         98.8931
4.62                    -4.26912         97.9601
4.64                    -4.14077          96.835
4.66                    -4.03693         95.3716
4.68                    -3.94418          93.862
4.7                     -3.84912          92.041
4.72                    -3.79114         90.0211
4.74                    -3.73675         87.8682
4.76                    -3.70726         85.3616
4.78                    -3.71509         82.6949
4.8                     -3.73912          79.718
4.82                    -3.81785         76.3409
4.84                    -3.94699         72.6491
4.86                    -4.14068         68.3518
4.88                    -4.45226         63.3943
4.9                      -4.9072         57.5716
4.92                    -5.61408         50.3458
4.94                    -6.77056         41.2275
4.96                    -8.78275         28.8408
4.98                    -12.9381         9.14914
5                       -23.8112        -65.5406
5.02                    -12.8826        -177.666
5.04                     -7.2212         152.338
5.06                    -5.02358         130.327
5.08                    -4.49488         114.011
5.1                     -4.87738         103.187
5.12                    -5.73298           98.33
5.14                    -6.48084          100.11
5.16                    -6.42055          105.54
5.18                    -5.60436         109.084
5.2                     -4.58608         108.993
5.22                    -3.71003         106.347
5.24                      -3.055         102.598
5.26                    -2.57744         98.4871
5.28                    -2.25812         94.3812
5.3                     -2.03836         90.8506
5.32                    -1.77606         87.5643
5.34                    -1.55001         83.8179
5.36                    -1.39252         80.0648
5.38                    -1.27877         76.3432
5.4                     -1.20153         72.7099
5.42                      -1.137           69.09
5.44                    -1.09607          65.351
5.46                    -1.07649           61.52
5.48                    -1.07434         57.3661
5.5                     -1.13617         52.6779
5.52                    -1.38707         47.3112
5.54                    -1.88289           45.59
5.56                    -1.46026          40.541
5.58                    -1.52774         31.0409
5.6                     -1.98728         17.1358
5.62                    -3.34589        -8.43129
5.64                    -7.45847        -77.6002
5.66                    -4.68944         155.327
5.68                    -1.66663         105.666
5.7                    -0.890101         84.1396
5.72                   -0.626647         72.1247
5.74                   -0.501083         63.9665
5.76                   -0.456967         57.8308
5.78                   -0.413148         52.9617
5.8                    -0.382862         48.5354
5.82                   -0.390507         44.7624
5.84                   -0.344747         41.2335
5.86                   -0.362557         37.4278
5.88                   -0.397078           34.15
5.9                    -0.456487         27.1931
5.92                   -0.494967         37.1503
5.94                    -0.33707         29.3214
5.96                   -0.321258         26.4941
5.98                    -0.25689         23.3222
6                       -0.29519         20.5814
6.02                   -0.259235         18.1897
6.04                   -0.248778         15.4283
6.06                   -0.263803         13.0975
6.08                   -0.226301         10.6571
6.1                    -0.238758         8.12174
6.12                   -0.229646          5.9084
6.14                   -0.206124         3.41264
6.16                   -0.223494         1.08109
6.18                    -0.19709        -1.16107
6.2                    -0.194612        -3.64104
6.22                   -0.201036        -5.82336
6.24                   -0.171477        -8.16563
6.26                   -0.186235        -10.5402
6.28                   -0.173041        -12.6751
6.3                    -0.156422        -15.1038
6.32                   -0.174685        -17.3192
6.34                   -0.145216        -19.5219
6.36                   -0.151264        -21.9463
6.38                   -0.155494        -24.0282
6.4                    -0.125259        -26.3688
6.42                   -0.150213        -28.6665
6.44                   -0.129516        -30.7272
6.46                   -0.119083        -33.1764
6.48                   -0.144451          -35.27
6.5                    -0.104385        -37.4579
