! TOUCHSTONE file generated by CST MICROWAVE STUDIO
! Date and time: Wed Oct 26 20:03:36 2022
! Project name: L.cst
! Parameters = {Di=1.27; Epsilon_r=1.56; InnerDiameter=1.27; Length=2; Lf=10; Lg=60; OuterConductorThickness=0.2921; OuterDiameter=3.6; Wf=3; Wp=41.2; de=1.5; df=6.8; g=0.8; gx=3.85838; gy=0.7171; h=2.34; hf=1.524; px=8.95087; py=13.8044; w=9.7; wx=5.09249; wy=13.0873}
! Header version: 2018
! Port assignment regex: !\s*Touchstone port\s*([0-9]+)\s*=\s*(CST MWS port|CST DS port)\s*([0-9]+|Zmin|Zmax)\s*\(\"(.*)\"\)(\s*mode\s*([0-9]+))?.*
! Touchstone port assignment:
! Touchstone port 1 = CST MWS port 1 ("")
# GHz S DB R 50
4.5                    -0.725596         67.4114
4.52                   -0.789664         65.1169
4.54                   -0.767103         63.2609
4.56                   -0.850581         61.2549
4.58                   -0.842374         58.9446
4.6                    -0.889134         57.0765
4.62                   -0.929262         54.5761
4.64                   -0.931422         52.4962
4.66                    -0.99907         50.0719
4.68                   -0.991635         47.5773
4.7                     -1.04218         45.2202
4.72                    -1.05837         42.3768
4.74                    -1.06837         39.8261
4.76                    -1.10649         36.7942
4.78                    -1.08856         33.7585
4.8                      -1.1197         30.5323
4.82                    -1.10269         26.8546
4.84                    -1.10433         23.1622
4.86                    -1.10813          18.769
4.88                    -1.09091         14.1774
4.9                     -1.12439         8.89227
4.92                    -1.13542         2.94917
4.94                    -1.22114        -3.65208
4.96                    -1.33997        -11.4197
4.98                    -1.55591         -20.034
5                       -1.91933         -30.239
5.02                    -2.46103        -41.7343
5.04                    -3.34426         -55.051
5.06                     -4.6051        -70.0366
5.08                    -6.50292        -86.6453
5.1                      -9.0924        -105.314
5.12                    -12.7586         -126.56
5.14                    -17.6471         -157.03
5.16                    -22.7114         147.418
5.18                    -21.0198         83.4146
5.2                     -18.2265         50.9021
5.22                    -16.3387         29.9306
5.24                     -15.544         12.8453
5.26                    -15.1465        -4.37835
5.28                    -15.2704         -21.576
5.3                     -15.5095        -42.3546
5.32                    -15.7399        -64.9858
5.34                     -15.529        -92.2399
5.36                     -14.599        -118.669
5.38                     -13.133        -144.387
5.4                     -11.3687        -165.525
5.42                    -9.74319         175.233
5.44                     -8.1943         158.733
5.46                    -7.01278         143.117
5.48                    -5.97186         128.369
5.5                     -5.37201         114.003
5.52                    -5.08477         98.7414
5.54                    -5.73582         83.2259
5.56                     -8.9367         68.7493
5.58                    -11.2502         119.749
5.6                     -4.13395         115.324
5.62                    -2.09665         94.7448
5.64                    -1.40258         79.8623
5.66                    -1.11606         67.4629
5.68                   -0.940928         57.1031
5.7                    -0.898496         47.2037
5.72                   -0.825886         37.9806
5.74                   -0.905781         28.7052
5.76                   -0.905294         18.8598
5.78                    -1.11244         8.87707
5.8                     -1.37595        -4.29892
5.82                    -2.12435        -19.2983
5.84                    -5.95962        -47.8692
5.86                     -9.9399         32.3518
5.88                    -2.17994         2.79314
5.9                     -1.67898        -23.8452
5.92                    -1.43157        -48.8348
5.94                     -1.8124        -78.2246
5.96                    -2.00016        -119.693
5.98                     -2.2319        -174.428
6                       -1.70893         128.469
6.02                    -1.36024         83.5406
6.04                    -1.03935         52.4366
6.06                    -1.04016         29.1759
6.08                   -0.948231         10.8573
6.1                     -1.06088        -4.99306
6.12                    -1.04346        -20.1027
6.14                    -1.16432        -34.4683
6.16                    -1.20915        -50.4397
6.18                    -1.30011        -67.0472
6.2                     -1.39761        -87.4863
6.22                    -1.43868        -111.264
6.24                    -1.51604        -142.676
6.26                    -1.43055          177.07
6.28                     -1.2891         122.687
6.3                     -1.05767         53.8969
6.32                   -0.775007        -28.3857
6.34                   -0.577151        -110.159
6.36                   -0.384724        -174.597
6.38                   -0.346421         139.218
6.4                    -0.400766         107.584
6.42                   -0.470282         83.3314
6.44                   -0.525851         65.8017
6.46                     -0.6552         50.6422
6.48                    -0.63432         39.0953
6.5                    -0.818014         28.6534
