! TOUCHSTONE file generated by CST MICROWAVE STUDIO
! Date and time: Sat Oct 29 09:35:37 2022
! Project name: L.cst
! Parameters = {Di=1.27; Epsilon_r=1.56; InnerDiameter=1.27; Length=2; Lf=10; Lg=60; OuterConductorThickness=0.2921; OuterDiameter=3.6; Wf=3; Wp=41.2; de=1.5; df=6.8; g=0.8; gx=2.01869; gy=1.0078; h=2.34; hf=1.524; px=10.809; py=11.6868; w=9.7; wx=8.79036; wy=10.679}
! Header version: 2018
! Port assignment regex: !\s*Touchstone port\s*([0-9]+)\s*=\s*(CST MWS port|CST DS port)\s*([0-9]+|Zmin|Zmax)\s*\(\"(.*)\"\)(\s*mode\s*([0-9]+))?.*
! Touchstone port assignment:
! Touchstone port 1 = CST MWS port 1 ("")
# GHz S DB R 50
4.5                     -1.15735         61.3846
4.52                    -1.21966         59.2096
4.54                     -1.2833          57.019
4.56                    -1.34632          54.801
4.58                    -1.40794         52.5393
4.6                     -1.46858         50.2176
4.62                    -1.52965         47.8235
4.64                    -1.59302         45.3504
4.66                    -1.66054         42.7985
4.68                     -1.7335         40.1723
4.7                     -1.81245         37.4789
4.72                    -1.89718         34.7247
4.74                    -1.98684         31.9133
4.76                    -2.08032         29.0438
4.78                    -2.17657         26.1111
4.8                     -2.27489         23.1069
4.82                    -2.37511          20.021
4.84                    -2.47757          16.844
4.86                    -2.58304         13.5681
4.88                    -2.69243          10.189
4.9                     -2.80659         6.70519
4.92                    -2.92602         3.11765
4.94                    -3.05084       -0.571349
4.96                    -3.18067        -4.35972
4.98                    -3.31479        -8.24666
5                       -3.45226        -12.2333
5.02                     -3.5921         -16.323
5.04                    -3.73349        -20.5201
5.06                    -3.87584        -24.8298
5.08                    -4.01885         -29.256
5.1                     -4.16242        -33.8004
5.12                    -4.30652        -38.4618
5.14                    -4.45106        -43.2351
5.16                    -4.59568         -48.112
5.18                    -4.73967        -53.0814
5.2                     -4.88187        -58.1301
5.22                    -5.02072        -63.2441
5.24                    -5.15436        -68.4097
5.26                    -5.28074         -73.614
5.28                    -5.39787        -78.8458
5.3                     -5.50391         -84.095
5.32                    -5.59741        -89.3528
5.34                    -5.67733        -94.6111
5.36                    -5.74307        -99.8621
5.38                    -5.79447        -105.098
5.4                     -5.83172        -110.312
5.42                    -5.85525        -115.496
5.44                    -5.86574        -120.646
5.46                    -5.86414        -125.758
5.48                    -5.85169        -130.831
5.5                     -5.83014        -135.869
5.52                    -5.80184        -140.875
5.54                    -5.76993        -145.854
5.56                     -5.7383        -150.811
5.58                     -5.7116        -155.746
5.6                     -5.69502        -160.653
5.62                     -5.6939        -165.519
5.64                     -5.7134        -170.322
5.66                    -5.75795        -175.029
5.68                    -5.83072        -179.568
5.7                     -5.93311         176.017
5.72                    -6.06424         171.873
5.74                    -6.22051         168.023
5.76                     -6.3953         164.517
5.78                    -6.57907         161.393
5.8                     -6.75982         158.668
5.82                    -6.92421         156.333
5.84                    -7.05932         154.347
5.86                    -7.15469         152.641
5.88                    -7.20403         151.127
5.9                     -7.20608          149.71
5.92                    -7.16405         148.309
5.94                     -7.0841          146.86
5.96                    -6.97328         145.324
5.98                    -6.83788         143.681
6                       -6.68261         141.918
6.02                    -6.51069         140.026
6.04                    -6.32475         137.988
6.06                    -6.12804          135.78
6.08                    -5.92545         133.375
6.1                     -5.72406         130.754
6.12                     -5.5328          127.91
6.14                    -5.36155         124.857
6.16                     -5.2197         121.636
6.18                    -5.11458         118.312
6.2                     -5.04983         114.971
6.22                    -5.02379         111.716
6.24                    -5.02817         108.648
6.26                    -5.04714         105.853
6.28                    -5.05765         103.373
6.3                     -5.03198         101.183
6.32                    -4.94311         99.1667
6.34                    -4.77234         97.1195
6.36                    -4.51593          94.787
6.38                    -4.18725         91.9217
6.4                     -3.81313         88.3378
6.42                    -3.42668          83.936
6.44                    -3.06052         78.6984
6.46                    -2.74261         72.6647
6.48                    -2.49485         65.9065
6.5                     -2.33352          58.506
