! TOUCHSTONE file generated by CST MICROWAVE STUDIO
! Date and time: Fri Oct 28 12:23:56 2022
! Project name: L.cst
! Parameters = {Di=1.27; Epsilon_r=1.56; InnerDiameter=1.27; Length=2; Lf=10; Lg=60; OuterConductorThickness=0.2921; OuterDiameter=3.6; Wf=3; Wp=41.2; de=1.5; df=6.8; g=0.8; gx=1.63286; gy=3.47393; h=2.34; hf=1.524; px=10.4322; py=9.51243; w=9.7; wx=8.79935; wy=6.03851}
! Header version: 2018
! Port assignment regex: !\s*Touchstone port\s*([0-9]+)\s*=\s*(CST MWS port|CST DS port)\s*([0-9]+|Zmin|Zmax)\s*\(\"(.*)\"\)(\s*mode\s*([0-9]+))?.*
! Touchstone port assignment:
! Touchstone port 1 = CST MWS port 1 ("")
# GHz S DB R 50
4.5                    -0.584057         88.5948
4.52                   -0.604928         87.0478
4.54                   -0.626748         85.4871
4.56                   -0.649507         83.9125
4.58                   -0.673187         82.3242
4.6                    -0.697773          80.722
4.62                   -0.723248         79.1058
4.64                   -0.749595         77.4754
4.66                   -0.776802         75.8305
4.68                    -0.80486          74.171
4.7                    -0.833767         72.4965
4.72                    -0.86352         70.8066
4.74                   -0.894128          69.101
4.76                   -0.925602         67.3796
4.78                   -0.957959         65.6417
4.8                     -0.99122         63.8872
4.82                    -1.02541         62.1157
4.84                    -1.06056          60.327
4.86                    -1.09671         58.5207
4.88                    -1.13389         56.6967
4.9                     -1.17214         54.8546
4.92                    -1.21149         52.9944
4.94                      -1.252          51.116
4.96                     -1.2937         49.2191
4.98                    -1.33664         47.3038
5                       -1.38085           45.37
5.02                    -1.42638         43.4177
5.04                    -1.47326          41.447
5.06                    -1.52153          39.458
5.08                    -1.57122         37.4508
5.1                     -1.62236         35.4255
5.12                    -1.67498         33.3824
5.14                    -1.72911         31.3216
5.16                    -1.78475         29.2435
5.18                    -1.84194         27.1484
5.2                     -1.90067         25.0365
5.22                    -1.96098         22.9083
5.24                    -2.02285         20.7641
5.26                    -2.08628         18.6044
5.28                    -2.15129         16.4295
5.3                     -2.21786         14.2401
5.32                    -2.28598         12.0365
5.34                    -2.35565         9.81945
5.36                    -2.42684         7.58941
5.38                    -2.49954         5.34702
5.4                     -2.57373         3.09293
5.42                    -2.64938        0.827804
5.44                    -2.72646        -1.44764
5.46                    -2.80494        -3.73265
5.48                     -2.8848        -6.02645
5.5                     -2.96599        -8.32823
5.52                    -3.04847        -10.6371
5.54                    -3.13222        -12.9523
5.56                    -3.21719        -15.2727
5.58                    -3.30333        -17.5975
5.6                     -3.39061        -19.9257
5.62                    -3.47896        -22.2561
5.64                    -3.56835        -24.5878
5.66                    -3.65873        -26.9196
5.68                    -3.75004        -29.2503
5.7                     -3.84222        -31.5789
5.72                    -3.93524        -33.9039
5.74                    -4.02902        -36.2242
5.76                     -4.1235        -38.5384
5.78                    -4.21863        -40.8453
5.8                     -4.31435        -43.1435
5.82                    -4.41058        -45.4316
5.84                    -4.50725        -47.7082
5.86                     -4.6043        -49.9718
5.88                    -4.70164        -52.2211
5.9                      -4.7992        -54.4544
5.92                    -4.89689        -56.6705
5.94                    -4.99461        -58.8676
5.96                    -5.09229        -61.0445
5.98                     -5.1898        -63.1996
6                       -5.28706        -65.3315
6.02                    -5.38393        -67.4387
6.04                    -5.48031        -69.5198
6.06                    -5.57607        -71.5733
6.08                    -5.67106        -73.5981
6.1                     -5.76514        -75.5926
6.12                    -5.85816        -77.5558
6.14                    -5.94996        -79.4864
6.16                    -6.04037        -81.3832
6.18                     -6.1292        -83.2453
6.2                     -6.21626        -85.0716
6.22                    -6.30135        -86.8613
6.24                    -6.38426        -88.6136
6.26                    -6.46476        -90.3278
6.28                    -6.54262        -92.0034
6.3                     -6.61759          -93.64
6.32                    -6.68942        -95.2371
6.34                    -6.75783        -96.7947
6.36                    -6.82253        -98.3127
6.38                    -6.88323        -99.7912
6.4                      -6.9396        -101.231
6.42                    -6.99131        -102.632
6.44                    -7.03801        -103.994
6.46                    -7.07933        -105.321
6.48                    -7.11488        -106.611
6.5                     -7.14425        -107.868
