! TOUCHSTONE file generated by CST MICROWAVE STUDIO
! Date and time: Thu Oct 27 22:53:23 2022
! Project name: L.cst
! Parameters = {Di=1.27; Epsilon_r=1.56; InnerDiameter=1.27; Length=2; Lf=10; Lg=60; OuterConductorThickness=0.2921; OuterDiameter=3.6; Wf=3; Wp=41.2; de=1.5; df=6.8; g=0.8; gx=4.1275; gy=3.31231; h=2.34; hf=1.524; px=12.1642; py=11.2505; w=9.7; wx=8.03669; wy=7.93816}
! Header version: 2018
! Port assignment regex: !\s*Touchstone port\s*([0-9]+)\s*=\s*(CST MWS port|CST DS port)\s*([0-9]+|Zmin|Zmax)\s*\(\"(.*)\"\)(\s*mode\s*([0-9]+))?.*
! Touchstone port assignment:
! Touchstone port 1 = CST MWS port 1 ("")
# GHz S DB R 50
4.5                    -0.439001         92.7266
4.52                   -0.451671         91.2271
4.54                   -0.465008         89.7117
4.56                    -0.47903         88.1807
4.58                   -0.493749         86.6342
4.6                    -0.509164         85.0721
4.62                   -0.525263         83.4947
4.64                   -0.542034         81.9017
4.66                   -0.559453         80.2932
4.68                   -0.577501         78.6689
4.7                    -0.596153         77.0287
4.72                   -0.615387         75.3724
4.74                   -0.635184         73.6996
4.76                   -0.655523           72.01
4.78                   -0.676391         70.3032
4.8                    -0.697778         68.5788
4.82                   -0.719673         66.8366
4.84                   -0.742076          65.076
4.86                   -0.764988         63.2967
4.88                   -0.788412         61.4982
4.9                    -0.812357         59.6802
4.92                   -0.836836         57.8423
4.94                    -0.86186         55.9842
4.96                   -0.887449         54.1054
4.98                   -0.913619         52.2057
5                      -0.940391         50.2849
5.02                   -0.967783         48.3426
5.04                   -0.995818         46.3787
5.06                    -1.02451         44.3929
5.08                    -1.05389         42.3852
5.1                     -1.08396         40.3553
5.12                    -1.11475         38.3034
5.14                    -1.14626         36.2292
5.16                    -1.17851         34.1329
5.18                    -1.21151         32.0145
5.2                     -1.24525          29.874
5.22                    -1.27975         27.7115
5.24                    -1.31499         25.5273
5.26                    -1.35098         23.3216
5.28                     -1.3877         21.0944
5.3                     -1.42514         18.8462
5.32                    -1.46329         16.5771
5.34                    -1.50212         14.2876
5.36                    -1.54162         11.9781
5.38                    -1.58174         9.64887
5.4                     -1.62247         7.30044
5.42                    -1.66376          4.9333
5.44                    -1.70559         2.54796
5.46                     -1.7479        0.144991
5.48                    -1.79067        -2.27501
5.5                     -1.83384        -4.71139
5.52                    -1.87737        -7.16348
5.54                    -1.92121        -9.63057
5.56                    -1.96531        -12.1119
5.58                    -2.00962        -14.6067
5.6                     -2.05409        -17.1141
5.62                    -2.09866        -19.6332
5.64                    -2.14329        -22.1632
5.66                    -2.18792        -24.7031
5.68                    -2.23249        -27.2519
5.7                     -2.27696        -29.8087
5.72                    -2.32127        -32.3724
5.74                    -2.36537        -34.9419
5.76                    -2.40921        -37.5161
5.78                    -2.45274         -40.094
5.8                     -2.49592        -42.6745
5.82                    -2.53869        -45.2563
5.84                    -2.58102        -47.8384
5.86                    -2.62285        -50.4196
5.88                    -2.66414        -52.9987
5.9                     -2.70485        -55.5745
5.92                    -2.74494         -58.146
5.94                    -2.78437         -60.712
5.96                    -2.82309        -63.2713
5.98                    -2.86107        -65.8229
6                       -2.89827        -68.3658
6.02                    -2.93466        -70.8989
6.04                     -2.9702        -73.4212
6.06                    -3.00484         -75.932
6.08                    -3.03856        -78.4302
6.1                     -3.07133        -80.9152
6.12                     -3.1031        -83.3861
6.14                    -3.13385        -85.8425
6.16                    -3.16356        -88.2837
6.18                     -3.1922        -90.7093
6.2                     -3.21974        -93.1188
6.22                    -3.24617        -95.5122
6.24                    -3.27148        -97.8891
6.26                    -3.29567        -100.249
6.28                    -3.31873        -102.593
6.3                     -3.34069        -104.921
6.32                    -3.36156        -107.232
6.34                    -3.38139        -109.528
6.36                    -3.40022        -111.808
6.38                    -3.41811        -114.073
6.4                     -3.43515        -116.323
6.42                    -3.45143        -118.559
6.44                    -3.46706        -120.781
6.46                    -3.48216         -122.99
6.48                    -3.49689        -125.187
6.5                      -3.5114         -127.37
