! TOUCHSTONE file generated by CST MICROWAVE STUDIO
! Date and time: Fri Oct 28 19:54:58 2022
! Project name: L.cst
! Parameters = {Di=1.27; Epsilon_r=1.56; InnerDiameter=1.27; Length=2; Lf=10; Lg=60; OuterConductorThickness=0.2921; OuterDiameter=3.6; Wf=3; Wp=41.2; de=1.5; df=6.8; g=0.8; gx=1.01429; gy=1.22894; h=2.34; hf=1.524; px=8.31621; py=13.5558; w=9.7; wx=7.30192; wy=12.3268}
! Header version: 2018
! Port assignment regex: !\s*Touchstone port\s*([0-9]+)\s*=\s*(CST MWS port|CST DS port)\s*([0-9]+|Zmin|Zmax)\s*\(\"(.*)\"\)(\s*mode\s*([0-9]+))?.*
! Touchstone port assignment:
! Touchstone port 1 = CST MWS port 1 ("")
# GHz S DB R 50
4.5                     -1.04159          62.728
4.52                    -1.05281         61.1184
4.54                    -1.07584          58.965
4.56                    -1.16085         57.0505
4.58                    -1.18806          55.327
4.6                     -1.21333         53.1529
4.62                    -1.29458         51.0996
4.64                    -1.33493         49.2505
4.66                    -1.36396         47.0313
4.68                    -1.44233         44.8429
4.7                     -1.49313         42.8556
4.72                    -1.52631         40.5658
4.74                    -1.60197         38.2371
4.76                    -1.66049         36.0954
4.78                    -1.69689          33.707
4.8                     -1.76855         31.2213
4.82                    -1.83116          28.896
4.84                    -1.86852         26.3654
4.86                    -1.93387         23.6828
4.88                    -1.99671         21.1192
4.9                     -2.03276         18.3739
4.92                    -2.09044         15.4184
4.94                     -2.1522         12.5244
4.96                    -2.18835         9.45732
4.98                    -2.24163         6.12047
5                       -2.30678         2.77679
5.02                    -2.35055       -0.738452
5.04                    -2.40856        -4.57862
5.06                    -2.48678        -8.50146
5.08                    -2.54977        -12.6019
5.1                     -2.62439        -17.0871
5.12                    -2.72753        -21.7571
5.14                    -2.82444        -26.6426
5.16                    -2.93267        -32.0043
5.18                     -3.0816         -37.716
5.2                     -3.24375        -43.7511
5.22                    -3.42997        -50.4186
5.24                    -3.68859        -57.6994
5.26                    -4.01552        -65.4981
5.28                    -4.42692        -74.1065
5.3                     -5.00712        -83.5662
5.32                    -5.80709        -93.5266
5.34                    -6.86073        -103.864
5.36                    -8.27902        -114.254
5.38                    -10.1492        -123.426
5.4                     -12.4101        -129.852
5.42                    -14.9668        -132.136
5.44                    -17.5237        -127.349
5.46                    -18.9569        -115.442
5.48                    -18.8567        -105.517
5.5                     -18.0803        -101.248
5.52                    -17.0436        -102.441
5.54                    -16.1722         -108.33
5.56                     -15.566        -116.143
5.58                    -14.9705        -125.199
5.6                     -14.4067        -136.417
5.62                    -13.9799        -148.835
5.64                    -13.4887        -161.678
5.66                    -12.8351        -176.132
5.68                    -12.1693         167.741
5.7                     -11.4187         151.038
5.72                    -10.4012         133.088
5.74                    -9.21693         112.822
5.76                    -7.96696         90.7531
5.78                    -6.56357         66.8165
5.8                      -5.0942         39.7177
5.82                    -3.88377         9.44952
5.84                     -3.1578        -22.1642
5.86                    -2.90552        -52.9812
5.88                    -2.97037        -81.7151
5.9                     -3.21312        -108.068
5.92                    -3.55477        -131.908
5.94                    -3.85659        -153.464
5.96                    -4.11483        -174.591
5.98                    -4.85511         163.906
6                       -6.68317         147.886
6.02                    -8.12254         149.982
6.04                    -5.80166         151.829
6.06                    -3.15596         134.279
6.08                    -1.90552          110.29
6.1                     -1.57416         87.2492
6.12                     -1.4938         65.7283
6.14                     -1.5133         43.2573
6.16                    -1.83743         19.2729
6.18                    -2.41029        -5.39352
6.2                     -2.97033        -31.7289
6.22                    -3.44873        -61.8481
6.24                    -3.82345        -96.0096
6.26                    -3.83355        -132.671
6.28                    -3.30444        -170.105
6.3                     -2.53486         153.253
6.32                    -1.99251         119.277
6.34                    -1.82671         89.6733
6.36                    -1.85487         64.4311
6.38                    -2.00168         41.8097
6.4                     -2.39915         21.4841
6.42                    -2.86233         4.42009
6.44                    -3.09375        -11.5367
6.46                    -3.46303        -28.3366
6.48                    -4.09559        -42.6416
6.5                     -4.20431         -55.305
