! TOUCHSTONE file generated by CST MICROWAVE STUDIO
! Date and time: Thu Oct 27 00:13:15 2022
! Project name: L.cst
! Parameters = {Di=1.27; Epsilon_r=1.56; InnerDiameter=1.27; Length=2; Lf=10; Lg=60; OuterConductorThickness=0.2921; OuterDiameter=3.6; Wf=3; Wp=41.2; de=1.5; df=6.8; g=0.8; gx=3.6929; gy=0.794259; h=2.34; hf=1.524; px=13.4761; py=8.52827; w=9.7; wx=9.78316; wy=7.73401}
! Header version: 2018
! Port assignment regex: !\s*Touchstone port\s*([0-9]+)\s*=\s*(CST MWS port|CST DS port)\s*([0-9]+|Zmin|Zmax)\s*\(\"(.*)\"\)(\s*mode\s*([0-9]+))?.*
! Touchstone port assignment:
! Touchstone port 1 = CST MWS port 1 ("")
# GHz S DB R 50
4.5                     -1.58396         58.3966
4.52                    -1.67807         55.7405
4.54                    -1.77557         53.0119
4.56                     -1.8768         50.2057
4.58                    -1.98214         47.3167
4.6                       -2.092         44.3408
4.62                    -2.20682         41.2738
4.64                    -2.32697         38.1124
4.66                     -2.4528         34.8536
4.68                    -2.58458         31.4947
4.7                     -2.72249         28.0335
4.72                    -2.86661         24.4681
4.74                     -3.0169          20.797
4.76                    -3.17316         17.0187
4.78                    -3.33508         13.1322
4.8                     -3.50218         9.13658
4.82                    -3.67383         5.03153
4.84                    -3.84923        0.816947
4.86                     -4.0274        -3.50671
4.88                    -4.20722        -7.93834
4.9                     -4.38741        -12.4761
4.92                    -4.56654        -17.1171
4.94                    -4.74305        -21.8575
4.96                    -4.91529         -26.692
4.98                    -5.08157        -31.6138
5                       -5.24015        -36.6147
5.02                    -5.38935        -41.6846
5.04                    -5.52756        -46.8119
5.06                    -5.65334        -51.9834
5.08                    -5.76545        -57.1844
5.1                      -5.8629        -62.3992
5.12                    -5.94501        -67.6112
5.14                    -6.01141        -72.8036
5.16                    -6.06209        -77.9597
5.18                    -6.09734        -83.0633
5.2                     -6.11776        -88.0992
5.22                    -6.12421        -93.0536
5.24                    -6.11778        -97.9144
5.26                    -6.09968        -102.671
5.28                    -6.07127        -107.315
5.3                     -6.03391         -111.84
5.32                      -5.989        -116.241
5.34                    -5.93787        -120.515
5.36                    -5.88181         -124.66
5.38                    -5.82198        -128.675
5.4                     -5.75946        -132.562
5.42                     -5.6952        -136.322
5.44                    -5.63001        -139.957
5.46                    -5.56462        -143.471
5.48                    -5.49961        -146.867
5.5                     -5.43547        -150.148
5.52                     -5.3726        -153.319
5.54                    -5.31129        -156.383
5.56                    -5.25176        -159.346
5.58                    -5.19418        -162.212
5.6                     -5.13865        -164.985
5.62                    -5.08522         -167.67
5.64                    -5.03391         -170.27
5.66                    -4.98473        -172.792
5.68                    -4.93763        -175.238
5.7                      -4.8926        -177.614
5.72                    -4.84959        -179.887
5.74                    -4.80857         177.828
5.76                    -4.76953         175.637
5.78                    -4.73246           173.5
5.8                     -4.69739         171.412
5.82                    -4.66437         169.371
5.84                    -4.63347          167.37
5.86                     -4.6048         165.409
5.88                    -4.57851         163.482
5.9                     -4.55477         161.588
5.92                    -4.53381         159.723
5.94                    -4.51587         157.886
5.96                    -4.50121         156.073
5.98                    -4.49014         154.284
6                       -4.48297         152.517
6.02                    -4.48003         150.773
6.04                    -4.48166          149.05
6.06                    -4.48818         147.348
6.08                     -4.4999          145.67
6.1                     -4.51713         144.016
6.12                     -4.5401         142.388
6.14                    -4.56903         140.789
6.16                    -4.60405         139.221
6.18                    -4.64522         137.689
6.2                     -4.69252         136.195
6.22                    -4.74582         134.744
6.24                    -4.80484          133.34
6.26                    -4.86922         131.987
6.28                    -4.93843          130.69
6.3                     -5.01179         129.453
6.32                    -5.08849         128.278
6.34                    -5.16757         127.168
6.36                    -5.24796         126.126
6.38                    -5.32848         125.151
6.4                     -5.40793         124.242
6.42                    -5.48507         123.397
6.44                    -5.55876         122.611
6.46                    -5.62798         121.878
6.48                    -5.69195          121.19
6.5                     -5.75017         120.537
