! TOUCHSTONE file generated by CST MICROWAVE STUDIO
! Date and time: Thu Oct 27 09:00:23 2022
! Project name: L.cst
! Parameters = {Di=1.27; Epsilon_r=1.56; InnerDiameter=1.27; Length=2; Lf=10; Lg=60; OuterConductorThickness=0.2921; OuterDiameter=3.6; Wf=3; Wp=41.2; de=1.5; df=6.8; g=0.8; gx=3.22912; gy=3.27814; h=2.34; hf=1.524; px=13.1889; py=14.8324; w=9.7; wx=9.95976; wy=11.5543}
! Header version: 2018
! Port assignment regex: !\s*Touchstone port\s*([0-9]+)\s*=\s*(CST MWS port|CST DS port)\s*([0-9]+|Zmin|Zmax)\s*\(\"(.*)\"\)(\s*mode\s*([0-9]+))?.*
! Touchstone port assignment:
! Touchstone port 1 = CST MWS port 1 ("")
# GHz S DB R 50
4.5                    -0.762546         85.5495
4.52                   -0.801425         83.8866
4.54                   -0.826757         82.2628
4.56                   -0.865333         80.5472
4.58                   -0.896053         78.8914
4.6                    -0.934161         77.1284
4.62                   -0.970695         75.4288
4.64                    -1.00897         73.6262
4.66                    -1.05054         71.8728
4.68                    -1.09024         70.0311
4.7                     -1.13625         68.2192
4.72                    -1.17844         66.3345
4.74                    -1.22899         64.4622
4.76                    -1.27411         62.5332
4.78                     -1.3291         60.5945
4.8                     -1.37814         58.6196
4.82                    -1.43716         56.6096
4.84                    -1.49156          54.584
4.86                    -1.55426         52.5037
4.88                    -1.61472         50.4181
4.9                     -1.68156         48.2675
4.92                    -1.74837         46.1143
4.94                    -1.82007         43.8895
4.96                    -1.89397         41.6637
4.98                    -1.97082         39.3619
5                       -2.05248         37.0552
5.02                    -2.13506         34.6737
5.04                    -2.22499         32.2747
5.06                    -2.31472         29.8103
5.08                    -2.41305         27.3117
5.1                     -2.51118          24.756
5.12                    -2.61853           22.15
5.14                    -2.72622         19.4927
5.16                    -2.84368         16.7688
5.18                    -2.96252         14.0005
5.2                     -3.09103         11.1469
5.22                    -3.22309         8.25404
5.24                    -3.36385         5.25959
5.26                    -3.51137         2.22329
5.28                    -3.66666       -0.924789
5.3                     -3.83211        -4.12435
5.32                    -4.00478        -7.44263
5.34                    -4.19126        -10.8279
5.36                     -4.3848        -14.3367
5.38                    -4.59629        -17.9368
5.4                     -4.81566        -21.6598
5.42                    -5.05685        -25.5097
5.44                    -5.30898        -29.4804
5.46                    -5.58614        -33.6201
5.48                    -5.88002        -37.8872
5.5                     -6.20278        -42.3702
5.52                    -6.55127        -46.9972
5.54                    -6.93396         -51.895
5.56                    -7.35642        -56.9677
5.58                    -7.82035        -62.3744
5.6                     -8.34583        -68.0236
5.62                     -8.9257        -74.0788
5.64                    -9.59951        -80.5212
5.66                     -10.356        -87.4888
5.68                    -11.2595        -95.1553
5.7                      -12.314        -103.674
5.72                    -13.6298        -113.708
5.74                    -15.2925         -125.83
5.76                     -17.533        -142.758
5.78                    -20.6228         -170.21
5.8                     -22.8394         134.552
5.82                    -19.1052         71.7639
5.84                    -13.9845         31.2421
5.86                    -10.3061        -5.27309
5.88                    -8.62564        -42.0992
5.9                     -8.71162        -75.4046
5.92                    -9.66533        -103.229
5.94                    -10.8487        -128.337
5.96                    -11.9355        -153.001
5.98                    -12.6097         178.438
6                        -12.738         144.548
6.02                    -11.3721         101.985
6.04                    -9.40667         46.4055
6.06                    -8.58251        -13.6483
6.08                    -9.55009        -66.7022
6.1                     -11.1523        -103.315
6.12                    -11.4811        -131.932
6.14                    -11.7254        -158.651
6.16                    -11.1466        -179.108
6.18                    -10.1595         157.382
6.2                      -9.2686         138.065
6.22                    -7.63417         116.099
6.24                    -6.71856          92.271
6.26                    -5.20486          68.533
6.28                    -4.44825         30.4576
6.3                      -7.4407        -10.0695
6.32                    -12.5509        -13.2687
6.34                    -10.8857        -23.3268
6.36                    -12.4439        -58.7389
6.38                    -14.1341         -85.572
6.4                     -13.0877        -132.137
6.42                    -11.4047        -178.341
6.44                    -7.10831         148.106
6.46                    -2.82975         103.652
6.48                    -1.27831         55.1977
6.5                      -2.4217         12.7356
