! TOUCHSTONE file generated by CST MICROWAVE STUDIO
! Date and time: Fri Oct 28 22:52:22 2022
! Project name: L.cst
! Parameters = {Di=1.27; Epsilon_r=1.56; InnerDiameter=1.27; Length=2; Lf=10; Lg=60; OuterConductorThickness=0.2921; OuterDiameter=3.6; Wf=3; Wp=41.2; de=1.5; df=6.8; g=0.8; gx=3.46629; gy=4.84432; h=2.34; hf=1.524; px=13.3334; py=13.124; w=9.7; wx=9.86709; wy=8.27971}
! Header version: 2018
! Port assignment regex: !\s*Touchstone port\s*([0-9]+)\s*=\s*(CST MWS port|CST DS port)\s*([0-9]+|Zmin|Zmax)\s*\(\"(.*)\"\)(\s*mode\s*([0-9]+))?.*
! Touchstone port assignment:
! Touchstone port 1 = CST MWS port 1 ("")
# GHz S DB R 50
4.5                    -0.495655         95.4631
4.52                   -0.514804         93.9968
4.54                   -0.534014           92.52
4.56                   -0.553312         91.0316
4.58                   -0.572746          89.531
4.6                    -0.592371         88.0175
4.62                   -0.612255         86.4904
4.64                   -0.632472         84.9492
4.66                   -0.653095         83.3935
4.68                   -0.674202         81.8229
4.7                    -0.695869         80.2372
4.72                   -0.718172         78.6361
4.74                    -0.74118         77.0195
4.76                   -0.764962         75.3873
4.78                   -0.789581         73.7393
4.8                    -0.815093         72.0756
4.82                   -0.841552         70.3962
4.84                   -0.869007          68.701
4.86                   -0.897499         66.9902
4.88                   -0.927069         65.2636
4.9                    -0.957751         63.5214
4.92                   -0.989576         61.7636
4.94                    -1.02257         59.9902
4.96                    -1.05677         58.2012
4.98                    -1.09219         56.3968
5                       -1.12885         54.5768
5.02                    -1.16678         52.7414
5.04                    -1.20601         50.8904
5.06                    -1.24654          49.024
5.08                    -1.28841         47.1421
5.1                     -1.33163         45.2447
5.12                    -1.37624         43.3318
5.14                    -1.42226         41.4035
5.16                    -1.46972         39.4596
5.18                    -1.51865         37.5004
5.2                     -1.56908         35.5257
5.22                    -1.62106         33.5357
5.24                    -1.67461         31.5303
5.26                    -1.72979         29.5098
5.28                    -1.78663         27.4742
5.3                     -1.84519         25.4236
5.32                    -1.90551         23.3582
5.34                    -1.96765         21.2783
5.36                    -2.03166         19.1841
5.38                    -2.09761         17.0759
5.4                     -2.16555         14.9539
5.42                    -2.23555         12.8187
5.44                    -2.30766         10.6706
5.46                    -2.38197          8.5102
5.48                    -2.45854         6.33798
5.5                     -2.53743         4.15457
5.52                    -2.61873         1.96069
5.54                    -2.70249       -0.242929
5.56                     -2.7888        -2.45543
5.58                    -2.87772        -4.67591
5.6                     -2.96933        -6.90337
5.62                    -3.06369        -9.13671
5.64                    -3.16086        -11.3748
5.66                    -3.26091        -13.6163
5.68                    -3.36389        -15.8599
5.7                     -3.46985        -18.1041
5.72                    -3.57884        -20.3473
5.74                    -3.69088         -22.588
5.76                      -3.806        -24.8242
5.78                    -3.92421        -27.0541
5.8                      -4.0455        -29.2758
5.82                    -4.16984        -31.4872
5.84                    -4.29718         -33.686
5.86                    -4.42746          -35.87
5.88                    -4.56058        -38.0369
5.9                      -4.6964        -40.1843
5.92                    -4.83476        -42.3098
5.94                    -4.97545        -44.4109
5.96                    -5.11824        -46.4852
5.98                    -5.26281        -48.5304
6                       -5.40884        -50.5442
6.02                    -5.55593        -52.5246
6.04                    -5.70362        -54.4699
6.06                    -5.85143        -56.3784
6.08                    -5.99878        -58.2492
6.1                     -6.14509        -60.0817
6.12                    -6.28971        -61.8759
6.14                    -6.43197        -63.6325
6.16                    -6.57119        -65.3532
6.18                    -6.70668        -67.0405
6.2                     -6.83779        -68.6977
6.22                    -6.96391        -70.3294
6.24                    -7.08453        -71.9412
6.26                    -7.19925        -73.5397
6.28                    -7.30783        -75.1327
6.3                     -7.41022        -76.7287
6.32                    -7.50659        -78.3372
6.34                    -7.59737        -79.9681
6.36                    -7.68328        -81.6318
6.38                    -7.76532        -83.3387
6.4                     -7.84485        -85.0992
6.42                    -7.92352        -86.9232
6.44                    -8.00336        -88.8202
6.46                     -8.0867        -90.7985
6.48                    -8.17625        -92.8656
6.5                     -8.27506        -95.0276
