! TOUCHSTONE file generated by CST MICROWAVE STUDIO
! Date and time: Thu Oct 27 06:35:16 2022
! Project name: L.cst
! Parameters = {Di=1.27; Epsilon_r=1.56; InnerDiameter=1.27; Length=2; Lf=10; Lg=60; OuterConductorThickness=0.2921; OuterDiameter=3.6; Wf=3; Wp=41.2; de=1.5; df=6.8; g=0.8; gx=2.01053; gy=3.49835; h=2.34; hf=1.524; px=14.4757; py=14.6953; w=9.7; wx=12.4652; wy=11.197}
! Header version: 2018
! Port assignment regex: !\s*Touchstone port\s*([0-9]+)\s*=\s*(CST MWS port|CST DS port)\s*([0-9]+|Zmin|Zmax)\s*\(\"(.*)\"\)(\s*mode\s*([0-9]+))?.*
! Touchstone port assignment:
! Touchstone port 1 = CST MWS port 1 ("")
# GHz S DB R 50
4.5                     -2.53427         78.8164
4.52                    -2.72472         77.3652
4.54                    -2.88791         75.5972
4.56                    -3.05687         74.2535
4.58                     -3.2704         72.6673
4.6                     -3.43961         71.1947
4.62                    -3.66245         69.9245
4.64                    -3.87009         68.4208
4.66                    -4.07461         67.2821
4.68                    -4.31855          66.022
4.7                     -4.52239         64.8443
4.72                    -4.76344         63.9069
4.74                    -4.99331         62.7898
4.76                    -5.20751         61.9904
4.78                     -5.4529         61.1429
4.8                     -5.65576         60.3258
4.82                    -5.87804         59.7463
4.84                    -6.08953         58.9802
4.86                    -6.27213         58.4379
4.88                    -6.47886         57.8434
4.9                     -6.64377          57.163
4.92                    -6.81691         56.6438
4.94                     -6.9878         55.8595
4.96                    -7.12972         55.1464
4.98                    -7.30312         54.3155
5                       -7.45363         53.2508
5.02                    -7.62351         52.2432
5.04                    -7.82244          50.884
5.06                    -8.02138         49.4709
5.08                    -8.29185         47.9052
5.1                     -8.59481         46.0323
5.12                    -8.97805         44.2395
5.14                    -9.48164         42.1726
5.16                    -10.0919          40.257
5.18                    -10.9277         38.7061
5.2                     -11.9897         37.7418
5.22                    -13.3653         38.9155
5.24                    -15.0949          43.671
5.26                      -16.74          55.537
5.28                    -17.3043         75.4219
5.3                     -16.0439         93.2432
5.32                    -13.9404         102.773
5.34                    -12.0118         106.095
5.36                    -10.3753         105.729
5.38                    -9.00092         103.815
5.4                     -7.88376         100.661
5.42                    -6.91944         96.7707
5.44                    -6.14096         92.5471
5.46                    -5.49541         87.8299
5.48                    -4.95713         83.1264
5.5                       -4.546         78.2177
5.52                    -4.19067         73.2345
5.54                    -3.93234         68.3258
5.56                    -3.73011         63.1096
5.58                    -3.57167         57.9567
5.6                     -3.50772         52.3923
5.62                    -3.47007         46.2977
5.64                    -3.59697          39.704
5.66                    -4.09607            31.7
5.68                    -4.68932         28.8999
5.7                     -4.47984         19.2831
5.72                    -5.62561         1.91465
5.74                    -9.15685        -25.5229
5.76                    -21.7924        -129.532
5.78                    -8.86945         116.949
5.8                     -4.93986         86.9794
5.82                    -3.55584         68.5666
5.84                    -3.05031         55.1742
5.86                    -2.91866          43.679
5.88                    -3.22889         32.8015
5.9                     -4.48337         21.7511
5.92                    -7.41235         23.7924
5.94                     -6.6827         45.8981
5.96                    -4.33501         42.4979
5.98                    -3.32297         33.6823
6                       -3.77081         23.1215
6.02                    -4.31099         24.2615
6.04                    -3.82978         20.3846
6.06                    -4.93325         15.3306
6.08                     -4.6982         29.9928
6.1                     -2.26622         23.3145
6.12                    -1.92902         13.2267
6.14                    -1.80596          5.5775
6.16                    -1.86977        -0.93465
6.18                    -1.94529        -7.52044
6.2                     -2.11942        -13.8787
6.22                    -2.34264        -20.9601
6.24                     -2.7113        -28.0256
6.26                    -3.29536        -36.9534
6.28                    -4.11584        -45.9795
6.3                     -6.07824        -58.1362
6.32                    -9.54286        -71.4349
6.34                    -13.6885         13.1501
6.36                    -4.63522        -35.0252
6.38                    -11.1397        -105.533
6.4                     -18.6582         76.8608
6.42                    -8.39955         50.0454
6.44                     -5.4979         24.8406
6.46                     -3.6344         10.0784
6.48                    -3.26188        -6.12874
6.5                     -2.62299        -22.3542
