! TOUCHSTONE file generated by CST MICROWAVE STUDIO
! Date and time: Fri Oct 28 12:41:03 2022
! Project name: L.cst
! Parameters = {Di=1.27; Epsilon_r=1.56; InnerDiameter=1.27; Length=2; Lf=10; Lg=60; OuterConductorThickness=0.2921; OuterDiameter=3.6; Wf=3; Wp=41.2; de=1.5; df=6.8; g=0.8; gx=4.8553; gy=1.34764; h=2.34; hf=1.524; px=8.71161; py=14.4281; w=9.7; wx=3.85631; wy=13.0804}
! Header version: 2018
! Port assignment regex: !\s*Touchstone port\s*([0-9]+)\s*=\s*(CST MWS port|CST DS port)\s*([0-9]+|Zmin|Zmax)\s*\(\"(.*)\"\)(\s*mode\s*([0-9]+))?.*
! Touchstone port assignment:
! Touchstone port 1 = CST MWS port 1 ("")
# GHz S DB R 50
4.5                     -0.43273         78.1064
4.52                   -0.466819         76.4725
4.54                   -0.490975         74.6925
4.56                   -0.496565         72.8932
4.58                   -0.494379         71.1755
4.6                    -0.502664         69.5154
4.62                   -0.526735         67.8123
4.64                    -0.55524          65.988
4.66                   -0.574968         64.0675
4.68                   -0.582766          62.142
4.7                    -0.588753         60.2562
4.72                   -0.604542         58.3794
4.74                   -0.629795         56.4342
4.76                   -0.655908         54.3785
4.78                   -0.674113         52.2513
4.8                    -0.684812         50.1092
4.82                   -0.697289         47.9728
4.84                   -0.717481         45.8023
4.86                   -0.743454         43.5357
4.88                   -0.767522         41.1592
4.9                    -0.784028         38.7053
4.92                   -0.796122         36.2108
4.94                   -0.810675         33.6736
4.96                   -0.830658          31.042
4.98                   -0.852541         28.2669
5                      -0.869174         25.3405
5.02                   -0.878011         22.2815
5.04                   -0.883468         19.0988
5.06                   -0.890985          15.752
5.08                   -0.902054         12.1657
5.1                     -0.91272         8.27708
5.12                   -0.919594         4.05241
5.14                   -0.926563       -0.532229
5.16                   -0.943983        -5.53708
5.18                   -0.983338        -11.0772
5.2                     -1.05314        -17.2912
5.22                    -1.16232        -24.3008
5.24                     -1.3289        -32.2095
5.26                    -1.58682        -41.1472
5.28                    -1.98446        -51.3053
5.3                     -2.57995        -62.9141
5.32                      -3.443        -76.1553
5.34                    -4.66089        -91.0966
5.36                    -6.34069        -107.786
5.38                    -8.59225        -126.554
5.4                     -11.4739        -148.573
5.42                    -14.8369        -176.596
5.44                    -17.8533         145.978
5.46                    -19.0111         103.899
5.48                    -18.5855         69.9232
5.5                     -18.1003         45.9946
5.52                    -18.3129         28.3737
5.54                    -19.6408         14.3067
5.56                    -22.8954         2.78513
5.58                    -32.1848         1.89569
5.6                     -27.8278         137.946
5.62                    -18.5197         131.306
5.64                    -13.5105          118.53
5.66                    -10.0944         104.286
5.68                    -7.63124         89.0244
5.7                     -5.84687         72.8365
5.72                    -4.57843         55.8716
5.74                    -3.72726         38.2295
5.76                      -3.246         19.6317
5.78                    -3.11147       -0.808523
5.8                     -3.27958        -24.6307
5.82                    -3.66981         -54.646
5.84                    -4.29511        -92.7758
5.86                    -4.51515        -138.536
5.88                    -3.86703         175.046
5.9                     -2.82551         136.755
5.92                    -2.00051         107.831
5.94                    -1.48922         85.7056
5.96                     -1.1729         68.0918
5.98                   -0.956377         53.6553
6                      -0.818529          41.532
6.02                    -0.77664         30.8139
6.04                    -0.77655         21.2694
6.06                   -0.780936         11.5759
6.08                   -0.749994           2.202
6.1                    -0.710949        -6.80946
6.12                   -0.742377        -15.8641
6.14                   -0.875426        -26.0225
6.16                    -1.01898        -38.5332
6.18                    -1.01878        -54.1072
6.2                    -0.921297        -73.6356
6.22                     -1.4186        -104.787
6.24                    -6.11687         116.541
6.26                   -0.155792        -63.0846
6.28                   -0.710391        -127.263
6.3                    -0.540172         174.016
6.32                     -0.1897         127.178
6.34                   -0.412755         92.6168
6.36                   -0.686351         66.0126
6.38                   -0.661861         46.1858
6.4                    -0.542141         32.4148
6.42                   -0.576277         22.4371
6.44                   -0.761749         13.8163
6.46                   -0.911055         5.42748
6.48                   -0.882864         -2.1807
6.5                    -0.755778        -8.08285
