! TOUCHSTONE file generated by CST MICROWAVE STUDIO
! Date and time: Thu Oct 27 00:09:09 2022
! Project name: L.cst
! Parameters = {Di=1.27; Epsilon_r=1.56; InnerDiameter=1.27; Length=2; Lf=10; Lg=60; OuterConductorThickness=0.2921; OuterDiameter=3.6; Wf=3; Wp=41.2; de=1.5; df=6.8; g=0.8; gx=4.98216; gy=1.88272; h=2.34; hf=1.524; px=12.0079; py=12.2444; w=9.7; wx=7.02573; wy=10.3617}
! Header version: 2018
! Port assignment regex: !\s*Touchstone port\s*([0-9]+)\s*=\s*(CST MWS port|CST DS port)\s*([0-9]+|Zmin|Zmax)\s*\(\"(.*)\"\)(\s*mode\s*([0-9]+))?.*
! Touchstone port assignment:
! Touchstone port 1 = CST MWS port 1 ("")
# GHz S DB R 50
4.5                     -0.43365         86.9822
4.52                   -0.455162         85.2569
4.54                   -0.480388         83.5237
4.56                    -0.50823         81.7852
4.58                   -0.537575         80.0413
4.6                    -0.567396         78.2898
4.62                   -0.596815         76.5269
4.64                   -0.625169         74.7473
4.66                   -0.652033         72.9447
4.68                   -0.677227         71.1126
4.7                    -0.700809         69.2447
4.72                   -0.723042         67.3348
4.74                   -0.744349         65.3779
4.76                   -0.765262         63.3698
4.78                    -0.78637         61.3073
4.8                    -0.808269         59.1883
4.82                   -0.831514         57.0116
4.84                   -0.856586         54.7768
4.86                   -0.883869          52.484
4.88                   -0.913628         50.1335
4.9                    -0.946009          47.726
4.92                   -0.981039         45.2617
4.94                    -1.01864         42.7406
4.96                    -1.05866         40.1622
4.98                    -1.10085         37.5254
5                       -1.14495         34.8283
5.02                    -1.19068         32.0685
5.04                    -1.23776         29.2426
5.06                    -1.28595         26.3468
5.08                    -1.33506         23.3767
5.1                     -1.38497         20.3275
5.12                    -1.43564         17.1942
5.14                     -1.4871         13.9717
5.16                    -1.53945         10.6549
5.18                    -1.59287         7.23906
5.2                     -1.64759         3.71987
5.22                    -1.70388       0.0934773
5.24                      -1.762         -3.6433
5.26                    -1.82226        -7.49284
5.28                    -1.88489         -11.457
5.3                     -1.95013        -15.5365
5.32                    -2.01813        -19.7315
5.34                    -2.08899        -24.0409
5.36                    -2.16271         -28.463
5.38                     -2.2392        -32.9953
5.4                     -2.31831        -37.6343
5.42                    -2.39976        -42.3754
5.44                     -2.4832        -47.2136
5.46                    -2.56819        -52.1428
5.48                    -2.65425        -57.1561
5.5                     -2.74079        -62.2458
5.52                    -2.82724        -67.4035
5.54                    -2.91298        -72.6202
5.56                    -2.99738        -77.8861
5.58                    -3.07985        -83.1912
5.6                     -3.15982        -88.5248
5.62                    -3.23679        -93.8764
5.64                    -3.31033         -99.235
5.66                    -3.38006         -104.59
5.68                    -3.44575        -109.931
5.7                     -3.50721        -115.248
5.72                    -3.56439        -120.532
5.74                    -3.61733        -125.773
5.76                    -3.66616        -130.966
5.78                    -3.71112        -136.101
5.8                     -3.75254        -141.175
5.82                    -3.79081        -146.181
5.84                    -3.82641        -151.117
5.86                    -3.85987        -155.979
5.88                    -3.89179        -160.764
5.9                     -3.92279        -165.471
5.92                    -3.95355        -170.099
5.94                    -3.98472        -174.646
5.96                    -4.01697        -179.113
5.98                    -4.05095         176.503
6                       -4.08722         172.201
6.02                    -4.12627         167.985
6.04                     -4.1685         163.855
6.06                    -4.21409         159.813
6.08                    -4.26307         155.863
6.1                      -4.3152         152.007
6.12                    -4.36998         148.248
6.14                    -4.42655         144.589
6.16                    -4.48375         141.031
6.18                       -4.54         137.576
6.2                     -4.59343          134.22
6.22                    -4.64181          130.96
6.24                    -4.68271         127.788
6.26                     -4.7136         124.691
6.28                    -4.73199         121.651
6.3                     -4.73569         118.647
6.32                      -4.723         115.652
6.34                    -4.69294         112.634
6.36                    -4.64545         109.559
6.38                    -4.58148         106.392
6.4                     -4.50306         103.099
6.42                    -4.41325         99.6458
6.44                    -4.31598         96.0048
6.46                    -4.21592         92.1518
6.48                    -4.11824         88.0682
6.5                     -4.02842         83.7411
