! TOUCHSTONE file generated by CST MICROWAVE STUDIO
! Date and time: Fri Oct 28 15:36:34 2022
! Project name: L.cst
! Parameters = {Di=1.27; Epsilon_r=1.56; InnerDiameter=1.27; Length=2; Lf=10; Lg=60; OuterConductorThickness=0.2921; OuterDiameter=3.6; Wf=3; Wp=41.2; de=1.5; df=6.8; g=0.8; gx=4.14949; gy=1.13943; h=2.34; hf=1.524; px=10.7819; py=10.5466; w=9.7; wx=6.63241; wy=9.40714}
! Header version: 2018
! Port assignment regex: !\s*Touchstone port\s*([0-9]+)\s*=\s*(CST MWS port|CST DS port)\s*([0-9]+|Zmin|Zmax)\s*\(\"(.*)\"\)(\s*mode\s*([0-9]+))?.*
! Touchstone port assignment:
! Touchstone port 1 = CST MWS port 1 ("")
# GHz S DB R 50
4.5                    -0.502322         79.6104
4.52                   -0.501697         77.7878
4.54                   -0.505557         75.9205
4.56                   -0.513976         74.0138
4.58                   -0.526851         72.0727
4.6                    -0.543944         70.1011
4.62                   -0.564907         68.1021
4.64                   -0.589318         66.0781
4.66                   -0.616706         64.0306
4.68                   -0.646573         61.9601
4.7                    -0.678417         59.8666
4.72                   -0.711757         57.7491
4.74                   -0.746135         55.6062
4.76                   -0.781141         53.4357
4.78                   -0.816417         51.2352
4.8                    -0.851665         49.0016
4.82                   -0.886652         46.7319
4.84                   -0.921209         44.4226
4.86                   -0.955231         42.0703
4.88                   -0.988677         39.6715
4.9                     -1.02156         37.2228
4.92                    -1.05394         34.7211
4.94                    -1.08591         32.1633
4.96                    -1.11762         29.5466
4.98                    -1.14922         26.8685
5                       -1.18088         24.1268
5.02                    -1.21278         21.3197
5.04                     -1.2451         18.4456
5.06                    -1.27799         15.5033
5.08                    -1.31162          12.492
5.1                     -1.34609         9.41102
5.12                    -1.38152         6.26023
5.14                    -1.41798         3.03967
5.16                     -1.4555        -0.25028
5.18                    -1.49409        -3.60897
5.2                     -1.53371        -7.03545
5.22                    -1.57431        -10.5285
5.24                    -1.61578        -14.0866
5.26                    -1.65801        -17.7079
5.28                    -1.70084        -21.3905
5.3                     -1.74409         -25.132
5.32                    -1.78757        -28.9298
5.34                    -1.83106        -32.7811
5.36                    -1.87434        -36.6826
5.38                    -1.91719        -40.6309
5.4                     -1.95938        -44.6224
5.42                    -2.00068        -48.6532
5.44                    -2.04091         -52.719
5.46                    -2.07985        -56.8154
5.48                    -2.11735        -60.9378
5.5                     -2.15327        -65.0815
5.52                     -2.1875        -69.2415
5.54                    -2.21996        -73.4129
5.56                    -2.25062        -77.5904
5.58                    -2.27947        -81.7689
5.6                     -2.30655        -85.9434
5.62                    -2.33193        -90.1087
5.64                    -2.35571        -94.2599
5.66                    -2.37804        -98.3921
5.68                    -2.39907        -102.501
5.7                       -2.419        -106.581
5.72                    -2.43801        -110.628
5.74                    -2.45634         -114.64
5.76                    -2.47419         -118.61
5.78                    -2.49179        -122.537
5.8                     -2.50937        -126.417
5.82                    -2.52712        -130.247
5.84                    -2.54525        -134.024
5.86                    -2.56392        -137.746
5.88                     -2.5833        -141.412
5.9                     -2.60351        -145.019
5.92                    -2.62466        -148.567
5.94                    -2.64684        -152.055
5.96                     -2.6701        -155.481
5.98                    -2.69447        -158.846
6                       -2.71998         -162.15
6.02                    -2.74662        -165.394
6.04                    -2.77439        -168.578
6.06                    -2.80328        -171.704
6.08                    -2.83328        -174.772
6.1                     -2.86441        -177.786
6.12                    -2.89669         179.253
6.14                     -2.9302         176.343
6.16                    -2.96505         173.481
6.18                    -3.00139         170.664
6.2                     -3.03944         167.891
6.22                    -3.07949         165.157
6.24                    -3.12189         162.462
6.26                    -3.16707         159.802
6.28                    -3.21554         157.177
6.3                     -3.26786         154.586
6.32                    -3.32468         152.027
6.34                    -3.38668         149.503
6.36                    -3.45457         147.015
6.38                    -3.52908         144.566
6.4                     -3.61091         142.161
6.42                    -3.70069         139.807
6.44                    -3.79896         137.512
6.46                    -3.90605         135.286
6.48                    -4.02203         133.142
6.5                     -4.14661         131.094
