! TOUCHSTONE file generated by CST MICROWAVE STUDIO
! Date and time: Fri Oct 28 07:39:33 2022
! Project name: L.cst
! Parameters = {Di=1.27; Epsilon_r=1.56; InnerDiameter=1.27; Length=2; Lf=10; Lg=60; OuterConductorThickness=0.2921; OuterDiameter=3.6; Wf=3; Wp=41.2; de=1.5; df=6.8; g=0.8; gx=3.68225; gy=3.77545; h=2.34; hf=1.524; px=8.44159; py=8.60431; w=9.7; wx=4.75934; wy=4.82886}
! Header version: 2018
! Port assignment regex: !\s*Touchstone port\s*([0-9]+)\s*=\s*(CST MWS port|CST DS port)\s*([0-9]+|Zmin|Zmax)\s*\(\"(.*)\"\)(\s*mode\s*([0-9]+))?.*
! Touchstone port assignment:
! Touchstone port 1 = CST MWS port 1 ("")
# GHz S DB R 50
4.5                    -0.285935         96.1104
4.52                   -0.293099         94.7109
4.54                   -0.300416          93.302
4.56                   -0.307892         91.8834
4.58                    -0.31553         90.4553
4.6                    -0.323329         89.0175
4.62                   -0.331289         87.5699
4.64                   -0.339408         86.1126
4.66                   -0.347682         84.6454
4.68                    -0.35611         83.1682
4.7                    -0.364687          81.681
4.72                   -0.373409         80.1838
4.74                   -0.382272         78.6764
4.76                   -0.391274         77.1587
4.78                   -0.400411         75.6307
4.8                     -0.40968         74.0923
4.82                   -0.419079         72.5434
4.84                   -0.428606          70.984
4.86                   -0.438259         69.4139
4.88                   -0.448039         67.8332
4.9                    -0.457943         66.2418
4.92                   -0.467973         64.6396
4.94                   -0.478129         63.0267
4.96                   -0.488409          61.403
4.98                   -0.498817         59.7684
5                       -0.50935         58.1231
5.02                   -0.520012          56.467
5.04                     -0.5308         54.8002
5.06                   -0.541717         53.1226
5.08                   -0.552761         51.4345
5.1                    -0.563933         49.7358
5.12                   -0.575231         48.0266
5.14                   -0.586654         46.3071
5.16                   -0.598202         44.5773
5.18                   -0.609871         42.8374
5.2                    -0.621659         41.0876
5.22                   -0.633561         39.3279
5.24                   -0.645576         37.5586
5.26                   -0.657698           35.78
5.28                   -0.669921          33.992
5.3                    -0.682242         32.1951
5.32                   -0.694652         30.3894
5.34                   -0.707146         28.5751
5.36                   -0.719715         26.7526
5.38                   -0.732353         24.9221
5.4                     -0.74505         23.0838
5.42                   -0.757799         21.2382
5.44                   -0.770591         19.3854
5.46                   -0.783414         17.5259
5.48                   -0.796261           15.66
5.5                    -0.809121         13.7879
5.52                   -0.821983         11.9101
5.54                   -0.834837          10.027
5.56                   -0.847674         8.13888
5.58                    -0.86048         6.24619
5.6                    -0.873246          4.3493
5.62                   -0.885962         2.44865
5.64                   -0.898614        0.544648
5.66                   -0.911192        -1.36228
5.68                   -0.923686        -3.27169
5.7                    -0.936084        -5.18315
5.72                   -0.948374         -7.0962
5.74                   -0.960547        -9.01039
5.76                   -0.972588        -10.9252
5.78                   -0.984489        -12.8403
5.8                    -0.996237        -14.7552
5.82                    -1.00782        -16.6693
5.84                    -1.01923        -18.5822
5.86                    -1.03045        -20.4935
5.88                    -1.04148        -22.4027
5.9                     -1.05229        -24.3093
5.92                    -1.06288        -26.2129
5.94                    -1.07324         -28.113
5.96                    -1.08335        -30.0092
5.98                     -1.0932         -31.901
6                       -1.10279        -33.7881
6.02                    -1.11209        -35.6699
6.04                     -1.1211        -37.5461
6.06                    -1.12981        -39.4164
6.08                     -1.1382        -41.2803
6.1                     -1.14626        -43.1374
6.12                    -1.15398        -44.9876
6.14                    -1.16136        -46.8303
6.16                    -1.16838        -48.6654
6.18                    -1.17503        -50.4926
6.2                     -1.18132        -52.3115
6.22                    -1.18723        -54.1221
6.24                    -1.19276         -55.924
6.26                     -1.1979         -57.717
6.28                    -1.20267        -59.5011
6.3                     -1.20706         -61.276
6.32                    -1.21107        -63.0415
6.34                    -1.21473        -64.7977
6.36                    -1.21803        -66.5443
6.38                    -1.22099        -68.2813
6.4                     -1.22363        -70.0086
6.42                    -1.22597        -71.7261
6.44                    -1.22803        -73.4336
6.46                    -1.22985        -75.1312
6.48                    -1.23144        -76.8186
6.5                     -1.23284        -78.4958
