! TOUCHSTONE file generated by CST MICROWAVE STUDIO
! Date and time: Sat Oct 29 16:44:46 2022
! Project name: L.cst
! Parameters = {Di=1.27; Epsilon_r=1.56; InnerDiameter=1.27; Length=2; Lf=10; Lg=60; OuterConductorThickness=0.2921; OuterDiameter=3.6; Wf=3; Wp=41.2; de=1.5; df=6.8; g=0.8; gx=1.47396; gy=4.29841; h=2.34; hf=1.524; px=12.6222; py=9.55015; w=9.7; wx=11.1482; wy=5.25175}
! Header version: 2018
! Port assignment regex: !\s*Touchstone port\s*([0-9]+)\s*=\s*(CST MWS port|CST DS port)\s*([0-9]+|Zmin|Zmax)\s*\(\"(.*)\"\)(\s*mode\s*([0-9]+))?.*
! Touchstone port assignment:
! Touchstone port 1 = CST MWS port 1 ("")
# GHz S DB R 50
4.5                     -1.07447         86.2323
4.52                    -1.12389         84.5418
4.54                    -1.17415         82.7897
4.56                    -1.23137         80.9867
4.58                    -1.29749         79.1688
4.6                     -1.36938         77.3635
4.62                    -1.44217         75.5684
4.64                    -1.51374         73.7562
4.66                     -1.5863         71.9007
4.68                    -1.66421         69.9986
4.7                     -1.75026         68.0701
4.72                    -1.84366          66.139
4.74                    -1.94127         64.2129
4.76                    -2.04066         62.2786
4.78                    -2.14234         60.3153
4.8                     -2.24925         58.3135
4.82                    -2.36431         56.2829
4.84                    -2.48817         54.2429
4.86                    -2.61908         52.2069
4.88                    -2.75473         50.1718
4.9                     -2.89455         48.1232
4.92                     -3.0403         46.0495
4.94                    -3.19473         43.9532
4.96                    -3.35939         41.8501
4.98                     -3.5336          39.757
5                       -3.71536         37.6796
5.02                    -3.90329         35.6102
5.04                    -4.09808         33.5378
5.06                    -4.30201         31.4607
5.08                    -4.51711         29.3914
5.1                     -4.74352         27.3498
5.12                    -4.97942         25.3498
5.14                    -5.22261         23.3918
5.16                    -5.47241         21.4671
5.18                    -5.73015         19.5707
5.2                     -5.99784         17.7118
5.22                    -6.27604         15.9124
5.24                    -6.56277         14.1944
5.26                     -6.8545          12.567
5.28                    -7.14842         11.0236
5.3                     -7.44398         9.55415
5.32                    -7.74225         8.16037
5.34                    -8.04343          6.8612
5.36                    -8.34468         5.68151
5.38                    -8.64025          4.6327
5.4                     -8.92408          3.7017
5.42                    -9.19273          2.8594
5.44                    -9.44596         2.08214
5.46                    -9.68401          1.3661
5.48                    -9.90428        0.719372
5.5                     -10.1004        0.136329
5.52                    -10.2654       -0.422655
5.54                    -10.3964        -1.02513
5.56                    -10.4962        -1.73643
5.58                    -10.5708        -2.59221
5.6                     -10.6242        -3.59971
5.62                    -10.6561        -4.76685
5.64                    -10.6643        -6.13179
5.66                    -10.6503        -7.76392
5.68                    -10.6224        -9.73261
5.7                     -10.5936        -12.0708
5.72                     -10.576        -14.7659
5.74                    -10.5758        -17.7853
5.76                    -10.5945        -21.1155
5.78                    -10.6336        -24.7819
5.8                     -10.7011        -28.8304
5.82                    -10.8123        -33.2817
5.84                    -10.9856        -38.0913
5.86                    -11.2344        -43.1414
5.88                    -11.5592        -48.2737
5.9                     -11.9461        -53.3443
5.92                    -12.3694        -58.2749
5.94                    -12.7995        -63.0671
5.96                    -13.2072        -67.7675
5.98                    -13.5577        -72.4195
6                       -13.7958        -77.0882
6.02                    -13.8381        -82.0133
6.04                    -13.5976        -87.7918
6.06                    -13.0371        -95.3144
6.08                    -12.1983        -105.354
6.1                     -11.1731        -118.172
6.12                     -10.055        -133.475
6.14                    -8.91811        -150.636
6.16                    -7.82154        -168.927
6.18                    -6.81705         172.327
6.2                     -5.95093         153.686
6.22                    -5.26067         135.598
6.24                    -4.76998         118.435
6.26                    -4.48315         102.532
6.28                    -4.37823         88.1973
6.3                     -4.40009         75.6598
6.32                    -4.46129          64.929
6.34                    -4.46709         55.6159
6.36                    -4.36926         46.9227
6.38                    -4.21022         37.9766
6.4                     -4.10942         28.2889
6.42                    -4.20905         17.9622
6.44                    -4.63023         7.64927
6.46                    -5.44639        -1.46415
6.48                    -6.62625        -7.53938
6.5                     -7.86459        -8.34156
