! TOUCHSTONE file generated by CST MICROWAVE STUDIO
! Date and time: Sun Oct 30 01:23:37 2022
! Project name: L.cst
! Parameters = {Di=1.27; Epsilon_r=1.56; InnerDiameter=1.27; Length=2; Lf=10; Lg=60; OuterConductorThickness=0.2921; OuterDiameter=3.6; Wf=3; Wp=41.2; de=1.5; df=6.8; g=0.8; gx=2.40609; gy=3.76708; h=2.34; hf=1.524; px=9.38518; py=10.8921; w=9.7; wx=6.97909; wy=7.12502}
! Header version: 2018
! Port assignment regex: !\s*Touchstone port\s*([0-9]+)\s*=\s*(CST MWS port|CST DS port)\s*([0-9]+|Zmin|Zmax)\s*\(\"(.*)\"\)(\s*mode\s*([0-9]+))?.*
! Touchstone port assignment:
! Touchstone port 1 = CST MWS port 1 ("")
# GHz S DB R 50
4.5                    -0.381438         93.0238
4.52                   -0.391939         91.6078
4.54                   -0.402726          90.181
4.56                   -0.413811         88.7433
4.58                   -0.425203         87.2948
4.6                    -0.436908         85.8353
4.62                   -0.448929         84.3648
4.64                   -0.461265         82.8833
4.66                   -0.473917         81.3905
4.68                   -0.486882         79.8865
4.7                    -0.500156         78.3711
4.72                   -0.513738         76.8442
4.74                   -0.527624         75.3057
4.76                   -0.541811         73.7555
4.78                   -0.556297         72.1933
4.8                     -0.57108         70.6192
4.82                    -0.58616         69.0329
4.84                   -0.601535         67.4344
4.86                   -0.617207         65.8234
4.88                   -0.633179         64.1998
4.9                    -0.649451         62.5636
4.92                   -0.666028         60.9146
4.94                   -0.682914         59.2528
4.96                   -0.700112         57.5779
4.98                   -0.717628         55.8901
5                      -0.735466         54.1891
5.02                   -0.753633         52.4749
5.04                   -0.772132         50.7475
5.06                   -0.790969         49.0069
5.08                   -0.810149         47.2531
5.1                    -0.829675          45.486
5.12                   -0.849551         43.7058
5.14                    -0.86978         41.9124
5.16                   -0.890365          40.106
5.18                   -0.911307         38.2866
5.2                    -0.932606         36.4543
5.22                   -0.954261         34.6092
5.24                   -0.976271         32.7514
5.26                   -0.998633         30.8813
5.28                    -1.02134         28.9988
5.3                      -1.0444         27.1042
5.32                    -1.06778         25.1976
5.34                     -1.0915         23.2794
5.36                    -1.11554         21.3497
5.38                    -1.13989         19.4089
5.4                     -1.16455         17.4571
5.42                    -1.18949         15.4948
5.44                     -1.2147         13.5221
5.46                    -1.24018         11.5395
5.48                    -1.26591         9.54724
5.5                     -1.29187         7.54573
5.52                    -1.31805         5.53533
5.54                    -1.34442         3.51644
5.56                    -1.37098         1.48947
5.58                     -1.3977       -0.545149
5.6                     -1.42456        -2.58698
5.62                    -1.45155        -4.63557
5.64                    -1.47865        -6.69045
5.66                    -1.50583        -8.75113
5.68                    -1.53307        -10.8171
5.7                     -1.56035        -12.8879
5.72                    -1.58766         -14.963
5.74                    -1.61496        -17.0418
5.76                    -1.64224        -19.1237
5.78                    -1.66948        -21.2084
5.8                     -1.69664        -23.2952
5.82                    -1.72372        -25.3835
5.84                    -1.75068        -27.4727
5.86                     -1.7775        -29.5624
5.88                    -1.80416        -31.6519
5.9                     -1.83064        -33.7407
5.92                     -1.8569        -35.8281
5.94                    -1.88293        -37.9137
5.96                    -1.90869        -39.9969
5.98                    -1.93418        -42.0771
6                       -1.95936        -44.1538
6.02                     -1.9842        -46.2265
6.04                    -2.00868        -48.2946
6.06                    -2.03279        -50.3577
6.08                    -2.05648        -52.4154
6.1                     -2.07975        -54.4671
6.12                    -2.10257        -56.5125
6.14                    -2.12491        -58.5511
6.16                    -2.14676        -60.5826
6.18                    -2.16809        -62.6068
6.2                      -2.1889        -64.6232
6.22                    -2.20916        -66.6316
6.24                    -2.22887        -68.6318
6.26                    -2.24802        -70.6235
6.28                    -2.26661        -72.6067
6.3                     -2.28462        -74.5812
6.32                    -2.30208        -76.5469
6.34                    -2.31898        -78.5036
6.36                    -2.33535        -80.4515
6.38                    -2.35121        -82.3903
6.4                     -2.36658        -84.3201
6.42                    -2.38149        -86.2409
6.44                      -2.396        -88.1527
6.46                    -2.41014        -90.0554
6.48                    -2.42396        -91.9491
6.5                     -2.43753        -93.8335
