! TOUCHSTONE file generated by CST MICROWAVE STUDIO
! Date and time: Wed Oct 26 18:55:05 2022
! Project name: L.cst
! Parameters = {Di=1.27; Epsilon_r=1.56; InnerDiameter=1.27; Length=2; Lf=10; Lg=60; OuterConductorThickness=0.2921; OuterDiameter=3.6; Wf=3; Wp=41.2; de=1.5; df=6.8; g=0.8; gx=1.1108; gy=2.252; h=2.34; hf=1.524; px=11.8869; py=11.1642; w=9.7; wx=10.7761; wy=8.91221}
! Header version: 2018
! Port assignment regex: !\s*Touchstone port\s*([0-9]+)\s*=\s*(CST MWS port|CST DS port)\s*([0-9]+|Zmin|Zmax)\s*\(\"(.*)\"\)(\s*mode\s*([0-9]+))?.*
! Touchstone port assignment:
! Touchstone port 1 = CST MWS port 1 ("")
# GHz S DB R 50
4.5                     -2.87558          62.215
4.52                     -3.0769         60.1263
4.54                     -3.2866          58.064
4.56                    -3.50313         56.0125
4.58                    -3.72675         53.9533
4.6                     -3.95943         51.8711
4.62                    -4.20432         49.7593
4.64                    -4.46495         47.6218
4.66                    -4.74438         45.4729
4.68                    -5.04465         43.3338
4.7                     -5.36638         41.2288
4.72                    -5.70891         39.1803
4.74                    -6.07058         37.2055
4.76                    -6.44941         35.3141
4.78                    -6.84368         33.5088
4.8                     -7.25253         31.7877
4.82                    -7.67622         30.1486
4.84                    -8.11605         28.5932
4.86                    -8.57396         27.1318
4.88                     -9.0518         25.7851
4.9                      -9.5505         24.5837
4.92                    -10.0694         23.5662
4.94                    -10.6055         22.7736
4.96                    -11.1538         22.2438
4.98                    -11.7069          22.005
5                       -12.2564         22.0714
5.02                    -12.7931         22.4411
5.04                    -13.3088         23.0979
5.06                    -13.7959          24.016
5.08                    -14.2483         25.1652
5.1                     -14.6598         26.5136
5.12                     -15.024         28.0256
5.14                    -15.3338         29.6543
5.16                    -15.5819         31.3333
5.18                    -15.7629         32.9709
5.2                     -15.8753         34.4549
5.22                    -15.9235         35.6664
5.24                    -15.9174         36.4992
5.26                    -15.8713         36.8761
5.28                     -15.801         36.7563
5.3                     -15.7206         36.1315
5.32                    -15.6415         35.0156
5.34                    -15.5712         33.4307
5.36                    -15.5135         31.3951
5.38                    -15.4694         28.9136
5.4                     -15.4384         25.9736
5.42                    -15.4194          22.544
5.44                    -15.4114          18.579
5.46                    -15.4136         14.0225
5.48                     -15.425          8.8146
5.5                     -15.4433          2.8969
5.52                    -15.4636        -3.78238
5.54                     -15.477        -11.2626
5.56                    -15.4698        -19.5632
5.58                    -15.4227        -28.6723
5.6                     -15.3129        -38.5344
5.62                    -15.1168        -49.0391
5.64                    -14.8145        -60.0208
5.66                    -14.3955        -71.2745
5.68                    -13.8612        -82.5879
5.7                     -13.2254        -93.7774
5.72                    -12.5107        -104.714
5.74                    -11.7441        -115.329
5.76                    -10.9525        -125.607
5.78                    -10.1605        -135.567
5.8                     -9.38882        -145.245
5.82                     -8.6542        -154.679
5.84                    -7.96984        -163.904
5.86                    -7.34569        -172.944
5.88                    -6.78901         178.188
5.9                     -6.30471         169.489
5.92                    -5.89562         160.968
5.94                    -5.56264         152.641
5.96                    -5.30478         144.531
5.98                    -5.11918         136.665
6                       -5.00107         129.071
6.02                    -4.94371         121.774
6.04                    -4.93849         114.795
6.06                    -4.97526         108.139
6.08                    -5.04286         101.797
6.1                     -5.13012         95.7382
6.12                    -5.22714         89.9112
6.14                    -5.32661         84.2461
6.16                    -5.42486         78.6624
6.18                    -5.52227         73.0798
6.2                     -5.62278         67.4285
6.22                    -5.73267         61.6577
6.24                    -5.85896         55.7382
6.26                     -6.0077          49.661
6.28                    -6.18269         43.4291
6.3                     -6.38465         37.0491
6.32                    -6.61107         30.5191
6.34                    -6.85674         23.8171
6.36                      -7.115         16.8919
6.38                    -7.37948         9.65718
6.4                     -7.64598         1.99304
6.42                    -7.91395        -6.24682
6.44                    -8.18681        -15.2225
6.46                    -8.47093        -25.0942
6.48                    -8.77318        -36.0114
6.5                     -9.09765        -48.1042
