! TOUCHSTONE file generated by CST MICROWAVE STUDIO
! Date and time: Thu Oct 27 06:03:28 2022
! Project name: L.cst
! Parameters = {Di=1.27; Epsilon_r=1.56; InnerDiameter=1.27; Length=2; Lf=10; Lg=60; OuterConductorThickness=0.2921; OuterDiameter=3.6; Wf=3; Wp=41.2; de=1.5; df=6.8; g=0.8; gx=0.9097; gy=3.24795; h=2.34; hf=1.524; px=8.39498; py=13.7446; w=9.7; wx=7.48528; wy=10.4966}
! Header version: 2018
! Port assignment regex: !\s*Touchstone port\s*([0-9]+)\s*=\s*(CST MWS port|CST DS port)\s*([0-9]+|Zmin|Zmax)\s*\(\"(.*)\"\)(\s*mode\s*([0-9]+))?.*
! Touchstone port assignment:
! Touchstone port 1 = CST MWS port 1 ("")
# GHz S DB R 50
4.5                    -0.615201         85.2007
4.52                   -0.611862         83.8094
4.54                   -0.615843         82.2013
4.56                   -0.649688         80.5743
4.58                   -0.691678         79.1071
4.6                    -0.712257         77.7108
4.62                   -0.716972         76.1882
4.64                   -0.734048         74.5279
4.66                   -0.771527         72.8949
4.68                   -0.808526         71.3757
4.7                    -0.828236          69.864
4.72                   -0.841526         68.2339
4.74                   -0.868288         66.5215
4.76                   -0.908153          64.855
4.78                   -0.943184         63.2617
4.8                    -0.965322         61.6387
4.82                   -0.987096         59.9127
4.84                    -1.02169         58.1422
4.86                      -1.064         56.4215
4.88                    -1.09958         54.7413
4.9                     -1.12626         53.0104
4.92                     -1.1564         51.1934
4.94                    -1.19796         49.3577
4.96                    -1.24334         47.5682
4.98                    -1.28144         45.7933
5                       -1.31411         43.9564
5.02                     -1.3527         42.0502
5.04                    -1.40103          40.143
5.06                    -1.45021         38.2754
5.08                    -1.49227         36.4014
5.1                     -1.53187         34.4594
5.12                    -1.57902         32.4634
5.14                    -1.63421         30.4796
5.16                    -1.68795         28.5274
5.18                    -1.73506         26.5514
5.2                     -1.78231         24.5048
5.22                    -1.83822         22.4186
5.24                    -1.90044         20.3545
5.26                     -1.9593         18.3132
5.28                    -2.01227         16.2328
5.3                     -2.06779         14.0812
5.32                    -2.13279         11.9042
5.34                    -2.20227         9.75791
5.36                    -2.26663         7.62436
5.38                    -2.32607         5.43666
5.4                     -2.39062         3.17866
5.42                    -2.46532        0.911012
5.44                    -2.54244        -1.31766
5.46                    -2.61266        -3.54534
5.48                    -2.67928        -5.84323
5.5                     -2.75392        -8.20857
5.52                    -2.83931        -10.5644
5.54                    -2.92451        -12.8722
5.56                    -3.00079        -15.1944
5.58                    -3.07532        -17.6056
5.6                     -3.16146        -20.0784
5.62                    -3.25867        -22.5167
5.64                    -3.35198        -24.8978
5.66                    -3.43382         -27.317
5.68                    -3.51683         -29.851
5.7                     -3.61631        -32.4368
5.72                    -3.72664        -34.9542
5.74                    -3.82736         -37.409
5.76                    -3.91361        -39.9445
5.78                    -4.00644        -42.6357
5.8                     -4.12339        -45.3627
5.82                    -4.25035        -47.9739
5.84                    -4.35896        -50.5289
5.86                    -4.45059        -53.2479
5.88                    -4.56067        -56.1912
5.9                     -4.70906        -59.1393
5.92                    -4.86609        -61.8994
5.94                    -4.99151        -64.6416
5.96                    -5.10187        -67.7227
5.98                    -5.26086        -71.1562
6                       -5.49157        -74.5254
6.02                    -5.73338        -77.5739
6.04                    -5.92689        -80.7345
6.06                    -6.13364        -84.6651
6.08                    -6.49522        -89.2442
6.1                     -7.06059        -93.5301
6.12                    -7.70973        -97.0212
6.14                    -8.37009         -100.92
6.16                    -9.39579        -106.866
6.18                    -11.6827        -113.327
6.2                     -16.7714        -106.236
6.22                    -17.1488        -42.6269
6.24                    -10.1192        -32.6184
6.26                    -6.28528        -45.8324
6.28                    -4.41791        -62.9413
6.3                     -3.86991        -79.5035
6.32                    -4.23954        -92.8733
6.34                    -5.01644        -101.212
6.36                    -5.56017        -105.468
6.38                    -5.68598        -109.704
6.4                     -5.82841        -115.848
6.42                    -6.27527        -121.969
6.44                    -6.78956        -125.997
6.46                    -6.96525        -129.294
6.48                    -6.92583        -135.073
6.5                     -7.12904        -143.389
