! TOUCHSTONE file generated by CST MICROWAVE STUDIO
! Date and time: Thu Oct 27 13:17:22 2022
! Project name: L.cst
! Parameters = {Di=1.27; Epsilon_r=1.56; InnerDiameter=1.27; Length=2; Lf=10; Lg=60; OuterConductorThickness=0.2921; OuterDiameter=3.6; Wf=3; Wp=41.2; de=1.5; df=6.8; g=0.8; gx=4.8715; gy=2.91223; h=2.34; hf=1.524; px=12.9834; py=12.1772; w=9.7; wx=8.11186; wy=9.26501}
! Header version: 2018
! Port assignment regex: !\s*Touchstone port\s*([0-9]+)\s*=\s*(CST MWS port|CST DS port)\s*([0-9]+|Zmin|Zmax)\s*\(\"(.*)\"\)(\s*mode\s*([0-9]+))?.*
! Touchstone port assignment:
! Touchstone port 1 = CST MWS port 1 ("")
# GHz S DB R 50
4.5                    -0.469535         91.5264
4.52                   -0.480691         89.9545
4.54                   -0.493415         88.3602
4.56                   -0.507731         86.7447
4.58                   -0.523621         85.1089
4.6                    -0.541035         83.4535
4.62                   -0.559897         81.7791
4.64                   -0.580117         80.0861
4.66                    -0.60159         78.3746
4.68                    -0.62421         76.6445
4.7                    -0.647867         74.8955
4.72                   -0.672458         73.1271
4.74                   -0.697888         71.3389
4.76                   -0.724071           69.53
4.78                   -0.750936         67.6995
4.8                    -0.778425         65.8466
4.82                   -0.806495         63.9702
4.84                    -0.83512         62.0691
4.86                   -0.864285         60.1425
4.88                   -0.893994         58.1891
4.9                    -0.924261         56.2078
4.92                   -0.955115         54.1976
4.94                   -0.986593         52.1575
4.96                    -1.01874         50.0863
4.98                    -1.05162         47.9833
5                       -1.08528         45.8475
5.02                    -1.11979         43.6781
5.04                    -1.15521         41.4744
5.06                    -1.19161         39.2356
5.08                    -1.22905         36.9612
5.1                     -1.26759         34.6507
5.12                    -1.30729         32.3036
5.14                     -1.3482         29.9195
5.16                    -1.39035         27.4982
5.18                    -1.43379         25.0392
5.2                     -1.47854         22.5426
5.22                    -1.52462         20.0082
5.24                    -1.57204         17.4358
5.26                    -1.62078         14.8256
5.28                    -1.67084         12.1776
5.3                     -1.72219         9.49198
5.32                    -1.77481         6.76887
5.34                    -1.82863         4.00857
5.36                     -1.8836          1.2114
5.38                    -1.93966        -1.62225
5.4                     -1.99673        -4.49192
5.42                    -2.05472        -7.39708
5.44                    -2.11353        -10.3371
5.46                    -2.17307        -13.3114
5.48                    -2.23322        -16.3192
5.5                     -2.29386        -19.3596
5.52                    -2.35487        -22.4317
5.54                    -2.41613        -25.5345
5.56                    -2.47749         -28.667
5.58                    -2.53882         -31.828
5.6                         -2.6        -35.0161
5.62                    -2.66088        -38.2301
5.64                    -2.72133        -41.4685
5.66                    -2.78122        -44.7298
5.68                    -2.84042        -48.0123
5.7                      -2.8988        -51.3143
5.72                    -2.95626        -54.6341
5.74                    -3.01268        -57.9699
5.76                    -3.06795        -61.3195
5.78                    -3.12199        -64.6813
5.8                      -3.1747        -68.0531
5.82                    -3.22603        -71.4329
5.84                     -3.2759        -74.8187
5.86                    -3.32425        -78.2084
5.88                    -3.37105        -81.5999
5.9                     -3.41626        -84.9912
5.92                    -3.45986        -88.3804
5.94                    -3.50183        -91.7655
5.96                    -3.54215        -95.1446
5.98                    -3.58084         -98.516
6                        -3.6179        -101.878
6.02                    -3.65332        -105.229
6.04                    -3.68714        -108.568
6.06                    -3.71936        -111.893
6.08                       -3.75        -115.204
6.1                     -3.77909          -118.5
6.12                    -3.80664        -121.779
6.14                    -3.83267        -125.042
6.16                    -3.85721        -128.288
6.18                    -3.88028        -131.518
6.2                     -3.90191        -134.732
6.22                    -3.92213         -137.93
6.24                    -3.94097        -141.113
6.26                    -3.95849        -144.283
6.28                    -3.97475        -147.441
6.3                     -3.98981        -150.589
6.32                    -4.00376        -153.729
6.34                    -4.01673        -156.863
6.36                    -4.02885        -159.995
6.38                    -4.04031        -163.126
6.4                     -4.05131        -166.262
6.42                    -4.06212        -169.404
6.44                    -4.07304        -172.556
6.46                    -4.08443        -175.723
6.48                     -4.0967        -178.909
6.5                     -4.11033         177.883
