! TOUCHSTONE file generated by CST MICROWAVE STUDIO
! Date and time: Sat Oct 29 03:59:50 2022
! Project name: L.cst
! Parameters = {Di=1.27; Epsilon_r=1.56; InnerDiameter=1.27; Length=2; Lf=10; Lg=60; OuterConductorThickness=0.2921; OuterDiameter=3.6; Wf=3; Wp=41.2; de=1.5; df=6.8; g=0.8; gx=3.06625; gy=2.63902; h=2.34; hf=1.524; px=13.4004; py=9.94742; w=9.7; wx=10.3342; wy=7.30841}
! Header version: 2018
! Port assignment regex: !\s*Touchstone port\s*([0-9]+)\s*=\s*(CST MWS port|CST DS port)\s*([0-9]+|Zmin|Zmax)\s*\(\"(.*)\"\)(\s*mode\s*([0-9]+))?.*
! Touchstone port assignment:
! Touchstone port 1 = CST MWS port 1 ("")
# GHz S DB R 50
4.5                     -1.08982         78.2216
4.52                    -1.14238          76.322
4.54                    -1.19597         74.3692
4.56                    -1.25311         72.3607
4.58                    -1.31571         70.3039
4.6                     -1.38445         68.2108
4.62                    -1.45865         66.0915
4.64                    -1.53684         63.9497
4.66                     -1.6176         61.7813
4.68                    -1.70022         59.5763
4.7                     -1.78505         57.3239
4.72                    -1.87333         55.0163
4.74                    -1.96656         52.6519
4.76                    -2.06598         50.2346
4.78                    -2.17208         47.7706
4.8                     -2.28455         45.2658
4.82                     -2.4026         42.7218
4.84                    -2.52541         40.1356
4.86                     -2.6526         37.5007
4.88                    -2.78442         34.8093
4.9                     -2.92172         32.0558
4.92                    -3.06557         29.2384
4.94                    -3.21688         26.3591
4.96                    -3.37601         23.4221
4.98                    -3.54278         20.4316
5                       -3.71652          17.389
5.02                    -3.89648         14.2922
5.04                    -4.08212         11.1361
5.06                    -4.27338         7.91421
5.08                    -4.47064         4.62128
5.1                     -4.67451         1.25488
5.12                    -4.88549        -2.18398
5.14                    -5.10364        -5.69178
5.16                    -5.32847         -9.2645
5.18                    -5.55893        -12.8998
5.2                     -5.79372        -16.5983
5.22                    -6.03158        -20.3639
5.24                    -6.27163         -24.202
5.26                    -6.51337        -28.1177
5.28                    -6.75667        -32.1131
5.3                     -7.00133        -36.1865
5.32                    -7.24682        -40.3321
5.34                    -7.49198         -44.542
5.36                    -7.73503        -48.8085
5.38                    -7.97371        -53.1263
5.4                     -8.20575         -57.493
5.42                    -8.42927        -61.9089
5.44                    -8.64303        -66.3741
5.46                    -8.84649        -70.8859
5.48                    -9.03952        -75.4365
5.5                       -9.222        -80.0121
5.52                    -9.39337         -84.595
5.54                    -9.55243        -89.1665
5.56                    -9.69749        -93.7106
5.58                    -9.82676        -98.2169
5.6                     -9.93899        -102.681
5.62                     -10.034        -107.104
5.64                    -10.1127        -111.485
5.66                    -10.1773        -115.821
5.68                    -10.2301        -120.102
5.7                     -10.2729        -124.315
5.72                    -10.3066        -128.442
5.74                     -10.331        -132.472
5.76                     -10.345        -136.403
5.78                    -10.3478        -140.245
5.8                     -10.3399        -144.016
5.82                    -10.3236        -147.741
5.84                    -10.3033        -151.438
5.86                    -10.2843        -155.114
5.88                    -10.2718        -158.762
5.9                     -10.2699        -162.365
5.92                    -10.2805        -165.904
5.94                    -10.3039        -169.364
5.96                    -10.3399        -172.744
5.98                    -10.3894        -176.052
6                       -10.4559        -179.301
6.02                    -10.5455         177.507
6.04                    -10.6661         174.397
6.06                    -10.8248         171.427
6.08                    -11.0244         168.684
6.1                      -11.261          166.27
6.12                    -11.5223         164.272
6.14                    -11.7902         162.728
6.16                    -12.0466         161.601
6.18                    -12.2816         160.795
6.2                     -12.5006         160.207
6.22                    -12.7224         159.816
6.24                     -12.968         159.757
6.26                      -13.24         160.334
6.28                    -13.4992         161.933
6.3                     -13.6494         164.778
6.32                    -13.5593         168.571
6.34                    -13.1438         172.322
6.36                    -12.4452         174.819
6.38                    -11.6117         175.354
6.4                      -10.804         173.954
6.42                    -10.1352         171.107
6.44                    -9.66303         167.477
6.46                    -9.39899         163.756
6.48                    -9.31198         160.615
6.5                     -9.32285         158.613
