! TOUCHSTONE file generated by CST MICROWAVE STUDIO
! Date and time: Fri Oct 28 14:24:34 2022
! Project name: L.cst
! Parameters = {Di=1.27; Epsilon_r=1.56; InnerDiameter=1.27; Length=2; Lf=10; Lg=60; OuterConductorThickness=0.2921; OuterDiameter=3.6; Wf=3; Wp=41.2; de=1.5; df=6.8; g=0.8; gx=0.913897; gy=2.56046; h=2.34; hf=1.524; px=13.906; py=9.90108; w=9.7; wx=12.9921; wy=7.34062}
! Header version: 2018
! Port assignment regex: !\s*Touchstone port\s*([0-9]+)\s*=\s*(CST MWS port|CST DS port)\s*([0-9]+|Zmin|Zmax)\s*\(\"(.*)\"\)(\s*mode\s*([0-9]+))?.*
! Touchstone port assignment:
! Touchstone port 1 = CST MWS port 1 ("")
# GHz S DB R 50
4.5                     -7.57893         108.572
4.52                    -7.28687         108.706
4.54                    -7.03785         108.432
4.56                    -6.77848         108.017
4.58                    -6.53169         107.107
4.6                     -6.32376         106.065
4.62                    -6.11167         104.794
4.64                    -5.93822         103.233
4.66                    -5.78298         101.636
4.68                    -5.63628         99.7747
4.7                     -5.52585         97.7748
4.72                    -5.42141          95.666
4.74                    -5.34138         93.2924
4.76                    -5.28979         90.8231
4.78                    -5.24899         88.1415
4.8                     -5.24395         85.2241
4.82                    -5.26174         82.1557
4.84                    -5.30484         78.7683
4.86                    -5.39147         75.1143
4.88                    -5.50799         71.1426
4.9                     -5.67459         66.7009
4.92                    -5.90073         61.8159
4.94                    -6.18724         56.2862
4.96                    -6.56842         49.9448
4.98                    -7.05534         42.6444
5                       -7.67274         33.9352
5.02                    -8.46239         23.3533
5.04                    -9.42208         10.0863
5.06                    -10.5111        -7.30361
5.08                    -11.5074        -30.3642
5.1                     -11.8339        -59.2924
5.12                    -10.9962        -90.0076
5.14                    -9.31536        -116.913
5.16                    -7.44512        -138.696
5.18                    -5.75299        -156.778
5.2                     -4.37213        -172.606
5.22                    -3.38319         172.979
5.24                    -2.84023         160.403
5.26                    -2.57078         150.466
5.28                    -2.36389         142.556
5.3                     -2.17326         135.773
5.32                    -2.00553         129.734
5.34                    -1.85753         124.211
5.36                    -1.73747         119.061
5.38                    -1.64255         114.251
5.4                     -1.56856          109.68
5.42                    -1.52187         105.325
5.44                    -1.49455         101.172
5.46                    -1.49126         97.1377
5.48                    -1.52425         93.2636
5.5                     -1.60335          89.651
5.52                      -1.722         86.7811
5.54                    -1.68378         84.7744
5.56                    -1.49238         81.6628
5.58                     -1.3913         77.7158
5.6                     -1.36228         73.6998
5.62                    -1.37016         69.6516
5.64                    -1.40252         65.5628
5.66                    -1.44768          61.294
5.68                    -1.53032         56.6747
5.7                     -1.73018         51.7125
5.72                     -1.8682         48.7627
5.74                    -1.79583          42.583
5.76                    -1.93797         35.4793
5.78                    -2.17266         27.0464
5.8                     -2.53937         16.3903
5.82                     -3.1017         1.84003
5.84                    -4.01209        -20.1065
5.86                    -5.33052          -56.46
5.88                    -5.83194        -115.003
5.9                     -3.94122        -176.176
5.92                    -2.11568         142.063
5.94                    -1.23041         115.709
5.96                   -0.839983         98.3177
5.98                    -0.66861          85.868
6                      -0.606691         76.4772
6.02                   -0.564317         68.9619
6.04                   -0.554732         62.4875
6.06                   -0.566026         57.0135
6.08                   -0.550852         52.0112
6.1                    -0.579571         47.3185
6.12                   -0.590061         43.2512
6.14                   -0.575417         39.0062
6.16                   -0.639427         35.1041
6.18                   -0.600202         31.5642
6.2                    -0.623613          26.831
6.22                   -0.855581         23.0104
6.24                    -2.33456         31.4694
6.26                   -0.537578         21.3955
6.28                   -0.597525          15.687
6.3                    -0.684316         12.8229
6.32                   -0.588699         9.25539
6.34                    -0.66914         5.60135
6.36                   -0.656469         2.81534
6.38                   -0.623571       -0.861375
6.4                    -0.694952        -4.00698
6.42                   -0.644311        -7.03387
6.44                   -0.667758        -10.6683
6.46                   -0.703175        -13.5263
6.48                   -0.647668        -16.8766
6.5                    -0.707978        -20.2984
