! TOUCHSTONE file generated by CST MICROWAVE STUDIO
! Date and time: Fri Oct 28 04:28:45 2022
! Project name: L.cst
! Parameters = {Di=1.27; Epsilon_r=1.56; InnerDiameter=1.27; Length=2; Lf=10; Lg=60; OuterConductorThickness=0.2921; OuterDiameter=3.6; Wf=3; Wp=41.2; de=1.5; df=6.8; g=0.8; gx=4.57336; gy=0.858904; h=2.34; hf=1.524; px=11.3612; py=13.0301; w=9.7; wx=6.78779; wy=12.1712}
! Header version: 2018
! Port assignment regex: !\s*Touchstone port\s*([0-9]+)\s*=\s*(CST MWS port|CST DS port)\s*([0-9]+|Zmin|Zmax)\s*\(\"(.*)\"\)(\s*mode\s*([0-9]+))?.*
! Touchstone port assignment:
! Touchstone port 1 = CST MWS port 1 ("")
# GHz S DB R 50
4.5                    -0.628262         74.1356
4.52                   -0.720614         72.4031
4.54                   -0.672169         70.4601
4.56                   -0.720154         67.8485
4.58                    -0.78425         65.9725
4.6                    -0.749926         63.6455
4.62                    -0.81435         60.9582
4.64                    -0.85729         58.8222
4.66                    -0.84125         56.1193
4.68                   -0.913732         53.2728
4.7                    -0.943655         50.7674
4.72                    -0.94748         47.6582
4.74                    -1.02393         44.5317
4.76                    -1.04934         41.5372
4.78                     -1.0741          37.938
4.8                     -1.15518         34.3651
4.82                    -1.18608         30.7253
4.84                    -1.23559         26.4816
4.86                    -1.32887         22.2335
4.88                    -1.38016         17.7286
4.9                     -1.46644          12.594
4.92                    -1.59184         7.36366
4.94                    -1.69064         1.69418
4.96                    -1.84267         -4.6664
4.98                    -2.04096        -11.2433
5                       -2.23488         -18.411
5.02                    -2.50444        -26.3353
5.04                    -2.83664        -34.5532
5.06                    -3.18393        -43.4216
5.08                     -3.6215        -53.0523
5.1                     -4.12737        -62.9353
5.12                    -4.63852        -73.3958
5.14                    -5.22089         -84.546
5.16                    -5.84338        -95.7726
5.18                    -6.41813        -107.347
5.2                     -7.01221        -119.394
5.22                    -7.60448        -131.096
5.24                     -8.0932        -142.596
5.26                    -8.56843        -154.052
5.28                    -9.03903        -164.446
5.3                     -9.39207          -173.9
5.32                    -9.73706         177.246
5.34                    -10.0837         170.071
5.36                    -10.2785         164.208
5.38                    -10.4356          159.06
5.4                     -10.5205         155.602
5.42                    -10.3676         152.841
5.44                    -10.1442         150.082
5.46                    -9.79541         148.078
5.48                    -9.25529         145.486
5.5                     -8.74104         142.216
5.52                    -8.17855         139.015
5.54                    -7.57051           134.8
5.56                    -7.09624         130.032
5.58                    -6.65321         125.336
5.6                     -6.27707          119.81
5.62                    -6.13175         114.243
5.64                     -6.1167         109.445
5.66                    -6.29464         105.272
5.68                    -6.67135         104.317
5.7                     -6.50786         107.436
5.72                    -5.49653         108.968
5.74                    -4.22547          106.11
5.76                    -3.12089         99.6308
5.78                    -2.41315         91.4536
5.8                     -1.97797         83.6779
5.82                    -1.59638         75.9004
5.84                    -1.37754          67.667
5.86                    -1.26798         60.1229
5.88                    -1.08829         52.2986
5.9                     -1.04998         43.5075
5.92                    -1.10668         35.2914
5.94                    -1.03197         26.0424
5.96                    -1.20157          14.574
5.98                    -1.59152         3.09865
6                       -1.92664        -12.4049
6.02                    -3.63415        -37.4242
6.04                    -10.3782        -68.0296
6.06                    -15.4663          60.704
6.08                    -5.46577         31.0265
6.1                     -3.35346        0.775453
6.12                    -3.24367        -22.2621
6.14                    -3.18915        -43.0368
6.16                    -3.24574        -69.1324
6.18                    -3.72197        -100.543
6.2                      -4.0286        -137.387
6.22                    -3.68167         179.191
6.24                    -2.92568         133.642
6.26                    -2.30976         92.4553
6.28                    -2.00182         58.0391
6.3                     -1.85764         28.3887
6.32                    -1.91827        0.555564
6.34                    -2.21826        -26.5147
6.36                    -2.54513        -54.0574
6.38                     -2.7517        -84.4188
6.4                     -2.79227        -118.771
6.42                    -2.58594        -156.566
6.44                    -2.18653         164.268
6.46                    -1.68744         126.112
6.48                    -1.07197         87.5113
6.5                     -0.75697           42.11
