! TOUCHSTONE file generated by CST MICROWAVE STUDIO
! Date and time: Fri Oct 28 08:13:24 2022
! Project name: L.cst
! Parameters = {Di=1.27; Epsilon_r=1.56; InnerDiameter=1.27; Length=2; Lf=10; Lg=60; OuterConductorThickness=0.2921; OuterDiameter=3.6; Wf=3; Wp=41.2; de=1.5; df=6.8; g=0.8; gx=2.6899; gy=1.95549; h=2.34; hf=1.524; px=14.3316; py=13.1903; w=9.7; wx=11.6417; wy=11.2348}
! Header version: 2018
! Port assignment regex: !\s*Touchstone port\s*([0-9]+)\s*=\s*(CST MWS port|CST DS port)\s*([0-9]+|Zmin|Zmax)\s*\(\"(.*)\"\)(\s*mode\s*([0-9]+))?.*
! Touchstone port assignment:
! Touchstone port 1 = CST MWS port 1 ("")
# GHz S DB R 50
4.5                     -3.32983         56.6366
4.52                    -3.58811         53.9257
4.54                    -3.86312         51.2774
4.56                    -4.15618         48.4626
4.58                    -4.48412         45.6786
4.6                     -4.82314         42.7962
4.62                    -5.20645         39.8542
4.64                     -5.6069         36.9085
4.66                    -6.04933         33.8232
4.68                    -6.52671         30.7811
4.7                     -7.03889         27.5903
4.72                    -7.60609          24.404
4.74                     -8.2082         21.1285
4.76                    -8.87895         17.7634
4.78                    -9.59948         14.3765
4.8                      -10.396         10.8057
4.82                    -11.2725         7.21707
4.84                    -12.2349         3.37957
4.86                    -13.3216       -0.597466
4.88                    -14.5234        -4.88999
4.9                     -15.9113        -9.65989
4.92                    -17.4935        -14.9957
4.94                    -19.3582        -21.6517
4.96                     -21.598        -30.1601
4.98                    -24.2579        -42.9736
5                       -27.2754        -64.5922
5.02                    -29.1132        -99.8649
5.04                    -27.8091        -136.361
5.06                    -25.2327        -158.629
5.08                    -22.8679        -171.397
5.1                     -20.9783        -179.846
5.12                    -19.4553         174.175
5.14                    -18.1968         169.406
5.16                     -17.162         165.571
5.18                    -16.2683         162.323
5.2                     -15.5128         159.507
5.22                     -14.842         157.133
5.24                    -14.2501         154.996
5.26                    -13.7141         153.229
5.28                    -13.2101         151.634
5.3                     -12.7392          150.29
5.32                    -12.2664         149.088
5.34                    -11.8015         147.949
5.36                    -11.3186         146.851
5.38                     -10.825         145.584
5.4                     -10.3211         144.154
5.42                    -9.81356         142.356
5.44                    -9.33033         140.207
5.46                    -8.88094         137.667
5.48                    -8.50053         134.814
5.5                     -8.19221         131.822
5.52                    -7.96941         128.805
5.54                    -7.82126         126.024
5.56                     -7.7286         123.541
5.58                    -7.67455         121.526
5.6                     -7.61836         119.964
5.62                    -7.54571         118.828
5.64                    -7.41652         118.045
5.66                    -7.22299          117.38
5.68                    -6.95163         116.721
5.7                     -6.60666          115.76
5.72                    -6.21071         114.408
5.74                    -5.77725         112.489
5.76                    -5.34431         109.985
5.78                    -4.92414         106.903
5.8                     -4.54584         103.266
5.82                    -4.22189         99.1073
5.84                    -4.00532          94.606
5.86                    -3.84233          90.343
5.88                    -3.65926         85.6886
5.9                     -3.56943         80.4473
5.92                    -3.55779         75.0719
5.94                    -3.63317         69.2673
5.96                    -3.83197         63.3041
5.98                     -4.1538         56.9798
6                       -4.71794          50.559
6.02                    -5.54948         44.8614
6.04                    -6.71264         41.5644
6.06                    -7.53418         44.0312
6.08                    -6.90758         44.3973
6.1                     -6.01672         32.6053
6.12                    -6.19982         9.48173
6.14                    -7.92523        -25.3443
6.16                    -10.2605        -80.4009
6.18                    -9.00611        -147.844
6.2                     -5.93423         166.442
6.22                    -3.93211         137.602
6.24                    -2.72291         116.665
6.26                    -2.35503         99.1986
6.28                    -2.66949         88.7857
6.3                     -2.38015         83.4757
6.32                    -1.90094         75.4756
6.34                     -1.6796          68.293
6.36                    -1.33129         60.4182
6.38                    -1.38702         51.9314
6.4                     -1.43188          45.702
6.42                    -1.40125         38.0888
6.44                    -1.58832         31.2091
6.46                    -1.55683         23.8938
6.48                    -1.77915         15.0662
6.5                     -1.83475         7.04742
