! TOUCHSTONE file generated by CST MICROWAVE STUDIO
! Date and time: Wed Oct 26 17:28:22 2022
! Project name: L.cst
! Parameters = {Di=1.27; Epsilon_r=1.56; InnerDiameter=1.27; Length=2; Lf=10; Lg=60; OuterConductorThickness=0.2921; OuterDiameter=3.6; Wf=3; Wp=41.2; de=1.5; df=6.8; g=0.8; gx=2.63454; gy=2.68583; h=2.34; hf=1.524; px=11.2065; py=10.1842; w=9.7; wx=8.57197; wy=7.49839}
! Header version: 2018
! Port assignment regex: !\s*Touchstone port\s*([0-9]+)\s*=\s*(CST MWS port|CST DS port)\s*([0-9]+|Zmin|Zmax)\s*\(\"(.*)\"\)(\s*mode\s*([0-9]+))?.*
! Touchstone port assignment:
! Touchstone port 1 = CST MWS port 1 ("")
# GHz S DB R 50
4.5                     -0.60913         84.1347
4.52                   -0.632693         82.4941
4.54                   -0.657638         80.8359
4.56                   -0.683882           79.16
4.58                   -0.711345         77.4664
4.6                    -0.739945         75.7545
4.62                   -0.769611          74.024
4.64                    -0.80028         72.2743
4.66                     -0.8319         70.5047
4.68                   -0.864431         68.7144
4.7                    -0.897847         66.9027
4.72                   -0.932136         65.0685
4.74                   -0.967297         63.2111
4.76                    -1.00334         61.3297
4.78                    -1.04029         59.4233
4.8                     -1.07819          57.491
4.82                    -1.11707         55.5322
4.84                    -1.15698          53.546
4.86                    -1.19798         51.5317
4.88                    -1.24012         49.4888
4.9                     -1.28346         47.4165
4.92                    -1.32807         45.3145
4.94                      -1.374         43.1823
4.96                    -1.42132         41.0194
4.98                    -1.47006         38.8257
5                       -1.52027         36.6008
5.02                    -1.57201         34.3446
5.04                    -1.62529         32.0569
5.06                    -1.68015         29.7377
5.08                    -1.73659         27.3871
5.1                     -1.79464          25.005
5.12                    -1.85428         22.5915
5.14                    -1.91549          20.147
5.16                    -1.97827         17.6716
5.18                    -2.04257         15.1655
5.2                     -2.10835         12.6292
5.22                    -2.17556          10.063
5.24                    -2.24412         7.46732
5.26                    -2.31397         4.84284
5.28                    -2.38502         2.18995
5.3                     -2.45717       -0.490638
5.32                    -2.53033        -3.19823
5.34                    -2.60439        -5.93205
5.36                    -2.67922        -8.69127
5.38                    -2.75471         -11.475
5.4                     -2.83072        -14.2821
5.42                    -2.90711        -17.1117
5.44                    -2.98375        -19.9626
5.46                     -3.0605        -22.8335
5.48                    -3.13721        -25.7231
5.5                     -3.21373        -28.6299
5.52                    -3.28992        -31.5526
5.54                    -3.36564        -34.4895
5.56                    -3.44073         -37.439
5.58                    -3.51507        -40.3992
5.6                     -3.58852        -43.3685
5.62                    -3.66095        -46.3448
5.64                    -3.73224        -49.3262
5.66                    -3.80227        -52.3108
5.68                    -3.87094        -55.2963
5.7                     -3.93814        -58.2807
5.72                    -4.00379        -61.2619
5.74                     -4.0678        -64.2376
5.76                     -4.1301        -67.2056
5.78                    -4.19064        -70.1637
5.8                     -4.24935        -73.1099
5.82                     -4.3062         -76.042
5.84                    -4.36114        -78.9578
5.86                    -4.41416        -81.8553
5.88                    -4.46522        -84.7324
5.9                     -4.51431        -87.5875
5.92                    -4.56143        -90.4185
5.94                    -4.60657        -93.2238
5.96                    -4.64973        -96.0019
5.98                    -4.69092        -98.7513
6                       -4.73014        -101.471
6.02                    -4.76741        -104.159
6.04                    -4.80274        -106.815
6.06                    -4.83614        -109.438
6.08                    -4.86765        -112.028
6.1                     -4.89727        -114.583
6.12                    -4.92505        -117.105
6.14                    -4.95102        -119.591
6.16                    -4.97522        -122.043
6.18                    -4.99771        -124.461
6.2                     -5.01855        -126.844
6.22                    -5.03781        -129.194
6.24                    -5.05558        -131.511
6.26                    -5.07198        -133.796
6.28                    -5.08711        -136.049
6.3                     -5.10112        -138.271
6.32                    -5.11416        -140.463
6.34                    -5.12641        -142.626
6.36                    -5.13807         -144.76
6.38                    -5.14933        -146.865
6.4                     -5.16041        -148.943
6.42                    -5.17155        -150.993
6.44                    -5.18298        -153.016
6.46                    -5.19492        -155.011
6.48                    -5.20759        -156.978
6.5                     -5.22119        -158.915
