! TOUCHSTONE file generated by CST MICROWAVE STUDIO
! Date and time: Wed Oct 26 21:13:18 2022
! Project name: L.cst
! Parameters = {Di=1.27; Epsilon_r=1.56; InnerDiameter=1.27; Length=2; Lf=10; Lg=60; OuterConductorThickness=0.2921; OuterDiameter=3.6; Wf=3; Wp=41.2; de=1.5; df=6.8; g=0.8; gx=2.191; gy=2.97826; h=2.34; hf=1.524; px=13.0593; py=14.5129; w=9.7; wx=10.8683; wy=11.5346}
! Header version: 2018
! Port assignment regex: !\s*Touchstone port\s*([0-9]+)\s*=\s*(CST MWS port|CST DS port)\s*([0-9]+|Zmin|Zmax)\s*\(\"(.*)\"\)(\s*mode\s*([0-9]+))?.*
! Touchstone port assignment:
! Touchstone port 1 = CST MWS port 1 ("")
# GHz S DB R 50
4.5                     -1.36823         76.4482
4.52                    -1.48339         74.6305
4.54                    -1.51893         72.8005
4.56                    -1.63472         70.8373
4.58                    -1.68744         69.0346
4.6                     -1.80148         66.9549
4.62                    -1.87455         65.1442
4.64                    -1.98674         62.9799
4.66                    -2.08111          61.127
4.68                    -2.19352         58.9037
4.7                       -2.309         56.9845
4.72                    -2.42437         54.7195
4.74                    -2.56074         52.7156
4.76                    -2.68214          50.425
4.78                    -2.83857         48.3198
4.8                     -2.97016         46.0153
4.82                     -3.1452         43.7999
4.84                    -3.29182         41.4855
4.86                    -3.48404         39.1619
4.88                    -3.64989         36.8328
4.9                     -3.85899          34.408
4.92                    -4.04778         32.0588
4.94                    -4.27378         29.5411
4.96                    -4.48924         27.1645
4.98                     -4.7324         24.5665
5                       -4.97799           22.15
5.02                    -5.23951         19.4899
5.04                    -5.51758         17.0177
5.06                    -5.79995         14.3124
5.08                    -6.11209         11.7713
5.1                     -6.41834         9.03273
5.12                    -6.76616         6.40977
5.14                    -7.09962         3.64841
5.16                    -7.48416        0.924446
5.18                    -7.84954        -1.85433
5.2                     -8.27084        -4.70078
5.22                    -8.67417        -7.50796
5.24                    -9.13242        -10.5007
5.26                    -9.58039        -13.3693
5.28                    -10.0771        -16.5447
5.3                     -10.5777        -19.5335
5.32                    -11.1155        -22.9548
5.34                    -11.6798        -26.1689
5.36                    -12.2642        -29.9353
5.38                    -12.9077        -33.5587
5.4                     -13.5499        -37.8306
5.42                    -14.2911        -42.1737
5.44                    -15.0117        -47.2482
5.46                    -15.8725        -52.8354
5.48                    -16.6966        -59.2789
5.5                     -17.6867        -67.0752
5.52                    -18.6189        -76.0034
5.54                    -19.6501        -87.7585
5.56                     -20.538        -101.173
5.58                     -21.147        -118.777
5.6                     -21.3572        -137.614
5.62                    -20.7708        -157.882
5.64                     -19.855        -176.782
5.66                    -18.4626         166.775
5.68                    -17.0938          151.39
5.7                     -15.6866          138.16
5.72                    -14.3454         124.618
5.74                    -13.1249         111.721
5.76                    -11.8954         97.5234
5.78                    -10.7932         81.7326
5.8                     -9.66019         62.5071
5.82                    -8.71675          36.883
5.84                    -8.31318           1.711
5.86                     -9.0952        -44.1704
5.88                    -10.8748        -95.1009
5.9                     -11.9908        -140.684
5.92                    -11.7027        -177.139
5.94                    -11.1531         156.362
5.96                    -10.1219         137.333
5.98                    -9.26386         119.515
6                        -8.1237         105.415
6.02                    -6.81462         82.2154
6.04                    -7.89359          53.891
6.06                    -11.1851         41.6374
6.08                     -12.213         45.1965
6.1                     -12.3893         38.0944
6.12                    -12.9702         31.4962
6.14                     -13.382         20.0013
6.16                    -14.8782         6.60813
6.18                    -16.2048        -8.86847
6.2                     -18.8762        -40.1798
6.22                    -21.7727        -83.0653
6.24                    -18.0308        -143.076
6.26                    -13.6443         169.093
6.28                    -9.83656         138.584
6.3                     -6.14021         91.3944
6.32                    -5.86846         17.9782
6.34                    -6.72111        -83.0386
6.36                    -5.12377        -167.304
6.38                    -4.70438         150.478
6.4                     -3.72241         128.327
6.42                    -3.26508         107.918
6.44                    -3.25268         94.5064
6.46                    -3.08505         82.4142
6.48                    -3.75314         69.1486
6.5                     -5.96632         75.1447
