! TOUCHSTONE file generated by CST MICROWAVE STUDIO
! Date and time: Thu Oct 27 13:00:06 2022
! Project name: L.cst
! Parameters = {Di=1.27; Epsilon_r=1.56; InnerDiameter=1.27; Length=2; Lf=10; Lg=60; OuterConductorThickness=0.2921; OuterDiameter=3.6; Wf=3; Wp=41.2; de=1.5; df=6.8; g=0.8; gx=1.10544; gy=4.92369; h=2.34; hf=1.524; px=9.35926; py=12.971; w=9.7; wx=8.25382; wy=8.04735}
! Header version: 2018
! Port assignment regex: !\s*Touchstone port\s*([0-9]+)\s*=\s*(CST MWS port|CST DS port)\s*([0-9]+|Zmin|Zmax)\s*\(\"(.*)\"\)(\s*mode\s*([0-9]+))?.*
! Touchstone port assignment:
! Touchstone port 1 = CST MWS port 1 ("")
# GHz S DB R 50
4.5                    -0.481306         94.7879
4.52                   -0.496717         93.3438
4.54                   -0.512681         91.8894
4.56                   -0.529209         90.4248
4.58                   -0.546307           88.95
4.6                    -0.563977          87.465
4.62                   -0.582219         85.9698
4.64                   -0.601033         84.4643
4.66                   -0.620419         82.9485
4.68                   -0.640376         81.4223
4.7                    -0.660907         79.8856
4.72                   -0.682012         78.3383
4.74                   -0.703695         76.7803
4.76                   -0.725961         75.2115
4.78                    -0.74882         73.6317
4.8                     -0.77228         72.0408
4.82                   -0.796355         70.4387
4.84                   -0.821056         68.8254
4.86                   -0.846403         67.2006
4.88                   -0.872412         65.5644
4.9                    -0.899104         63.9166
4.92                   -0.926499         62.2572
4.94                   -0.954621         60.5862
4.96                   -0.983492         58.9034
4.98                    -1.01314          57.209
5                       -1.04358          55.503
5.02                    -1.07485         53.7853
5.04                    -1.10697         52.0561
5.06                    -1.13996         50.3154
5.08                    -1.17386         48.5634
5.1                     -1.20868         46.8002
5.12                    -1.24444         45.0259
5.14                    -1.28118         43.2408
5.16                    -1.31891         41.4449
5.18                    -1.35766         39.6386
5.2                     -1.39743         37.8221
5.22                    -1.43826         35.9957
5.24                    -1.48016         34.1597
5.26                    -1.52315         32.3144
5.28                    -1.56723           30.46
5.3                     -1.61242         28.5971
5.32                    -1.65873         26.7259
5.34                    -1.70618         24.8469
5.36                    -1.75476         22.9604
5.38                    -1.80449         21.0671
5.4                     -1.85536         19.1672
5.42                    -1.90739         17.2613
5.44                    -1.96056           15.35
5.46                    -2.01488         13.4337
5.48                    -2.07035         11.5131
5.5                     -2.12696         9.58865
5.52                     -2.1847         7.66101
5.54                    -2.24355          5.7308
5.56                    -2.30352         3.79866
5.58                    -2.36457         1.86526
5.6                      -2.4267       -0.068706
5.62                    -2.48989        -2.00253
5.64                     -2.5541        -3.93549
5.66                    -2.61931        -5.86682
5.68                    -2.68549        -7.79578
5.7                     -2.75261        -9.72157
5.72                    -2.82062        -11.6434
5.74                    -2.88948        -13.5605
5.76                    -2.95914        -15.4719
5.78                    -3.02956        -17.3769
5.8                     -3.10066        -19.2747
5.82                     -3.1724        -21.1644
5.84                    -3.24468        -23.0452
5.86                    -3.31745        -24.9163
5.88                    -3.39061        -26.7768
5.9                     -3.46408         -28.626
5.92                    -3.53775        -30.4632
5.94                    -3.61153        -32.2875
5.96                     -3.6853        -34.0983
5.98                    -3.75894        -35.8951
6                       -3.83234        -37.6771
6.02                    -3.90535         -39.444
6.04                    -3.97784        -41.1952
6.06                    -4.04968        -42.9306
6.08                    -4.12072        -44.6498
6.1                     -4.19081        -46.3527
6.12                    -4.25981        -48.0395
6.14                    -4.32757        -49.7102
6.16                    -4.39395         -51.365
6.18                    -4.45883        -53.0046
6.2                     -4.52207        -54.6294
6.22                    -4.58357        -56.2403
6.24                    -4.64323        -57.8381
6.26                    -4.70099         -59.424
6.28                     -4.7568        -60.9991
6.3                     -4.81063        -62.5649
6.32                    -4.86251        -64.1228
6.34                     -4.9125        -65.6745
6.36                    -4.96068        -67.2216
6.38                     -5.0072         -68.766
6.4                     -5.05225        -70.3093
6.42                    -5.09608        -71.8535
6.44                      -5.139           -73.4
6.46                    -5.18136        -74.9507
6.48                    -5.22358         -76.507
6.5                     -5.26615        -78.0701
