! TOUCHSTONE file generated by CST MICROWAVE STUDIO
! Date and time: Thu Oct 27 10:12:23 2022
! Project name: L.cst
! Parameters = {Di=1.27; Epsilon_r=1.56; InnerDiameter=1.27; Length=2; Lf=10; Lg=60; OuterConductorThickness=0.2921; OuterDiameter=3.6; Wf=3; Wp=41.2; de=1.5; df=6.8; g=0.8; gx=3.38095; gy=3.12407; h=2.34; hf=1.524; px=10.2658; py=8.17326; w=9.7; wx=6.88482; wy=5.04919}
! Header version: 2018
! Port assignment regex: !\s*Touchstone port\s*([0-9]+)\s*=\s*(CST MWS port|CST DS port)\s*([0-9]+|Zmin|Zmax)\s*\(\"(.*)\"\)(\s*mode\s*([0-9]+))?.*
! Touchstone port assignment:
! Touchstone port 1 = CST MWS port 1 ("")
# GHz S DB R 50
4.5                    -0.377504         91.2523
4.52                   -0.388169         89.7573
4.54                   -0.399203         88.2493
4.56                   -0.410609         86.7285
4.58                   -0.422386         85.1946
4.6                    -0.434529         83.6478
4.62                   -0.447029         82.0879
4.64                   -0.459874         80.5149
4.66                   -0.473055         78.9286
4.68                   -0.486559         77.3289
4.7                    -0.500375         75.7157
4.72                   -0.514491         74.0888
4.74                   -0.528897          72.448
4.76                   -0.543584         70.7932
4.78                   -0.558546         69.1242
4.8                    -0.573776         67.4408
4.82                   -0.589271         65.7428
4.84                   -0.605029         64.0301
4.86                   -0.621048         62.3026
4.88                    -0.63733           60.56
4.9                    -0.653875         58.8023
4.92                   -0.670686         57.0293
4.94                   -0.687765          55.241
4.96                   -0.705118         53.4373
4.98                   -0.722746         51.6181
5                      -0.740654         49.7835
5.02                   -0.758846         47.9335
5.04                   -0.777323          46.068
5.06                   -0.796088         44.1872
5.08                   -0.815143         42.2911
5.1                    -0.834485         40.3798
5.12                   -0.854117         38.4535
5.14                   -0.874032         36.5124
5.16                   -0.894229         34.5565
5.18                   -0.914701         32.5863
5.2                    -0.935441         30.6018
5.22                    -0.95644         28.6035
5.24                   -0.977688         26.5914
5.26                   -0.999172         24.5662
5.28                    -1.02088         22.5279
5.3                      -1.0428         20.4771
5.32                     -1.0649         18.4141
5.34                    -1.08719         16.3393
5.36                    -1.10962         14.2532
5.38                    -1.13219         12.1562
5.4                     -1.15488         10.0489
5.42                    -1.17766         7.93169
5.44                     -1.2005         5.80521
5.46                     -1.2234         3.66996
5.48                    -1.24631         1.52653
5.5                     -1.26922       -0.624483
5.52                    -1.29211        -2.78247
5.54                    -1.31494         -4.9468
5.56                     -1.3377        -7.11682
5.58                    -1.36036        -9.29187
5.6                      -1.3829        -11.4713
5.62                    -1.40529        -13.6543
5.64                     -1.4275        -15.8403
5.66                    -1.44953        -18.0285
5.68                    -1.47134        -20.2182
5.7                      -1.4929        -22.4086
5.72                    -1.51421        -24.5991
5.74                    -1.53524        -26.7888
5.76                    -1.55597        -28.9769
5.78                    -1.57639        -31.1629
5.8                     -1.59646        -33.3458
5.82                    -1.61617         -35.525
5.84                    -1.63551        -37.6998
5.86                    -1.65446        -39.8692
5.88                      -1.673        -42.0327
5.9                     -1.69112        -44.1895
5.92                    -1.70879         -46.339
5.94                      -1.726        -48.4804
5.96                    -1.74274        -50.6131
5.98                    -1.75899        -52.7364
6                       -1.77474        -54.8498
6.02                    -1.78997        -56.9526
6.04                    -1.80466        -59.0444
6.06                    -1.81881        -61.1245
6.08                     -1.8324        -63.1926
6.1                     -1.84542        -65.2481
6.12                    -1.85785        -67.2907
6.14                    -1.86969          -69.32
6.16                    -1.88094        -71.3357
6.18                    -1.89157        -73.3375
6.2                      -1.9016        -75.3251
6.22                    -1.91102        -77.2985
6.24                    -1.91983        -79.2574
6.26                    -1.92805        -81.2016
6.28                    -1.93567        -83.1313
6.3                     -1.94272        -85.0462
6.32                    -1.94922        -86.9465
6.34                    -1.95519         -88.832
6.36                    -1.96066        -90.7029
6.38                    -1.96567        -92.5591
6.4                     -1.97026        -94.4007
6.42                    -1.97448        -96.2278
6.44                    -1.97838        -98.0403
6.46                    -1.98201        -99.8384
6.48                    -1.98545        -101.622
6.5                     -1.98874        -103.391
