! TOUCHSTONE file generated by CST MICROWAVE STUDIO
! Date and time: Sat Oct 29 01:03:18 2022
! Project name: L.cst
! Parameters = {Di=1.27; Epsilon_r=1.56; InnerDiameter=1.27; Length=2; Lf=10; Lg=60; OuterConductorThickness=0.2921; OuterDiameter=3.6; Wf=3; Wp=41.2; de=1.5; df=6.8; g=0.8; gx=1.84322; gy=2.02878; h=2.34; hf=1.524; px=11.1751; py=12.1384; w=9.7; wx=9.33188; wy=10.1096}
! Header version: 2018
! Port assignment regex: !\s*Touchstone port\s*([0-9]+)\s*=\s*(CST MWS port|CST DS port)\s*([0-9]+|Zmin|Zmax)\s*\(\"(.*)\"\)(\s*mode\s*([0-9]+))?.*
! Touchstone port assignment:
! Touchstone port 1 = CST MWS port 1 ("")
# GHz S DB R 50
4.5                     -1.09125         70.7335
4.52                      -1.132         68.7565
4.54                    -1.18071         66.7339
4.56                    -1.23741         64.6808
4.58                    -1.30127         62.6095
4.6                     -1.37087         60.5279
4.62                    -1.44453         58.4391
4.64                    -1.52059         56.3411
4.66                    -1.59771         54.2278
4.68                    -1.67502           52.09
4.7                     -1.75226         49.9174
4.72                    -1.82974         47.6999
4.74                    -1.90825         45.4288
4.76                    -1.98892         43.0984
4.78                    -2.07298         40.7056
4.8                     -2.16163         38.2503
4.82                    -2.25587         35.7349
4.84                     -2.3564         33.1632
4.86                    -2.46354         30.5398
4.88                    -2.57729          27.869
4.9                     -2.69733         25.1542
4.92                    -2.82313         22.3971
4.94                    -2.95406         19.5975
4.96                    -3.08948         16.7533
4.98                    -3.22888         13.8609
5                       -3.37191         10.9153
5.02                    -3.51843         7.91096
5.04                    -3.66856         4.84254
5.06                    -3.82259         1.70525
5.08                    -3.98096        -1.50453
5.1                     -4.14415        -4.78893
5.12                     -4.3126         -8.1485
5.14                    -4.48667        -11.5823
5.16                    -4.66648        -15.0883
5.18                    -4.85192        -18.6634
5.2                     -5.04263        -22.3043
5.22                    -5.23796        -26.0078
5.24                    -5.43702        -29.7711
5.26                    -5.63874        -33.5919
5.28                    -5.84193        -37.4695
5.3                     -6.04532        -41.4036
5.32                    -6.24767        -45.3944
5.34                    -6.44783         -49.443
5.36                    -6.64476          -53.55
5.38                    -6.83757        -57.7153
5.4                     -7.02553        -61.9377
5.42                    -7.20801        -66.2143
5.44                    -7.38446          -70.54
5.46                    -7.55434        -74.9078
5.48                    -7.71706        -79.3083
5.5                     -7.87193        -83.7305
5.52                    -8.01809        -88.1623
5.54                    -8.15454        -92.5908
5.56                    -8.28011        -97.0035
5.58                    -8.39353        -101.389
5.6                     -8.49351        -105.738
5.62                    -8.57883        -110.043
5.64                     -8.6485        -114.301
5.66                    -8.70185        -118.509
5.68                     -8.7387        -122.671
5.7                      -8.7594        -126.787
5.72                    -8.76488        -130.864
5.74                    -8.75663        -134.904
5.76                    -8.73659        -138.911
5.78                      -8.707        -142.884
5.8                     -8.67023        -146.823
5.82                    -8.62854        -150.723
5.84                    -8.58396        -154.577
5.86                    -8.53805        -158.377
5.88                    -8.49183        -162.115
5.9                     -8.44577        -165.781
5.92                    -8.39976        -169.371
5.94                    -8.35329        -172.881
5.96                    -8.30563        -176.313
5.98                    -8.25604        -179.671
6                       -8.20408         177.036
6.02                    -8.14983         173.795
6.04                    -8.09404         170.596
6.06                    -8.03817         167.427
6.08                    -7.98425         164.284
6.1                     -7.93463         161.166
6.12                    -7.89146         158.082
6.14                    -7.85623         155.049
6.16                    -7.82903         152.091
6.18                    -7.80802         149.237
6.2                     -7.78882         146.512
6.22                    -7.76424         143.938
6.24                    -7.72446         141.517
6.26                    -7.65789         139.224
6.28                     -7.5528         137.001
6.3                     -7.39982         134.751
6.32                    -7.19446         132.347
6.34                     -6.9391         129.646
6.36                    -6.64348         126.511
6.38                    -6.32362         122.825
6.4                     -5.99968         118.506
6.42                    -5.69362         113.505
6.44                    -5.42737         107.804
6.46                    -5.22187         101.405
6.48                    -5.09689         94.3204
6.5                     -5.07158         86.5609
