! TOUCHSTONE file generated by CST MICROWAVE STUDIO
! Date and time: Fri Oct 28 16:53:47 2022
! Project name: L.cst
! Parameters = {Di=1.27; Epsilon_r=1.56; InnerDiameter=1.27; Length=2; Lf=10; Lg=60; OuterConductorThickness=0.2921; OuterDiameter=3.6; Wf=3; Wp=41.2; de=1.5; df=6.8; g=0.8; gx=3.02895; gy=4.79966; h=2.34; hf=1.524; px=10.2841; py=13.8368; w=9.7; wx=7.25514; wy=9.03716}
! Header version: 2018
! Port assignment regex: !\s*Touchstone port\s*([0-9]+)\s*=\s*(CST MWS port|CST DS port)\s*([0-9]+|Zmin|Zmax)\s*\(\"(.*)\"\)(\s*mode\s*([0-9]+))?.*
! Touchstone port assignment:
! Touchstone port 1 = CST MWS port 1 ("")
# GHz S DB R 50
4.5                    -0.352922         96.4565
4.52                   -0.363707         95.0485
4.54                   -0.374579         93.6323
4.56                   -0.385521         92.2075
4.58                   -0.396526         90.7738
4.6                     -0.40759         89.3307
4.62                    -0.41872         87.8781
4.64                   -0.429923         86.4155
4.66                   -0.441212         84.9427
4.68                   -0.452603         83.4595
4.7                    -0.464113         81.9656
4.72                   -0.475762         80.4609
4.74                   -0.487568         78.9451
4.76                   -0.499553         77.4183
4.78                   -0.511735         75.8801
4.8                    -0.524132         74.3305
4.82                   -0.536764         72.7696
4.84                   -0.549642         71.1972
4.86                   -0.562783         69.6132
4.88                   -0.576199         68.0178
4.9                    -0.589898         66.4108
4.92                   -0.603891         64.7923
4.94                   -0.618183         63.1624
4.96                   -0.632778         61.5209
4.98                   -0.647681          59.868
5                      -0.662891         58.2037
5.02                   -0.678409          56.528
5.04                   -0.694233          54.841
5.06                   -0.710361         53.1428
5.08                   -0.726789         51.4333
5.1                    -0.743512         49.7127
5.12                   -0.760527          47.981
5.14                   -0.777826         46.2382
5.16                   -0.795404         44.4846
5.18                   -0.813254           42.72
5.2                    -0.831371         40.9447
5.22                   -0.849747         39.1586
5.24                   -0.868377          37.362
5.26                   -0.887255         35.5549
5.28                   -0.906374         33.7374
5.3                     -0.92573         31.9096
5.32                   -0.945318         30.0716
5.34                   -0.965132         28.2237
5.36                   -0.985168          26.366
5.38                    -1.00542         24.4986
5.4                      -1.0259         22.6217
5.42                    -1.04658         20.7356
5.44                    -1.06747         18.8404
5.46                    -1.08857         16.9363
5.48                    -1.10988         15.0237
5.5                      -1.1314         13.1027
5.52                    -1.15311         11.1737
5.54                    -1.17503         9.23697
5.56                    -1.19715         7.29278
5.58                    -1.21947         5.34148
5.6                     -1.24199         3.38341
5.62                     -1.2647         1.41895
5.64                    -1.28761       -0.551529
5.66                     -1.3107        -2.52764
5.68                    -1.33398        -4.50896
5.7                     -1.35743        -6.49508
5.72                    -1.38106        -8.48557
5.74                    -1.40486          -10.48
5.76                     -1.4288        -12.4778
5.78                     -1.4529        -14.4788
5.8                     -1.47712        -16.4823
5.82                    -1.50145        -18.4879
5.84                    -1.52589        -20.4952
5.86                     -1.5504        -22.5037
5.88                    -1.57497         -24.513
5.9                     -1.59957        -26.5227
5.92                    -1.62418        -28.5324
5.94                    -1.64876        -30.5418
5.96                     -1.6733        -32.5505
5.98                    -1.69775        -34.5581
6                       -1.72209        -36.5646
6.02                    -1.74629        -38.5696
6.04                     -1.7703        -40.5731
6.06                    -1.79411         -42.575
6.08                    -1.81768        -44.5752
6.1                     -1.84099        -46.5739
6.12                    -1.86401        -48.5711
6.14                    -1.88675        -50.5672
6.16                    -1.90918        -52.5625
6.18                    -1.93133        -54.5574
6.2                     -1.95321        -56.5524
6.22                    -1.97485        -58.5481
6.24                    -1.99632        -60.5453
6.26                     -2.0177        -62.5447
6.28                    -2.03908        -64.5473
6.3                      -2.0606        -66.5539
6.32                    -2.08243        -68.5655
6.34                    -2.10476        -70.5832
6.36                    -2.12785         -72.608
6.38                    -2.15197        -74.6409
6.4                     -2.17746        -76.6828
6.42                     -2.2047        -78.7347
6.44                    -2.23413        -80.7972
6.46                    -2.26625         -82.871
6.48                     -2.3016        -84.9563
6.5                     -2.34082        -87.0531
