! TOUCHSTONE file generated by CST MICROWAVE STUDIO
! Date and time: Sat Oct 29 00:50:09 2022
! Project name: L.cst
! Parameters = {Di=1.27; Epsilon_r=1.56; InnerDiameter=1.27; Length=2; Lf=10; Lg=60; OuterConductorThickness=0.2921; OuterDiameter=3.6; Wf=3; Wp=41.2; de=1.5; df=6.8; g=0.8; gx=2.29018; gy=4.67194; h=2.34; hf=1.524; px=12.4724; py=9.29666; w=9.7; wx=10.1822; wy=4.62472}
! Header version: 2018
! Port assignment regex: !\s*Touchstone port\s*([0-9]+)\s*=\s*(CST MWS port|CST DS port)\s*([0-9]+|Zmin|Zmax)\s*\(\"(.*)\"\)(\s*mode\s*([0-9]+))?.*
! Touchstone port assignment:
! Touchstone port 1 = CST MWS port 1 ("")
# GHz S DB R 50
4.5                    -0.552311         92.9965
4.52                   -0.572177         91.4186
4.54                   -0.593629         89.8277
4.56                    -0.61659         88.2243
4.58                   -0.640977          86.609
4.6                    -0.666697          84.982
4.62                   -0.693659         83.3434
4.64                   -0.721776          81.693
4.66                   -0.750969         80.0309
4.68                   -0.781168         78.3564
4.7                    -0.812318         76.6694
4.72                   -0.844374         74.9693
4.74                   -0.877305         73.2556
4.76                   -0.911098         71.5276
4.78                   -0.945753         69.7848
4.8                    -0.981284         68.0266
4.82                    -1.01772         66.2524
4.84                    -1.05509         64.4617
4.86                    -1.09345         62.6539
4.88                    -1.13287         60.8285
4.9                     -1.17339         58.9852
4.92                    -1.21512         57.1236
4.94                    -1.25811         55.2434
4.96                    -1.30245         53.3444
4.98                    -1.34824         51.4263
5                       -1.39555         49.4892
5.02                    -1.44448         47.5329
5.04                    -1.49512         45.5576
5.06                    -1.54754         43.5632
5.08                    -1.60183         41.5501
5.1                     -1.65808         39.5183
5.12                    -1.71635         37.4682
5.14                    -1.77672            35.4
5.16                    -1.83926         33.3142
5.18                    -1.90404         31.2112
5.2                      -1.9711         29.0913
5.22                    -2.04051         26.9552
5.24                    -2.11231         24.8034
5.26                    -2.18655         22.6364
5.28                    -2.26326         20.4547
5.3                     -2.34248         18.2592
5.32                    -2.42424         16.0503
5.34                    -2.50856         13.8289
5.36                    -2.59547         11.5955
5.38                    -2.68498         9.35109
5.4                      -2.7771         7.09628
5.42                    -2.87185         4.83192
5.44                    -2.96922         2.55882
5.46                    -3.06923         0.27785
5.48                    -3.17187        -2.01011
5.5                     -3.27714        -4.30416
5.52                    -3.38504        -6.60335
5.54                    -3.49556        -8.90671
5.56                    -3.60868        -11.2132
5.58                    -3.72441        -13.5219
5.6                     -3.84273        -15.8316
5.62                    -3.96362        -18.1413
5.64                    -4.08707        -20.4498
5.66                    -4.21308         -22.756
5.68                    -4.34161        -25.0585
5.7                     -4.47266        -27.3562
5.72                     -4.6062        -29.6476
5.74                    -4.74223        -31.9316
5.76                    -4.88071        -34.2064
5.78                    -5.02163        -36.4708
5.8                     -5.16496        -38.7232
5.82                    -5.31069         -40.962
5.84                    -5.45878        -43.1854
5.86                    -5.60921        -45.3918
5.88                    -5.76194        -47.5792
5.9                     -5.91693        -49.7457
5.92                    -6.07413        -51.8894
5.94                    -6.23348         -54.008
5.96                    -6.39493        -56.0994
5.98                    -6.55838        -58.1611
6                       -6.72374        -60.1907
6.02                    -6.89089        -62.1856
6.04                    -7.05967        -64.1432
6.06                    -7.22991        -66.0604
6.08                     -7.4014        -67.9344
6.1                     -7.57386        -69.7621
6.12                    -7.74697        -71.5402
6.14                    -7.92035        -73.2657
6.16                    -8.09354        -74.9352
6.18                    -8.26599        -76.5455
6.2                     -8.43704        -78.0936
6.22                    -8.60595        -79.5766
6.24                    -8.77182         -80.992
6.26                    -8.93364        -82.3379
6.28                    -9.09027        -83.6132
6.3                     -9.24042        -84.8176
6.32                    -9.38266        -85.9522
6.34                    -9.51547        -87.0196
6.36                    -9.63722        -88.0244
6.38                    -9.74626        -88.9732
6.4                     -9.84093        -89.8752
6.42                    -9.91965        -90.7422
6.44                    -9.98104        -91.5887
6.46                     -10.024         -92.432
6.48                    -10.0476         -93.292
6.5                     -10.0516        -94.1907
