! TOUCHSTONE file generated by CST MICROWAVE STUDIO
! Date and time: Sat Oct 29 20:53:45 2022
! Project name: L.cst
! Parameters = {Di=1.27; Epsilon_r=1.56; InnerDiameter=1.27; Length=2; Lf=10; Lg=60; OuterConductorThickness=0.2921; OuterDiameter=3.6; Wf=3; Wp=41.2; de=1.5; df=6.8; g=0.8; gx=1.70601; gy=4.82413; h=2.34; hf=1.524; px=13.7531; py=10.9624; w=9.7; wx=12.0471; wy=6.13822}
! Header version: 2018
! Port assignment regex: !\s*Touchstone port\s*([0-9]+)\s*=\s*(CST MWS port|CST DS port)\s*([0-9]+|Zmin|Zmax)\s*\(\"(.*)\"\)(\s*mode\s*([0-9]+))?.*
! Touchstone port assignment:
! Touchstone port 1 = CST MWS port 1 ("")
# GHz S DB R 50
4.5                     -1.23397         88.8221
4.52                    -1.28384         87.1367
4.54                    -1.35051         85.5485
4.56                    -1.43944         83.8867
4.58                    -1.52616         82.0961
4.6                     -1.60024         80.3116
4.62                     -1.6795         78.6281
4.64                    -1.77857         76.9487
4.66                     -1.8876         75.1677
4.68                    -1.98961         73.3429
4.7                     -2.08966         71.5802
4.72                    -2.20509         69.8727
4.74                    -2.33568         68.1193
4.76                    -2.46775         66.2992
4.78                     -2.5965         64.5101
4.8                     -2.73349         62.7948
4.82                    -2.88783         61.0902
4.84                    -3.05037         59.3417
4.86                    -3.21113         57.5927
4.88                    -3.37533          55.924
4.9                     -3.55314         54.3205
4.92                    -3.74364         52.7112
4.94                    -3.93556          51.101
4.96                    -4.12553          49.562
4.98                    -4.32317         48.1254
5                       -4.53254         46.7422
5.02                    -4.74461         45.3686
5.04                    -4.95089         44.0531
5.06                    -5.15409         42.8566
5.08                    -5.36208         41.7522
5.1                     -5.57122         40.6803
5.12                    -5.76882         39.6352
5.14                    -5.95214         38.6722
5.16                    -6.12792         37.8051
5.18                     -6.2987         36.9571
5.2                     -6.45564          36.073
5.22                    -6.58948         35.1743
5.24                    -6.70545         34.2867
5.26                    -6.81298         33.3603
5.28                    -6.91027         32.2973
5.3                     -6.98969         31.0676
5.32                    -7.05286         29.7086
5.34                    -7.11353         28.2021
5.36                    -7.18206         26.4532
5.38                    -7.25578         24.3927
5.4                     -7.33547          22.038
5.42                    -7.43854         19.4235
5.44                    -7.58687         16.4883
5.46                    -7.79263         13.1404
5.48                    -8.06303         9.40182
5.5                     -8.42249         5.38213
5.52                    -8.91447         1.16046
5.54                    -9.57377        -3.21246
5.56                    -10.4153        -7.52834
5.58                    -11.4483        -11.2942
5.6                     -12.6724        -13.9499
5.62                    -14.0323        -15.2663
5.64                    -15.3887        -15.7149
5.66                    -16.6368        -16.8296
5.68                    -17.9527        -21.3645
5.7                     -19.8913        -34.2058
5.72                    -22.7227        -68.8326
5.74                    -21.3423        -135.317
5.76                    -15.5533        -179.011
5.78                    -11.0558         154.096
5.8                     -8.04091         132.769
5.82                     -6.1375         114.845
5.84                    -4.97412         99.7107
5.86                    -4.24225         86.9406
5.88                    -3.75907         76.1776
5.9                     -3.44442         66.9461
5.92                    -3.24786         58.6497
5.94                    -3.11553         50.8768
5.96                    -3.02096         43.4848
5.98                    -2.99148         36.2312
6                       -3.09809         28.3761
6.02                    -3.55014         18.6693
6.04                    -5.57922         8.47786
6.06                    -6.46598         31.8972
6.08                    -3.87086         24.6489
6.1                     -3.40623         13.1803
6.12                     -3.4886         2.08789
6.14                    -3.92105        -10.3959
6.16                    -4.91384        -26.8723
6.18                    -7.09253         -53.209
6.2                     -11.5031        -110.394
6.22                    -9.46686         146.096
6.24                    -4.56667         94.8464
6.26                    -2.56298         67.8313
6.28                    -1.79385         50.4769
6.3                     -1.40697         37.8924
6.32                    -1.12473         28.6093
6.34                   -0.988229         21.6507
6.36                    -1.01721          15.298
6.38                    -1.00948         8.39986
6.4                    -0.783722           1.988
6.42                   -0.588477        -2.69889
6.44                    -1.01112        -8.85972
6.46                    -4.78774        -50.3199
6.48                   -0.849676         24.2884
6.5                     -1.27479        -0.64743
