! TOUCHSTONE file generated by CST MICROWAVE STUDIO
! Date and time: Thu Oct 27 10:43:17 2022
! Project name: L.cst
! Parameters = {Di=1.27; Epsilon_r=1.56; InnerDiameter=1.27; Length=2; Lf=10; Lg=60; OuterConductorThickness=0.2921; OuterDiameter=3.6; Wf=3; Wp=41.2; de=1.5; df=6.8; g=0.8; gx=2.00104; gy=3.96458; h=2.34; hf=1.524; px=11.1324; py=9.1235; w=9.7; wx=9.13141; wy=5.15891}
! Header version: 2018
! Port assignment regex: !\s*Touchstone port\s*([0-9]+)\s*=\s*(CST MWS port|CST DS port)\s*([0-9]+|Zmin|Zmax)\s*\(\"(.*)\"\)(\s*mode\s*([0-9]+))?.*
! Touchstone port assignment:
! Touchstone port 1 = CST MWS port 1 ("")
# GHz S DB R 50
4.5                    -0.535183           91.26
4.52                   -0.553816         89.7232
4.54                    -0.57326         88.1731
4.56                   -0.593511         86.6098
4.58                   -0.614556         85.0332
4.6                    -0.636384         83.4433
4.62                   -0.658982           81.84
4.64                   -0.682338         80.2232
4.66                   -0.706438         78.5925
4.68                   -0.731278         76.9479
4.7                    -0.756852          75.289
4.72                   -0.783159         73.6157
4.74                   -0.810204         71.9275
4.76                   -0.837993         70.2244
4.78                   -0.866541         68.5058
4.8                    -0.895864         66.7716
4.82                   -0.925979         65.0216
4.84                   -0.956913         63.2554
4.86                   -0.988692         61.4728
4.88                    -1.02134         59.6737
4.9                      -1.0549         57.8578
4.92                     -1.0894         56.0251
4.94                    -1.12486         54.1753
4.96                    -1.16134         52.3084
4.98                    -1.19885         50.4244
5                       -1.23744         48.5231
5.02                    -1.27714         46.6048
5.04                    -1.31797         44.6693
5.06                    -1.35998         42.7167
5.08                    -1.40319         40.7473
5.1                     -1.44763          38.761
5.12                    -1.49332         36.7581
5.14                    -1.54028         34.7389
5.16                    -1.58854         32.7034
5.18                    -1.63811         30.6521
5.2                       -1.689         28.5852
5.22                    -1.74123         26.5029
5.24                    -1.79481         24.4058
5.26                    -1.84973         22.2941
5.28                    -1.90601         20.1683
5.3                     -1.96364         18.0287
5.32                    -2.02262         15.8759
5.34                    -2.08295         13.7104
5.36                    -2.14462         11.5326
5.38                    -2.20762         9.34313
5.4                     -2.27194         7.14253
5.42                    -2.33756         4.93142
5.44                    -2.40447         2.71041
5.46                    -2.47266        0.480172
5.48                    -2.54209        -1.75861
5.5                     -2.61276        -4.00522
5.52                    -2.68464        -6.25892
5.54                     -2.7577        -8.51892
5.56                    -2.83193        -10.7844
5.58                     -2.9073        -13.0546
5.6                     -2.98377        -15.3285
5.62                    -3.06133        -17.6054
5.64                    -3.13994        -19.8842
5.66                    -3.21958         -22.164
5.68                    -3.30022        -24.4438
5.7                     -3.38182        -26.7226
5.72                    -3.46434        -28.9994
5.74                    -3.54777        -31.2729
5.76                    -3.63206        -33.5422
5.78                    -3.71718        -35.8062
5.8                     -3.80308        -38.0636
5.82                    -3.88974        -40.3132
5.84                     -3.9771        -42.5539
5.86                    -4.06513        -44.7845
5.88                    -4.15378        -47.0037
5.9                     -4.24299        -49.2102
5.92                    -4.33272        -51.4028
5.94                    -4.42291        -53.5802
5.96                    -4.51349        -55.7412
5.98                    -4.60441        -57.8845
6                        -4.6956        -60.0088
6.02                    -4.78697        -62.1129
6.04                    -4.87846        -64.1956
6.06                    -4.96997        -66.2556
6.08                    -5.06142        -68.2918
6.1                     -5.15269         -70.303
6.12                    -5.24371        -72.2881
6.14                    -5.33434        -74.2462
6.16                    -5.42448        -76.1761
6.18                    -5.51401         -78.077
6.2                     -5.60278        -79.9479
6.22                    -5.69068        -81.7881
6.24                    -5.77755        -83.5968
6.26                    -5.86325        -85.3733
6.28                    -5.94763        -87.1173
6.3                     -6.03053        -88.8281
6.32                    -6.11178        -90.5054
6.34                    -6.19123        -92.1488
6.36                     -6.2687        -93.7583
6.38                    -6.34402        -95.3336
6.4                       -6.417        -96.8748
6.42                    -6.48746        -98.3821
6.44                    -6.55521        -99.8555
6.46                    -6.62004        -101.295
6.48                    -6.68176        -102.702
6.5                     -6.74015        -104.076
