! TOUCHSTONE file generated by CST MICROWAVE STUDIO
! Date and time: Thu Oct 27 02:31:52 2022
! Project name: L.cst
! Parameters = {Di=1.27; Epsilon_r=1.56; InnerDiameter=1.27; Length=2; Lf=10; Lg=60; OuterConductorThickness=0.2921; OuterDiameter=3.6; Wf=3; Wp=41.2; de=1.5; df=6.8; g=0.8; gx=4.96175; gy=2.84586; h=2.34; hf=1.524; px=9.9084; py=9.43671; w=9.7; wx=4.94665; wy=6.59086}
! Header version: 2018
! Port assignment regex: !\s*Touchstone port\s*([0-9]+)\s*=\s*(CST MWS port|CST DS port)\s*([0-9]+|Zmin|Zmax)\s*\(\"(.*)\"\)(\s*mode\s*([0-9]+))?.*
! Touchstone port assignment:
! Touchstone port 1 = CST MWS port 1 ("")
# GHz S DB R 50
4.5                    -0.304463          94.246
4.52                   -0.311947         92.7999
4.54                   -0.319668         91.3413
4.56                   -0.327638         89.8702
4.58                   -0.335865         88.3865
4.6                    -0.344353         86.8903
4.62                   -0.353101         85.3813
4.64                   -0.362102         83.8597
4.66                   -0.371351         82.3252
4.68                   -0.380839         80.7778
4.7                    -0.390555         79.2173
4.72                   -0.400487         77.6437
4.74                   -0.410626         76.0568
4.76                   -0.420961         74.4564
4.78                   -0.431482         72.8422
4.8                    -0.442179         71.2143
4.82                   -0.453047         69.5723
4.84                   -0.464076         67.9161
4.86                   -0.475263         66.2455
4.88                   -0.486602         64.5604
4.9                    -0.498092         62.8606
4.92                    -0.50973         61.1459
4.94                   -0.521517         59.4161
4.96                    -0.53345         57.6712
4.98                   -0.545533         55.9111
5                      -0.557765         54.1356
5.02                   -0.570149         52.3446
5.04                   -0.582685         50.5382
5.06                   -0.595377         48.7162
5.08                   -0.608224         46.8787
5.1                    -0.621227         45.0257
5.12                   -0.634388         43.1572
5.14                   -0.647705         41.2732
5.16                   -0.661177         39.3739
5.18                   -0.674801         37.4594
5.2                    -0.688576         35.5297
5.22                   -0.702495          33.585
5.24                   -0.716554         31.6256
5.26                   -0.730743         29.6515
5.28                   -0.745058         27.6631
5.3                    -0.759487         25.6606
5.32                   -0.774021         23.6442
5.34                   -0.788648         21.6142
5.36                   -0.803355         19.5711
5.38                   -0.818129          17.515
5.4                    -0.832954         15.4465
5.42                   -0.847815         13.3658
5.44                   -0.862698         11.2734
5.46                   -0.877582         9.16965
5.48                   -0.892453         7.05512
5.5                    -0.907291         4.93024
5.52                   -0.922078          2.7955
5.54                   -0.936797        0.651431
5.56                   -0.951427        -1.50144
5.58                   -0.965952        -3.66256
5.6                     -0.98035        -5.83134
5.62                   -0.994607        -8.00719
5.64                     -1.0087        -10.1895
5.66                    -1.02262        -12.3777
5.68                    -1.03634         -14.571
5.7                     -1.04985        -16.7689
5.72                    -1.06312        -18.9707
5.74                    -1.07615        -21.1756
5.76                    -1.08893         -23.383
5.78                    -1.10142        -25.5923
5.8                     -1.11363        -27.8026
5.82                    -1.12554        -30.0133
5.84                    -1.13713        -32.2238
5.86                    -1.14839        -34.4331
5.88                    -1.15932        -36.6407
5.9                     -1.16989        -38.8459
5.92                     -1.1801        -41.0479
5.94                    -1.18994         -43.246
5.96                    -1.19939        -45.4395
5.98                    -1.20845        -47.6278
6                        -1.2171        -49.8103
6.02                    -1.22534        -51.9861
6.04                    -1.23314        -54.1549
6.06                    -1.24052        -56.3158
6.08                    -1.24744        -58.4684
6.1                     -1.25391        -60.6122
6.12                    -1.25991        -62.7466
6.14                    -1.26543        -64.8711
6.16                    -1.27047        -66.9853
6.18                    -1.27502        -69.0888
6.2                     -1.27906        -71.1812
6.22                     -1.2826        -73.2622
6.24                    -1.28563        -75.3315
6.26                    -1.28815        -77.3888
6.28                    -1.29015        -79.4341
6.3                     -1.29166         -81.467
6.32                    -1.29266        -83.4875
6.34                    -1.29318        -85.4956
6.36                    -1.29323         -87.491
6.38                    -1.29283        -89.4739
6.4                     -1.29201        -91.4443
6.42                    -1.29081         -93.402
6.44                    -1.28925        -95.3472
6.46                    -1.28739          -97.28
6.48                    -1.28528        -99.2002
6.5                     -1.28296        -101.108
