! TOUCHSTONE file generated by CST MICROWAVE STUDIO
! Date and time: Thu Oct 27 15:45:17 2022
! Project name: L.cst
! Parameters = {Di=1.27; Epsilon_r=1.56; InnerDiameter=1.27; Length=2; Lf=10; Lg=60; OuterConductorThickness=0.2921; OuterDiameter=3.6; Wf=3; Wp=41.2; de=1.5; df=6.8; g=0.8; gx=1.76069; gy=2.05981; h=2.34; hf=1.524; px=14.4494; py=11.2557; w=9.7; wx=12.6887; wy=9.19589}
! Header version: 2018
! Port assignment regex: !\s*Touchstone port\s*([0-9]+)\s*=\s*(CST MWS port|CST DS port)\s*([0-9]+|Zmin|Zmax)\s*\(\"(.*)\"\)(\s*mode\s*([0-9]+))?.*
! Touchstone port assignment:
! Touchstone port 1 = CST MWS port 1 ("")
# GHz S DB R 50
4.5                     -9.45476         62.0957
4.52                    -10.0687         63.3721
4.54                    -10.6518         65.2529
4.56                     -11.183         67.7349
4.58                    -11.6365          70.758
4.6                     -11.9906         74.1835
4.62                    -12.2303         77.8328
4.64                    -12.3495         81.4797
4.66                    -12.3572          84.906
4.68                    -12.2696         87.9489
4.7                     -12.1089         90.4822
4.72                       -11.9         92.4622
4.74                    -11.6624          93.883
4.76                    -11.4157         94.7651
4.78                    -11.1735         95.1678
4.8                     -10.9454         95.1315
4.82                    -10.7412         94.7079
4.84                     -10.566          93.945
4.86                    -10.4257         92.8697
4.88                    -10.3261          91.519
4.9                     -10.2712         89.9121
4.92                    -10.2678         88.0599
4.94                    -10.3231         85.9793
4.96                    -10.4458         83.6704
4.98                    -10.6501         81.1386
5                       -10.9533         78.3998
5.02                    -11.3807          75.466
5.04                    -11.9717         72.3874
5.06                    -12.7829         69.2699
5.08                    -13.9084          66.346
5.1                      -15.505         64.2293
5.12                    -17.8453         64.5941
5.14                    -21.3395          73.171
5.16                    -24.7092         108.529
5.18                    -21.5183         150.383
5.2                     -17.0216         160.514
5.22                     -13.882         158.556
5.24                    -11.7852         152.656
5.26                    -10.4501         145.497
5.28                    -9.70877         138.365
5.3                     -9.45186         132.141
5.32                    -9.59401         127.682
5.34                    -10.0243         126.104
5.36                     -10.487          128.75
5.38                     -10.454           135.7
5.4                     -9.46093         143.188
5.42                    -7.79098         146.295
5.44                    -6.09332         144.206
5.46                    -4.72035         138.798
5.48                    -3.73093         131.935
5.5                     -3.06416         124.757
5.52                    -2.63534          117.82
5.54                    -2.37173         111.323
5.56                    -2.22133         105.294
5.58                    -2.14766         99.6896
5.6                     -2.12627         94.4318
5.62                    -2.15313         89.4654
5.64                    -2.17279         84.9203
5.66                      -2.172         80.2441
5.68                    -2.17136         75.2483
5.7                     -2.20613         69.7486
5.72                    -2.30891         63.7342
5.74                    -2.49188         57.1405
5.76                    -2.77154          49.676
5.78                     -3.1949         40.7581
5.8                     -3.87024         29.2919
5.82                    -5.05097          12.969
5.84                    -7.33799        -14.2316
5.86                    -11.0802         -73.752
5.88                    -8.54493        -164.976
5.9                     -4.40798         145.994
5.92                    -2.64239         118.225
5.94                    -1.95251         100.412
5.96                    -1.67796          87.927
5.98                    -1.57228         78.4532
6                       -1.54104         70.7866
6.02                    -1.54516         64.2603
6.04                    -1.56876         58.4797
6.06                    -1.60625         53.1925
6.08                    -1.66072         48.1933
6.1                     -1.76669         43.1789
6.12                    -2.68844          41.455
6.14                    -1.69379         36.9289
6.16                     -1.7729         32.0569
6.18                    -1.85198         27.6996
6.2                     -1.93388         23.4587
6.22                    -2.02007         19.2399
6.24                    -2.11043         14.9986
6.26                    -2.20457         10.7128
6.28                    -2.30153         6.37194
6.3                     -2.40086         1.97172
6.32                    -2.50265        -2.48538
6.34                    -2.60753        -6.99519
6.36                    -2.71702        -11.5548
6.38                    -2.83323        -16.1635
6.4                     -2.95838        -20.8258
6.42                    -3.09463        -25.5538
6.44                    -3.24376        -30.3644
6.46                    -3.40618        -35.2784
6.48                    -3.58133        -40.3214
6.5                      -3.7675        -45.5134
