! TOUCHSTONE file generated by CST MICROWAVE STUDIO
! Date and time: Sat Oct 29 01:31:06 2022
! Project name: L.cst
! Parameters = {Di=1.27; Epsilon_r=1.56; InnerDiameter=1.27; Length=2; Lf=10; Lg=60; OuterConductorThickness=0.2921; OuterDiameter=3.6; Wf=3; Wp=41.2; de=1.5; df=6.8; g=0.8; gx=1.15863; gy=2.7137; h=2.34; hf=1.524; px=14.6149; py=14.3846; w=9.7; wx=13.4562; wy=11.6709}
! Header version: 2018
! Port assignment regex: !\s*Touchstone port\s*([0-9]+)\s*=\s*(CST MWS port|CST DS port)\s*([0-9]+|Zmin|Zmax)\s*\(\"(.*)\"\)(\s*mode\s*([0-9]+))?.*
! Touchstone port assignment:
! Touchstone port 1 = CST MWS port 1 ("")
# GHz S DB R 50
4.5                     -5.28598         93.3683
4.52                    -5.23676          92.715
4.54                    -5.21985          91.746
4.56                    -5.19517         90.4598
4.58                    -5.17099         89.1424
4.6                     -5.19166         87.7353
4.62                    -5.24957         86.0266
4.64                    -5.32074         84.1399
4.66                    -5.43542          82.262
4.68                    -5.62572         80.2762
4.7                     -5.88108         78.1102
4.72                    -6.20844         76.0242
4.74                     -6.6573         74.2346
4.76                    -7.25993          72.838
4.78                    -8.00936         72.3476
4.8                     -8.88879          73.809
4.82                    -9.79059         78.3639
4.84                    -10.3448         86.3816
4.86                    -10.0942         95.7035
4.88                    -9.10723         102.262
4.9                     -7.92507         104.159
4.92                    -6.94675         102.288
4.94                    -6.31643         98.3818
4.96                    -6.08365         93.8947
4.98                    -6.25465         89.9571
5                       -6.74936         87.9626
5.02                     -7.3159          89.519
5.04                    -7.49731         94.4266
5.06                    -7.04887         99.3187
5.08                    -6.24971         101.661
5.1                     -5.40187         101.819
5.12                    -4.59572         100.438
5.14                    -3.87736         97.6395
5.16                    -3.29764         93.8707
5.18                    -2.87187         89.7364
5.2                     -2.57592         85.5431
5.22                    -2.36462         81.3917
5.24                    -2.20837         77.3606
5.26                    -2.09903          73.432
5.28                    -2.02446          69.485
5.3                     -1.96894         65.4734
5.32                     -1.9338         61.3795
5.34                    -1.92682         57.0485
5.36                    -1.94204         52.2942
5.38                    -1.98309         46.9791
5.4                     -2.08535         40.7505
5.42                    -2.29447         32.8304
5.44                     -2.7293         21.9812
5.46                    -3.83985         7.54695
5.48                    -5.65281        -18.4442
5.5                     -10.8299        -91.2618
5.52                    -7.22674           154.1
5.54                     -3.5826         109.627
5.56                    -2.33158         87.8115
5.58                    -1.84052         74.5128
5.6                      -1.6065         64.9778
5.62                     -1.4647         57.4674
5.64                    -1.38484         51.1268
5.66                     -1.3498         45.2708
5.68                     -1.3294         39.5511
5.7                     -1.33596         33.8088
5.72                    -1.42081         27.5722
5.74                    -1.64899         20.0732
5.76                    -2.27933         10.5604
5.78                    -4.41414        0.589266
5.8                     -8.42966         19.2624
5.82                     -4.7507         37.1907
5.84                    -3.14296         28.4376
5.86                    -2.58982         19.8847
5.88                    -2.56216          11.162
5.9                     -3.09652        0.571335
5.92                    -5.40346        -12.7917
5.94                    -10.0243         35.9166
5.96                    -2.57336         30.7838
5.98                    -1.59398         14.0842
6                       -1.52949         2.54692
6.02                     -1.6194        -6.91011
6.04                    -1.85528        -15.3999
6.06                    -2.31301        -24.2795
6.08                    -2.96776        -34.5482
6.1                     -3.91576        -46.0181
6.12                    -5.66547        -59.0929
6.14                    -9.14779        -76.8359
6.16                    -17.2341        -107.384
6.18                    -17.7039         83.2218
6.2                     -7.67485         50.7219
6.22                    -3.75053         25.1662
6.24                    -4.33449        -31.4063
6.26                    -10.9931         48.6899
6.28                    -4.69922         18.7783
6.3                       -2.894         3.57933
6.32                    -2.37847        -8.61796
6.34                     -2.2045        -23.0001
6.36                    -1.94319        -38.7069
6.38                    -1.99903        -57.3076
6.4                     -2.42803        -87.1873
6.42                    -2.60526        -137.489
6.44                    -2.13968         150.585
6.46                   -0.948628         88.0075
6.48                   -0.424888           52.13
6.5                    -0.360175         29.7557
