! TOUCHSTONE file generated by CST MICROWAVE STUDIO
! Date and time: Fri Oct 28 14:02:34 2022
! Project name: L.cst
! Parameters = {Di=1.27; Epsilon_r=1.56; InnerDiameter=1.27; Length=2; Lf=10; Lg=60; OuterConductorThickness=0.2921; OuterDiameter=3.6; Wf=3; Wp=41.2; de=1.5; df=6.8; g=0.8; gx=1.28958; gy=1.31027; h=2.34; hf=1.524; px=9.23694; py=14.4824; w=9.7; wx=7.94736; wy=13.1721}
! Header version: 2018
! Port assignment regex: !\s*Touchstone port\s*([0-9]+)\s*=\s*(CST MWS port|CST DS port)\s*([0-9]+|Zmin|Zmax)\s*\(\"(.*)\"\)(\s*mode\s*([0-9]+))?.*
! Touchstone port assignment:
! Touchstone port 1 = CST MWS port 1 ("")
# GHz S DB R 50
4.5                     -1.40735         58.6966
4.52                    -1.48343         56.6228
4.54                    -1.54157         54.4771
4.56                    -1.58989         52.3925
4.58                    -1.64728         50.3618
4.6                     -1.71974         48.2594
4.62                    -1.79323         46.0082
4.64                    -1.85207         43.6515
4.66                    -1.89895           41.28
4.68                    -1.94762         38.9026
4.7                      -2.0049         36.4189
4.72                    -2.06311         33.7433
4.74                    -2.11002         30.8823
4.76                    -2.14666         27.8901
4.78                    -2.18531         24.7728
4.8                     -2.23462         21.4446
4.82                    -2.29203          17.814
4.84                    -2.34986         13.8629
4.86                    -2.41001         9.61633
4.88                    -2.48581         5.05838
4.9                     -2.58963       0.0882831
4.92                    -2.72547        -5.42228
4.94                    -2.89637        -11.5522
4.96                    -3.11961        -18.3458
4.98                    -3.43331        -25.8942
5                       -3.89072        -34.3482
5.02                     -4.5564        -43.7927
5.04                    -5.51714        -54.0467
5.06                    -6.88974        -64.4756
5.08                    -8.78912        -73.8848
5.1                     -11.2475        -80.4163
5.12                    -14.0647        -81.4588
5.14                    -16.5632         -74.868
5.16                     -17.768        -63.7653
5.18                     -17.701        -56.2423
5.2                     -17.2552        -55.4078
5.22                    -16.9329        -59.9365
5.24                    -16.8119        -68.3379
5.26                    -16.8458        -79.7157
5.28                    -16.9753        -93.7808
5.3                     -17.0893        -110.809
5.32                    -16.9684        -130.862
5.34                     -16.394        -152.812
5.36                    -15.3495        -174.976
5.38                    -13.9711         163.456
5.4                     -12.3807         142.489
5.42                    -10.6793         121.817
5.44                     -8.9749         100.694
5.46                    -7.34838         77.9074
5.48                    -5.85762         52.1703
5.5                     -4.61964         22.5809
5.52                    -3.84244        -10.9379
5.54                    -3.67254        -47.1875
5.56                    -4.00677        -83.9562
5.58                    -4.63022         -119.27
5.6                     -5.54594        -152.112
5.62                    -7.17436         179.175
5.64                    -10.0078         165.688
5.66                    -9.19847          177.76
5.68                    -5.34692         164.574
5.7                      -3.2725          140.34
5.72                      -2.274          116.01
5.74                    -1.80916         92.4185
5.76                    -1.71419         68.5901
5.78                    -1.97288         42.8268
5.8                     -2.60553         12.6657
5.82                     -3.6164        -25.5549
5.84                       -4.65        -76.5574
5.86                    -4.45663        -137.311
5.88                    -3.09975         169.481
5.9                     -2.05192         129.951
5.92                      -1.587         100.154
5.94                     -1.4672         76.6422
5.96                    -1.55485         57.3685
5.98                    -1.81785         40.6948
6                       -2.19967         25.1876
6.02                    -2.59722         10.1255
6.04                    -2.98491        -4.40325
6.06                    -3.50123        -18.5642
6.08                    -4.34118        -33.8748
6.1                     -5.67042        -52.9133
6.12                    -8.94667        -76.1895
6.14                    -3.70775        -22.6025
6.16                    -1.18029        -85.6792
6.18                    -1.47962        -114.566
6.2                     -1.53928        -141.761
6.22                    -1.16603        -170.231
6.24                   -0.574205         162.723
6.26                   -0.252163         138.137
6.28                   -0.299752         115.322
6.3                    -0.485833         94.5364
6.32                   -0.691074         76.9416
6.34                    -1.00236         62.5951
6.36                    -1.45108         50.1983
6.38                    -1.90265         38.7013
6.4                     -2.22647         28.3333
6.42                    -2.47867         19.7112
6.44                    -2.80211         12.4447
6.46                    -3.21046         5.39311
6.48                     -3.5598        -1.94678
6.5                     -3.75099        -8.78733
