! TOUCHSTONE file generated by CST MICROWAVE STUDIO
! Date and time: Sat Oct 29 08:43:06 2022
! Project name: L.cst
! Parameters = {Di=1.27; Epsilon_r=1.56; InnerDiameter=1.27; Length=2; Lf=10; Lg=60; OuterConductorThickness=0.2921; OuterDiameter=3.6; Wf=3; Wp=41.2; de=1.5; df=6.8; g=0.8; gx=3.88217; gy=1.86584; h=2.34; hf=1.524; px=8.88833; py=8.56705; w=9.7; wx=5.00616; wy=6.70121}
! Header version: 2018
! Port assignment regex: !\s*Touchstone port\s*([0-9]+)\s*=\s*(CST MWS port|CST DS port)\s*([0-9]+|Zmin|Zmax)\s*\(\"(.*)\"\)(\s*mode\s*([0-9]+))?.*
! Touchstone port assignment:
! Touchstone port 1 = CST MWS port 1 ("")
# GHz S DB R 50
4.5                    -0.344918          87.057
4.52                   -0.353583         85.5765
4.54                   -0.362591         84.0814
4.56                   -0.371957         82.5717
4.58                    -0.38169         81.0475
4.6                    -0.391788         79.5085
4.62                   -0.402248         77.9549
4.64                   -0.413057         76.3866
4.66                   -0.424203         74.8034
4.68                   -0.435669         73.2052
4.7                    -0.447438         71.5918
4.72                   -0.459493          69.963
4.74                   -0.471816         68.3187
4.76                   -0.484391         66.6585
4.78                   -0.497203         64.9822
4.8                    -0.510238         63.2896
4.82                   -0.523485         61.5804
4.84                   -0.536935         59.8543
4.86                    -0.55058          58.111
4.88                   -0.564415         56.3504
4.9                    -0.578436          54.572
4.92                   -0.592642         52.7757
4.94                   -0.607033         50.9613
4.96                   -0.621608         49.1286
4.98                   -0.636371         47.2773
5                      -0.651323         45.4074
5.02                   -0.666466         43.5186
5.04                   -0.681804         41.6109
5.06                   -0.697338         39.6842
5.08                   -0.713069         37.7385
5.1                    -0.728999         35.7738
5.12                   -0.745127           33.79
5.14                   -0.761452         31.7873
5.16                   -0.777969         29.7656
5.18                   -0.794674         27.7252
5.2                    -0.811559         25.6661
5.22                   -0.828618         23.5886
5.24                   -0.845837         21.4929
5.26                   -0.863206         19.3792
5.28                    -0.88071         17.2478
5.3                    -0.898332          15.099
5.32                   -0.916055         12.9332
5.34                   -0.933858         10.7507
5.36                    -0.95172         8.55198
5.38                   -0.969617         6.33744
5.4                    -0.987526         4.10757
5.42                    -1.00542         1.86288
5.44                    -1.02327       -0.396098
5.46                    -1.04106        -2.66879
5.48                    -1.05875         -4.9546
5.5                     -1.07631        -7.25289
5.52                    -1.09373        -9.56302
5.54                    -1.11095        -11.8843
5.56                    -1.12797         -14.216
5.58                    -1.14475        -16.5574
5.6                     -1.16127        -18.9078
5.62                    -1.17749        -21.2662
5.64                     -1.1934        -23.6321
5.66                    -1.20896        -26.0044
5.68                    -1.22416        -28.3824
5.7                     -1.23897        -30.7651
5.72                    -1.25337        -33.1518
5.74                    -1.26734        -35.5414
5.76                    -1.28087        -37.9331
5.78                    -1.29393         -40.326
5.8                     -1.30651        -42.7192
5.82                    -1.31861        -45.1116
5.84                     -1.3302        -47.5025
5.86                    -1.34127        -49.8908
5.88                    -1.35183        -52.2756
5.9                     -1.36184        -54.6561
5.92                    -1.37132        -57.0313
5.94                    -1.38025        -59.4003
5.96                    -1.38862        -61.7623
5.98                    -1.39643        -64.1164
6                       -1.40368        -66.4618
6.02                    -1.41035        -68.7978
6.04                    -1.41644        -71.1235
6.06                    -1.42195        -73.4382
6.08                    -1.42687        -75.7414
6.1                      -1.4312        -78.0322
6.12                    -1.43493        -80.3103
6.14                    -1.43806        -82.5749
6.16                    -1.44058        -84.8257
6.18                    -1.44249        -87.0623
6.2                     -1.44379        -89.2842
6.22                    -1.44448        -91.4911
6.24                    -1.44457        -93.6829
6.26                    -1.44405        -95.8592
6.28                    -1.44294          -98.02
6.3                     -1.44124        -100.165
6.32                    -1.43899        -102.295
6.34                    -1.43619        -104.409
6.36                    -1.43288        -106.508
6.38                     -1.4291        -108.591
6.4                     -1.42489        -110.659
6.42                    -1.42029        -112.712
6.44                    -1.41537        -114.749
6.46                     -1.4102        -116.773
6.48                    -1.40484        -118.781
6.5                     -1.39939        -120.775
