! TOUCHSTONE file generated by CST MICROWAVE STUDIO
! Date and time: Fri Oct 28 06:59:02 2022
! Project name: L.cst
! Parameters = {Di=1.27; Epsilon_r=1.56; InnerDiameter=1.27; Length=2; Lf=10; Lg=60; OuterConductorThickness=0.2921; OuterDiameter=3.6; Wf=3; Wp=41.2; de=1.5; df=6.8; g=0.8; gx=2.8499; gy=1.46184; h=2.34; hf=1.524; px=8.19847; py=11.0234; w=9.7; wx=5.34857; wy=9.56161}
! Header version: 2018
! Port assignment regex: !\s*Touchstone port\s*([0-9]+)\s*=\s*(CST MWS port|CST DS port)\s*([0-9]+|Zmin|Zmax)\s*\(\"(.*)\"\)(\s*mode\s*([0-9]+))?.*
! Touchstone port assignment:
! Touchstone port 1 = CST MWS port 1 ("")
# GHz S DB R 50
4.5                     -0.44397         77.5022
4.52                   -0.445849         75.9225
4.54                   -0.449061         74.3136
4.56                   -0.453806         72.6776
4.58                   -0.460207         71.0163
4.6                    -0.468316         69.3315
4.62                    -0.47813         67.6248
4.64                   -0.489591         65.8975
4.66                   -0.502612         64.1508
4.68                    -0.51707         62.3856
4.7                    -0.532822         60.6025
4.72                   -0.549713         58.8019
4.74                    -0.56758         56.9837
4.76                    -0.58626         55.1481
4.78                   -0.605592         53.2945
4.8                    -0.625426         51.4225
4.82                   -0.645621         49.5315
4.84                   -0.666051         47.6206
4.86                   -0.686607         45.6889
4.88                   -0.707194         43.7353
4.9                    -0.727737         41.7589
4.92                   -0.748178         39.7584
4.94                   -0.768478         37.7327
4.96                   -0.788611         35.6807
4.98                   -0.808569         33.6013
5                      -0.828357         31.4933
5.02                   -0.847989         29.3558
5.04                   -0.867495         27.1877
5.06                    -0.88691         24.9881
5.08                   -0.906276         22.7562
5.1                    -0.925639         20.4913
5.12                   -0.945051         18.1926
5.14                   -0.964561         15.8596
5.16                   -0.984222         13.4918
5.18                    -1.00408         11.0887
5.2                     -1.02419         8.65002
5.22                    -1.04458         6.17553
5.24                     -1.0653         3.66505
5.26                    -1.08638         1.11855
5.28                    -1.10784        -1.46409
5.3                      -1.1297        -4.08276
5.32                    -1.15198        -6.73733
5.34                    -1.17467         -9.4276
5.36                    -1.19777        -12.1533
5.38                    -1.22128        -14.9142
5.4                     -1.24518        -17.7098
5.42                    -1.26945        -20.5397
5.44                    -1.29406        -23.4034
5.46                    -1.31897        -26.3005
5.48                    -1.34415        -29.2303
5.5                     -1.36956        -32.1922
5.52                    -1.39515        -35.1855
5.54                    -1.42088        -38.2096
5.56                    -1.44669        -41.2636
5.58                    -1.47255        -44.3468
5.6                     -1.49841        -47.4584
5.62                    -1.52421        -50.5974
5.64                    -1.54992        -53.7632
5.66                    -1.57551        -56.9546
5.68                    -1.60093        -60.1708
5.7                     -1.62616        -63.4109
5.72                    -1.65119        -66.6739
5.74                    -1.67599        -69.9587
5.76                    -1.70058        -73.2645
5.78                    -1.72495        -76.5902
5.8                     -1.74912        -79.9349
5.82                    -1.77313        -83.2977
5.84                    -1.79702        -86.6775
5.86                    -1.82084        -90.0734
5.88                    -1.84467        -93.4846
5.9                     -1.86859        -96.9101
5.92                     -1.8927        -100.349
5.94                    -1.91713        -103.801
5.96                      -1.942        -107.265
5.98                    -1.96747        -110.739
6                       -1.99371        -114.225
6.02                    -2.02091         -117.72
6.04                    -2.04928        -121.225
6.06                    -2.07906        -124.738
6.08                    -2.11049         -128.26
6.1                     -2.14385        -131.789
6.12                    -2.17943        -135.326
6.14                    -2.21757        -138.869
6.16                    -2.25861        -142.419
6.18                    -2.30293        -145.975
6.2                     -2.35093        -149.537
6.22                    -2.40306        -153.103
6.24                    -2.45977        -156.674
6.26                    -2.52158        -160.249
6.28                    -2.58902        -163.826
6.3                     -2.66268        -167.406
6.32                    -2.74317        -170.986
6.34                    -2.83117        -174.565
6.36                    -2.92737        -178.141
6.38                    -3.03255         178.289
6.4                     -3.14752         174.727
6.42                    -3.27313         171.176
6.44                    -3.41029         167.642
6.46                    -3.55998         164.131
6.48                    -3.72318         160.648
6.5                     -3.90095         157.202
