! TOUCHSTONE file generated by CST MICROWAVE STUDIO
! Date and time: Thu Oct 27 11:00:15 2022
! Project name: L.cst
! Parameters = {Di=1.27; Epsilon_r=1.56; InnerDiameter=1.27; Length=2; Lf=10; Lg=60; OuterConductorThickness=0.2921; OuterDiameter=3.6; Wf=3; Wp=41.2; de=1.5; df=6.8; g=0.8; gx=1.96263; gy=3.54464; h=2.34; hf=1.524; px=13.4542; py=12.6736; w=9.7; wx=11.4916; wy=9.12895}
! Header version: 2018
! Port assignment regex: !\s*Touchstone port\s*([0-9]+)\s*=\s*(CST MWS port|CST DS port)\s*([0-9]+|Zmin|Zmax)\s*\(\"(.*)\"\)(\s*mode\s*([0-9]+))?.*
! Touchstone port assignment:
! Touchstone port 1 = CST MWS port 1 ("")
# GHz S DB R 50
4.5                     -1.48758         81.6414
4.52                    -1.59475         79.8619
4.54                    -1.66359         78.1345
4.56                    -1.77557         76.2783
4.58                    -1.86064          74.555
4.6                     -1.97712         72.6426
4.62                    -2.08027         70.9079
4.64                    -2.20215         68.9621
4.66                    -2.32383          67.202
4.68                    -2.45346         65.2406
4.7                     -2.59374         63.4511
4.72                    -2.73335          61.488
4.74                    -2.89256         59.6702
4.76                    -3.04415          57.721
4.78                     -3.2224         55.8767
4.8                     -3.38854         53.9596
4.82                    -3.58493         52.0967
4.84                    -3.76832         50.2258
4.86                    -3.98178         48.3615
4.88                    -4.18425         46.5471
4.9                      -4.4142         44.7041
4.92                    -4.63627         42.9605
4.94                    -4.88156         41.1601
4.96                    -5.12343         39.5031
4.98                    -5.38192         37.7702
5                       -5.64277         36.2121
5.02                    -5.91166         34.5755
5.04                     -6.1887         33.1237
5.06                    -6.46493         31.6079
5.08                    -6.75338         30.2687
5.1                     -7.03268         28.8851
5.12                    -7.32695         27.6569
5.14                    -7.60353         26.4062
5.16                    -7.89694         25.2673
5.18                     -8.1651         24.1319
5.2                     -8.45016         23.0377
5.22                    -8.70572         21.9703
5.24                    -8.97614         20.8534
5.26                    -9.21753         19.7697
5.28                    -9.47147          18.536
5.3                     -9.70165         17.3226
5.32                    -9.94377         15.8477
5.34                     -10.174         14.3662
5.36                    -10.4179         12.5051
5.38                    -10.6717          10.593
5.4                     -10.9446          8.1996
5.42                    -11.2607         5.68227
5.44                    -11.6103         2.61533
5.46                    -12.0511       -0.669972
5.48                     -12.557        -4.52086
5.5                     -13.2254        -8.67462
5.52                    -14.0189        -13.2955
5.54                    -15.0873        -18.2364
5.56                    -16.3925        -23.2517
5.58                    -18.1557        -28.3828
5.6                     -20.3782        -32.4955
5.62                    -23.4202        -35.8774
5.64                    -27.5578         -34.935
5.66                    -34.1971        -27.7743
5.68                    -43.9333         53.9572
5.7                     -34.2944         125.522
5.72                    -28.0217         136.922
5.74                    -23.5867         143.021
5.76                    -19.7797         142.441
5.78                    -16.6876         139.096
5.8                     -14.0324         132.554
5.82                    -11.9656         124.681
5.84                    -10.2401         115.823
5.86                     -8.9644         106.537
5.88                    -7.92484         97.5176
5.9                      -7.1821          88.392
5.92                    -6.59468         80.0571
5.94                    -6.16959         71.5177
5.96                    -5.87389         63.8267
5.98                    -5.63465         55.6783
6                       -5.56068          48.102
6.02                    -5.46508         39.7813
6.04                    -5.67243         31.2167
6.06                    -5.91351         21.3429
6.08                    -7.46985         10.4361
6.1                     -9.07748         17.3793
6.12                    -7.48089         16.2876
6.14                    -7.36535       -0.222207
6.16                    -8.66612        -16.7317
6.18                    -11.1573        -39.1829
6.2                     -17.1464        -80.9362
6.22                    -18.3719         164.573
6.24                    -10.9385          114.57
6.26                    -7.43775         88.6661
6.28                    -5.74042         70.8421
6.3                     -4.71028          57.172
6.32                     -4.1952         45.7817
6.34                    -3.80595         37.0941
6.36                    -3.56316         28.3524
6.38                    -3.44978         21.9869
6.4                     -3.21583         14.4188
6.42                    -3.33425         8.83975
6.44                    -2.96715         1.84955
6.46                    -3.43997        -5.07268
6.48                    -2.75097        -12.3722
6.5                     -4.98881        -36.6843
