! TOUCHSTONE file generated by CST MICROWAVE STUDIO
! Date and time: Thu Oct 27 00:32:07 2022
! Project name: L.cst
! Parameters = {Di=1.27; Epsilon_r=1.56; InnerDiameter=1.27; Length=2; Lf=10; Lg=60; OuterConductorThickness=0.2921; OuterDiameter=3.6; Wf=3; Wp=41.2; de=1.5; df=6.8; g=0.8; gx=1.94487; gy=0.986774; h=2.34; hf=1.524; px=11.4422; py=9.83192; w=9.7; wx=9.49731; wy=8.84515}
! Header version: 2018
! Port assignment regex: !\s*Touchstone port\s*([0-9]+)\s*=\s*(CST MWS port|CST DS port)\s*([0-9]+|Zmin|Zmax)\s*\(\"(.*)\"\)(\s*mode\s*([0-9]+))?.*
! Touchstone port assignment:
! Touchstone port 1 = CST MWS port 1 ("")
# GHz S DB R 50
4.5                     -1.59397         58.3347
4.52                    -1.67475          56.077
4.54                    -1.75747         53.7626
4.56                    -1.84269         51.3882
4.58                    -1.93101         48.9508
4.6                     -2.02299         46.4483
4.62                    -2.11917         43.8788
4.64                    -2.22007         41.2409
4.66                    -2.32615         38.5338
4.68                    -2.43783         35.7564
4.7                     -2.55544         32.9084
4.72                    -2.67927         29.9893
4.74                    -2.80953         26.9988
4.76                    -2.94638         23.9367
4.78                     -3.0899         20.8024
4.8                     -3.24008         17.5958
4.82                    -3.39685         14.3165
4.84                    -3.56008         10.9639
4.86                    -3.72953         7.53772
4.88                    -3.90491         4.03727
4.9                     -4.08584        0.462035
4.92                    -4.27185        -3.18855
4.94                    -4.46239        -6.91497
4.96                    -4.65684        -10.7176
4.98                    -4.85446        -14.5967
5                       -5.05446        -18.5521
5.02                    -5.25594        -22.5835
5.04                    -5.45792          -26.69
5.06                    -5.65937        -30.8701
5.08                    -5.85916        -35.1217
5.1                     -6.05613        -39.4419
5.12                    -6.24908         -43.827
5.14                    -6.43681        -48.2722
5.16                    -6.61811        -52.7717
5.18                    -6.79182        -57.3185
5.2                     -6.95686        -61.9047
5.22                    -7.11223        -66.5214
5.24                    -7.25708        -71.1585
5.26                    -7.39071        -75.8052
5.28                    -7.51262        -80.4504
5.3                     -7.62248        -85.0823
5.32                     -7.7202        -89.6888
5.34                    -7.80588        -94.2584
5.36                    -7.87981        -98.7794
5.38                    -7.94248        -103.241
5.4                     -7.99453        -107.633
5.42                    -8.03674        -111.947
5.44                    -8.06997        -116.174
5.46                    -8.09515        -120.307
5.48                    -8.11326         -124.34
5.5                     -8.12528        -128.268
5.52                    -8.13214        -132.088
5.54                    -8.13477        -135.796
5.56                      -8.134         -139.39
5.58                     -8.1306         -142.87
5.6                     -8.12525        -146.233
5.62                    -8.11853        -149.482
5.64                    -8.11094        -152.615
5.66                    -8.10286        -155.633
5.68                    -8.09458        -158.539
5.7                      -8.0863        -161.333
5.72                    -8.07813        -164.017
5.74                    -8.07008        -166.594
5.76                    -8.06209        -169.066
5.78                    -8.05405        -171.435
5.8                     -8.04577        -173.704
5.82                      -8.037        -175.877
5.84                    -8.02746        -177.957
5.86                    -8.01685        -179.947
5.88                    -8.00482         178.148
5.9                     -7.99103         176.325
5.92                    -7.97514         174.578
5.94                    -7.95682         172.905
5.96                    -7.93576         171.298
5.98                    -7.91169         169.755
6                       -7.88439         168.268
6.02                    -7.85367         166.834
6.04                    -7.81941         165.447
6.06                    -7.78154         164.101
6.08                    -7.74006         162.793
6.1                     -7.69503         161.516
6.12                    -7.64654         160.267
6.14                    -7.59476         159.041
6.16                    -7.53989         157.834
6.18                    -7.48217         156.643
6.2                     -7.42184         155.465
6.22                    -7.35917         154.298
6.24                    -7.29442         153.139
6.26                    -7.22782         151.987
6.28                    -7.15958         150.842
6.3                     -7.08988         149.702
6.32                    -7.01881         148.567
6.34                    -6.94642         147.437
6.36                    -6.87268         146.311
6.38                    -6.79748         145.191
6.4                     -6.72062         144.076
6.42                    -6.64183         142.966
6.44                    -6.56073          141.86
6.46                     -6.4769         140.758
6.48                    -6.38983         139.657
6.5                     -6.29899         138.554
