! TOUCHSTONE file generated by CST MICROWAVE STUDIO
! Date and time: Sat Oct 29 22:13:29 2022
! Project name: L.cst
! Parameters = {Di=1.27; Epsilon_r=1.56; InnerDiameter=1.27; Length=2; Lf=10; Lg=60; OuterConductorThickness=0.2921; OuterDiameter=3.6; Wf=3; Wp=41.2; de=1.5; df=6.8; g=0.8; gx=0.552907; gy=3.32111; h=2.34; hf=1.524; px=12.6081; py=8.38718; w=9.7; wx=12.0552; wy=5.06607}
! Header version: 2018
! Port assignment regex: !\s*Touchstone port\s*([0-9]+)\s*=\s*(CST MWS port|CST DS port)\s*([0-9]+|Zmin|Zmax)\s*\(\"(.*)\"\)(\s*mode\s*([0-9]+))?.*
! Touchstone port assignment:
! Touchstone port 1 = CST MWS port 1 ("")
# GHz S DB R 50
4.5                     -7.39078         74.4171
4.52                    -7.85004         74.9863
4.54                    -8.31877         76.4609
4.56                    -8.66321         78.5347
4.58                    -8.93336         80.4751
4.6                     -9.19437         82.7546
4.62                    -9.33566         85.5999
4.64                    -9.32781         88.1477
4.66                    -9.28127         90.2576
4.68                    -9.18291         92.4337
4.7                     -8.96826         94.3039
4.72                    -8.71079         95.4156
4.74                    -8.46919         96.1764
4.76                    -8.19156         96.7706
4.78                    -7.87763         96.8074
4.8                       -7.594         96.3348
4.82                    -7.33414         95.7336
4.84                    -7.05661         94.9057
4.86                    -6.78983         93.6322
4.88                    -6.56561         92.1359
4.9                     -6.35257         90.5911
4.92                    -6.13468         88.7946
4.94                    -5.94558         86.6937
4.96                    -5.78926         84.5137
4.98                    -5.63407         82.2531
5                       -5.48549         79.7188
5.02                    -5.37041         76.9732
5.04                     -5.2755         74.1713
5.06                     -5.1794         71.1966
5.08                     -5.1011         67.9155
5.1                     -5.05602         64.4465
5.12                    -5.02267         60.8445
5.14                    -4.99349         56.9271
5.16                    -4.99358         52.6239
5.18                    -5.02631         48.0494
5.2                     -5.06892         43.1374
5.22                    -5.12742         37.6532
5.24                    -5.22771         31.5459
5.26                    -5.36205         24.8446
5.28                    -5.50872         17.3046
5.3                     -5.68137         8.56386
5.32                    -5.89624        -1.54982
5.34                    -6.12043        -13.2576
5.36                     -6.3019        -27.1311
5.38                    -6.40551        -43.7736
5.4                     -6.36711         -63.375
5.42                     -6.0723         -85.744
5.44                    -5.46718        -110.432
5.46                    -4.68261        -136.627
5.48                    -3.99949        -163.165
5.5                     -3.70706         171.257
5.52                    -4.00295         148.007
5.54                     -4.9601         128.627
5.56                    -6.50062         114.946
5.58                    -8.31848         108.917
5.6                     -9.77028         111.285
5.62                     -10.111          118.61
5.64                    -9.34202         124.308
5.66                    -8.14811         125.527
5.68                    -7.00635         123.401
5.7                     -6.04635           119.5
5.72                    -5.26865         114.736
5.74                    -4.65011         109.629
5.76                    -4.15406         104.483
5.78                    -3.74855         99.3761
5.8                     -3.42279         94.3443
5.82                    -3.16204         89.4937
5.84                    -2.93867         84.8121
5.86                    -2.75046         80.1619
5.88                    -2.61706         75.6062
5.9                     -2.52009         71.3665
5.92                    -2.41147         67.3609
5.94                    -2.29242         63.2658
5.96                    -2.20304         59.0696
5.98                    -2.13928         54.9858
6                       -2.07211         50.9398
6.02                    -2.01883         46.7662
6.04                    -1.99757          42.634
6.06                    -1.96979         38.6253
6.08                    -1.92461          34.403
6.1                     -1.91933         29.9161
6.12                    -1.94857          25.578
6.14                    -1.93314         21.2221
6.16                    -1.91099         16.1715
6.18                    -1.99478         10.7273
6.2                     -2.10336         5.62255
6.22                    -2.09493       -0.231977
6.24                    -2.21902        -8.48345
6.26                      -2.919        -17.5272
6.28                    -4.10414        -22.5729
6.3                     -4.65553        -22.3197
6.32                    -4.05408         -26.295
6.34                     -3.5226        -39.4664
6.36                    -3.73557         -58.584
6.38                    -4.48563         -82.084
6.4                      -5.2389        -112.734
6.42                    -5.31772         -153.27
6.44                    -4.26069         162.133
6.46                    -2.79485         123.143
6.48                    -1.81529         93.0715
6.5                     -1.36723         71.7154
