! TOUCHSTONE file generated by CST MICROWAVE STUDIO
! Date and time: Sat Oct 29 16:51:57 2022
! Project name: L.cst
! Parameters = {Di=1.27; Epsilon_r=1.56; InnerDiameter=1.27; Length=2; Lf=10; Lg=60; OuterConductorThickness=0.2921; OuterDiameter=3.6; Wf=3; Wp=41.2; de=1.5; df=6.8; g=0.8; gx=1.89314; gy=4.80697; h=2.34; hf=1.524; px=9.28798; py=10.0874; w=9.7; wx=7.39484; wy=5.2804}
! Header version: 2018
! Port assignment regex: !\s*Touchstone port\s*([0-9]+)\s*=\s*(CST MWS port|CST DS port)\s*([0-9]+|Zmin|Zmax)\s*\(\"(.*)\"\)(\s*mode\s*([0-9]+))?.*
! Touchstone port assignment:
! Touchstone port 1 = CST MWS port 1 ("")
# GHz S DB R 50
4.5                      -0.3645         96.2189
4.52                   -0.374791         94.7857
4.54                   -0.385364         93.3424
4.56                   -0.396222         91.8891
4.58                    -0.40737         90.4256
4.6                    -0.418809          88.952
4.62                   -0.430536         87.4682
4.64                   -0.442553         85.9742
4.66                   -0.454854         84.4698
4.68                   -0.467438         82.9551
4.7                      -0.4803         81.4298
4.72                   -0.493439          79.894
4.74                   -0.506851         78.3476
4.76                   -0.520533         76.7905
4.78                   -0.534486         75.2226
4.8                    -0.548709         73.6437
4.82                   -0.563201         72.0539
4.84                   -0.577963          70.453
4.86                   -0.592998          68.841
4.88                    -0.60831         67.2178
4.9                    -0.623899         65.5834
4.92                   -0.639771         63.9377
4.94                    -0.65593         62.2808
4.96                    -0.67238         60.6125
4.98                   -0.689126         58.9329
5                      -0.706172          57.242
5.02                   -0.723525         55.5399
5.04                   -0.741188         53.8266
5.06                   -0.759165         52.1021
5.08                   -0.777461         50.3666
5.1                    -0.796077         48.6201
5.12                    -0.81502         46.8628
5.14                   -0.834288         45.0948
5.16                   -0.853884         43.3162
5.18                   -0.873809         41.5272
5.2                    -0.894062          39.728
5.22                   -0.914642         37.9188
5.24                   -0.935548         36.0997
5.26                   -0.956775         34.2712
5.28                   -0.978321         32.4332
5.3                     -1.00018         30.5863
5.32                    -1.02235         28.7305
5.34                    -1.04482         26.8662
5.36                    -1.06758         24.9938
5.38                    -1.09063         23.1135
5.4                     -1.11395         21.2256
5.42                    -1.13754         19.3306
5.44                    -1.16139         17.4288
5.46                    -1.18549         15.5206
5.48                    -1.20982         13.6063
5.5                     -1.23437         11.6864
5.52                    -1.25912         9.76125
5.54                    -1.28408         7.83133
5.56                    -1.30921         5.89706
5.58                    -1.33451         3.95888
5.6                     -1.35997         2.01727
5.62                    -1.38556       0.0726921
5.64                    -1.41127        -1.87437
5.66                    -1.43709        -3.82344
5.68                      -1.463          -5.774
5.7                     -1.48898        -7.72557
5.72                    -1.51501        -9.67763
5.74                    -1.54109        -11.6297
5.76                    -1.56718        -13.5811
5.78                    -1.59328        -15.5316
5.8                     -1.61937        -17.4804
5.82                    -1.64542        -19.4271
5.84                    -1.67141        -21.3713
5.86                    -1.69734        -23.3123
5.88                    -1.72317        -25.2496
5.9                      -1.7489        -27.1828
5.92                    -1.77449        -29.1113
5.94                    -1.79993        -31.0347
5.96                     -1.8252        -32.9524
5.98                    -1.85027        -34.8641
6                       -1.87514        -36.7692
6.02                    -1.89976        -38.6673
6.04                    -1.92414        -40.5581
6.06                    -1.94823        -42.4411
6.08                    -1.97204        -44.3159
6.1                     -1.99553        -46.1822
6.12                    -2.01869        -48.0396
6.14                    -2.04151        -49.8879
6.16                    -2.06396        -51.7268
6.18                    -2.08604        -53.5561
6.2                     -2.10773        -55.3754
6.22                    -2.12904        -57.1846
6.24                    -2.14994        -58.9836
6.26                    -2.17045        -60.7722
6.28                    -2.19056        -62.5502
6.3                     -2.21027        -64.3176
6.32                    -2.22961        -66.0742
6.34                    -2.24859          -67.82
6.36                    -2.26721        -69.5549
6.38                    -2.28552        -71.2789
6.4                     -2.30354        -72.9917
6.42                    -2.32129        -74.6935
6.44                    -2.33883        -76.3841
6.46                    -2.35619        -78.0633
6.48                    -2.37342         -79.731
6.5                     -2.39057        -81.3871
