! TOUCHSTONE file generated by CST MICROWAVE STUDIO
! Date and time: Wed Oct 26 22:40:04 2022
! Project name: L.cst
! Parameters = {Di=1.27; Epsilon_r=1.56; InnerDiameter=1.27; Length=2; Lf=10; Lg=60; OuterConductorThickness=0.2921; OuterDiameter=3.6; Wf=3; Wp=41.2; de=1.5; df=6.8; g=0.8; gx=2.23947; gy=4.6413; h=2.34; hf=1.524; px=11.6334; py=11.8095; w=9.7; wx=9.3939; wy=7.16824}
! Header version: 2018
! Port assignment regex: !\s*Touchstone port\s*([0-9]+)\s*=\s*(CST MWS port|CST DS port)\s*([0-9]+|Zmin|Zmax)\s*\(\"(.*)\"\)(\s*mode\s*([0-9]+))?.*
! Touchstone port assignment:
! Touchstone port 1 = CST MWS port 1 ("")
# GHz S DB R 50
4.5                    -0.509805         93.9943
4.52                   -0.527204         92.5071
4.54                   -0.545335         91.0083
4.56                   -0.564192          89.498
4.58                   -0.583765         87.9761
4.6                    -0.604045         86.4426
4.62                   -0.625021         84.8974
4.64                   -0.646684         83.3404
4.66                   -0.669025         81.7714
4.68                   -0.692041         80.1901
4.7                    -0.715728         78.5964
4.72                   -0.740091         76.9901
4.74                   -0.765134         75.3709
4.76                   -0.790867         73.7386
4.78                   -0.817304         72.0929
4.8                    -0.844464         70.4335
4.82                   -0.872367         68.7603
4.84                    -0.90104          67.073
4.86                   -0.930508         65.3715
4.88                   -0.960803         63.6555
4.9                    -0.991959         61.9248
4.92                    -1.02401         60.1794
4.94                    -1.05699         58.4192
4.96                    -1.09094          56.644
4.98                    -1.12589         54.8538
5                       -1.16189         53.0486
5.02                    -1.19897         51.2284
5.04                    -1.23717         49.3931
5.06                    -1.27652          47.543
5.08                    -1.31707          45.678
5.1                     -1.35884         43.7983
5.12                    -1.40188          41.904
5.14                     -1.4462         39.9953
5.16                    -1.49185         38.0723
5.18                    -1.53885         36.1354
5.2                     -1.58723         34.1848
5.22                      -1.637         32.2206
5.24                     -1.6882         30.2433
5.26                    -1.74085         28.2532
5.28                    -1.79496         26.2506
5.3                     -1.85054         24.2359
5.32                    -1.90763         22.2094
5.34                    -1.96622         20.1717
5.36                    -2.02633          18.123
5.38                    -2.08797         16.0641
5.4                     -2.15114         13.9952
5.42                    -2.21585          11.917
5.44                     -2.2821         9.82999
5.46                     -2.3499         7.73478
5.48                    -2.41925         5.63197
5.5                     -2.49014          3.5222
5.52                    -2.56257         1.40615
5.54                    -2.63654       -0.715498
5.56                    -2.71204          -2.842
5.58                    -2.78905        -4.97258
5.6                     -2.86757        -7.10646
5.62                    -2.94758        -9.24279
5.64                    -3.02907        -11.3807
5.66                    -3.11201        -13.5193
5.68                    -3.19638        -15.6577
5.7                     -3.28216        -17.7948
5.72                    -3.36932        -19.9297
5.74                    -3.45781        -22.0613
5.76                     -3.5476        -24.1885
5.78                    -3.63864        -26.3104
5.8                     -3.73088        -28.4256
5.82                    -3.82426        -30.5332
5.84                    -3.91872        -32.6318
5.86                    -4.01417        -34.7203
5.88                    -4.11053        -36.7976
5.9                      -4.2077        -38.8623
5.92                    -4.30559        -40.9133
5.94                    -4.40406        -42.9495
5.96                      -4.503        -44.9695
5.98                    -4.60224        -46.9725
6                       -4.70164        -48.9571
6.02                    -4.80103        -50.9226
6.04                    -4.90021        -52.8679
6.06                    -4.99898        -54.7923
6.08                    -5.09713        -56.6951
6.1                     -5.19443        -58.5759
6.12                    -5.29064        -60.4342
6.14                    -5.38551          -62.27
6.16                    -5.47878        -64.0835
6.18                    -5.57021        -65.8749
6.2                     -5.65952        -67.6451
6.22                    -5.74648        -69.3949
6.24                    -5.83086        -71.1258
6.26                    -5.91243        -72.8393
6.28                    -5.99102        -74.5376
6.3                     -6.06648         -76.223
6.32                    -6.13871        -77.8983
6.34                    -6.20769        -79.5667
6.36                    -6.27344        -81.2314
6.38                    -6.33607        -82.8963
6.4                     -6.39578        -84.5653
6.42                    -6.45289        -86.2426
6.44                     -6.5078        -87.9322
6.46                    -6.56104        -89.6387
6.48                    -6.61327        -91.3661
6.5                     -6.66529        -93.1186
