! TOUCHSTONE file generated by CST MICROWAVE STUDIO
! Date and time: Fri Oct 28 18:15:55 2022
! Project name: L.cst
! Parameters = {Di=1.27; Epsilon_r=1.56; InnerDiameter=1.27; Length=2; Lf=10; Lg=60; OuterConductorThickness=0.2921; OuterDiameter=3.6; Wf=3; Wp=41.2; de=1.5; df=6.8; g=0.8; gx=4.46347; gy=4.03074; h=2.34; hf=1.524; px=14.2604; py=13.8648; w=9.7; wx=9.79695; wy=9.83406}
! Header version: 2018
! Port assignment regex: !\s*Touchstone port\s*([0-9]+)\s*=\s*(CST MWS port|CST DS port)\s*([0-9]+|Zmin|Zmax)\s*\(\"(.*)\"\)(\s*mode\s*([0-9]+))?.*
! Touchstone port assignment:
! Touchstone port 1 = CST MWS port 1 ("")
# GHz S DB R 50
4.5                    -0.535786         94.0784
4.52                   -0.563816         92.6075
4.54                   -0.588155         91.1413
4.56                    -0.60836         89.6619
4.58                   -0.625302         88.1538
4.6                    -0.640768         86.6071
4.62                   -0.656861         85.0193
4.64                   -0.675433         83.3945
4.66                   -0.697653         81.7416
4.68                   -0.723821         80.0714
4.7                    -0.753409         78.3929
4.72                   -0.785309         76.7122
4.74                   -0.818188         75.0302
4.76                   -0.850862         73.3435
4.78                   -0.882595         71.6454
4.8                    -0.913243         69.9278
4.82                   -0.943249         68.1837
4.84                   -0.973472         66.4081
4.86                    -1.00495         64.5998
4.88                    -1.03862         62.7606
4.9                      -1.0751         60.8946
4.92                     -1.1146         59.0072
4.94                    -1.15689         57.1032
4.96                    -1.20141         55.1855
4.98                    -1.24748         53.2548
5                       -1.29444         51.3091
5.02                    -1.34189         49.3445
5.04                    -1.38975         47.3562
5.06                     -1.4383         45.3397
5.08                     -1.4881         43.2916
5.1                     -1.53983         41.2108
5.12                    -1.59418         39.0982
5.14                    -1.65164         36.9564
5.16                    -1.71243         34.7891
5.18                    -1.77647         32.5998
5.2                     -1.84343          30.391
5.22                    -1.91283         28.1636
5.24                    -1.98419         25.9164
5.26                    -2.05718         23.6469
5.28                    -2.13172         21.3512
5.3                     -2.20801         19.0256
5.32                    -2.28651          16.667
5.34                    -2.36786         14.2743
5.36                    -2.45275          11.848
5.38                    -2.54172         9.39055
5.4                     -2.63512         6.90572
5.42                    -2.73298         4.39764
5.44                    -2.83506         1.86988
5.46                    -2.94091       -0.675424
5.48                    -3.04997        -3.23806
5.5                      -3.1618        -5.81984
5.52                    -3.27616        -8.42408
5.54                    -3.39313        -11.0548
5.56                    -3.51313        -13.7154
5.58                    -3.63687         -16.408
5.6                      -3.7652        -19.1321
5.62                    -3.89891        -21.8847
5.64                    -4.03858        -24.6604
5.66                    -4.18438        -27.4526
5.68                    -4.33606        -30.2546
5.7                     -4.49292        -33.0609
5.72                    -4.65399        -35.8691
5.74                    -4.81823        -38.6799
5.76                    -4.98483        -41.4974
5.78                    -5.15345        -44.3286
5.8                     -5.32434        -47.1806
5.82                    -5.49845        -50.0594
5.84                    -5.67719        -52.9672
5.86                    -5.86219         -55.901
5.88                    -6.05483         -58.852
5.9                     -6.25587        -61.8069
5.92                    -6.46501        -64.7496
5.94                    -6.68077         -67.665
5.96                    -6.90053        -70.5427
5.98                    -7.12089        -73.3811
6                       -7.33836        -76.1899
6.02                    -7.55022        -78.9897
6.04                    -7.75533        -81.8098
6.06                    -7.95474         -84.682
6.08                    -8.15177         -87.633
6.1                      -8.3514        -90.6769
6.12                    -8.55921        -93.8105
6.14                    -8.77988        -97.0113
6.16                    -9.01555        -100.242
6.18                    -9.26448        -103.458
6.2                     -9.52025        -106.623
6.22                    -9.77194        -109.727
6.24                     -10.006        -112.806
6.26                      -10.21        -115.956
6.28                    -10.3772        -119.329
6.3                     -10.5116        -123.119
6.32                    -10.6297        -127.525
6.34                    -10.7603        -132.719
6.36                     -10.941        -138.826
6.38                    -11.2151        -145.921
6.4                     -11.6302         -154.05
6.42                    -12.2394        -163.259
6.44                    -13.1071         -173.63
6.46                    -14.3194         174.637
6.48                    -16.0058         161.066
6.5                     -18.3797         144.419
