! TOUCHSTONE file generated by CST MICROWAVE STUDIO
! Date and time: Thu Oct 27 09:22:53 2022
! Project name: L.cst
! Parameters = {Di=1.27; Epsilon_r=1.56; InnerDiameter=1.27; Length=2; Lf=10; Lg=60; OuterConductorThickness=0.2921; OuterDiameter=3.6; Wf=3; Wp=41.2; de=1.5; df=6.8; g=0.8; gx=4.55741; gy=3.73102; h=2.34; hf=1.524; px=9.95848; py=13.004; w=9.7; wx=5.40107; wy=9.273}
! Header version: 2018
! Port assignment regex: !\s*Touchstone port\s*([0-9]+)\s*=\s*(CST MWS port|CST DS port)\s*([0-9]+|Zmin|Zmax)\s*\(\"(.*)\"\)(\s*mode\s*([0-9]+))?.*
! Touchstone port assignment:
! Touchstone port 1 = CST MWS port 1 ("")
# GHz S DB R 50
4.5                    -0.310188         95.4883
4.52                   -0.319064         94.0853
4.54                   -0.328028         92.6725
4.56                   -0.337067         91.2494
4.58                   -0.346172         89.8156
4.6                    -0.355343         88.3708
4.62                   -0.364576         86.9147
4.64                   -0.373879         85.4469
4.66                   -0.383258         83.9671
4.68                   -0.392723         82.4751
4.7                    -0.402284         80.9705
4.72                   -0.411955          79.453
4.74                   -0.421748         77.9226
4.76                   -0.431675         76.3789
4.78                   -0.441751         74.8216
4.8                    -0.451988         73.2506
4.82                   -0.462397         71.6657
4.84                   -0.472989         70.0668
4.86                   -0.483772         68.4537
4.88                   -0.494756         66.8262
4.9                    -0.505947         65.1842
4.92                    -0.51735         63.5276
4.94                   -0.528971         61.8562
4.96                   -0.540811           60.17
4.98                   -0.552873         58.4687
5                      -0.565157         56.7523
5.02                   -0.577662         55.0208
5.04                   -0.590386         53.2739
5.06                   -0.603328         51.5116
5.08                   -0.616483         49.7339
5.1                    -0.629847         47.9405
5.12                   -0.643416         46.1315
5.14                   -0.657184         44.3067
5.16                   -0.671145         42.4661
5.18                   -0.685294         40.6096
5.2                    -0.699622         38.7372
5.22                   -0.714125         36.8488
5.24                   -0.728795         34.9444
5.26                   -0.743625         33.0239
5.28                   -0.758609         31.0873
5.3                    -0.773739         29.1345
5.32                   -0.789009         27.1657
5.34                   -0.804413         25.1808
5.36                   -0.819942         23.1798
5.38                   -0.835593         21.1628
5.4                    -0.851358         19.1298
5.42                   -0.867231         17.0808
5.44                   -0.883208         15.0161
5.46                   -0.899282         12.9356
5.48                   -0.915448         10.8396
5.5                    -0.931703         8.72802
5.52                   -0.948041         6.60117
5.54                   -0.964458         4.45917
5.56                    -0.98095         2.30223
5.58                   -0.997513        0.130538
5.6                     -1.01414        -2.05567
5.62                    -1.03084        -4.25616
5.64                     -1.0476        -6.47065
5.66                    -1.06441        -8.69889
5.68                    -1.08128        -10.9406
5.7                      -1.0982        -13.1954
5.72                    -1.11517         -15.463
5.74                    -1.13218        -17.7432
5.76                    -1.14924        -20.0354
5.78                    -1.16633        -22.3395
5.8                     -1.18345         -24.655
5.82                    -1.20061        -26.9816
5.84                    -1.21778         -29.319
5.86                    -1.23497        -31.6667
5.88                    -1.25218        -34.0245
5.9                     -1.26939         -36.392
5.92                    -1.28659        -38.7688
5.94                    -1.30379        -41.1548
5.96                    -1.32096        -43.5496
5.98                     -1.3381         -45.953
6                       -1.35521        -48.3648
6.02                    -1.37227        -50.7849
6.04                    -1.38927        -53.2131
6.06                     -1.4062        -55.6496
6.08                    -1.42306        -58.0942
6.1                     -1.43985        -60.5472
6.12                    -1.45655        -63.0087
6.14                    -1.47319        -65.4791
6.16                    -1.48976        -67.9588
6.18                    -1.50627        -70.4484
6.2                     -1.52276        -72.9485
6.22                    -1.53926        -75.4599
6.24                    -1.55582        -77.9837
6.26                    -1.57249         -80.521
6.28                    -1.58938        -83.0729
6.3                     -1.60658        -85.6411
6.32                    -1.62422        -88.2271
6.34                    -1.64247        -90.8328
6.36                    -1.66152          -93.46
6.38                    -1.68162        -96.1112
6.4                     -1.70303        -98.7885
6.42                    -1.72609        -101.495
6.44                     -1.7512        -104.232
6.46                    -1.77879        -107.004
6.48                    -1.80938        -109.813
6.5                     -1.84358        -112.662
