! TOUCHSTONE file generated by CST MICROWAVE STUDIO
! Date and time: Thu Oct 27 00:51:30 2022
! Project name: L.cst
! Parameters = {Di=1.27; Epsilon_r=1.56; InnerDiameter=1.27; Length=2; Lf=10; Lg=60; OuterConductorThickness=0.2921; OuterDiameter=3.6; Wf=3; Wp=41.2; de=1.5; df=6.8; g=0.8; gx=1.29985; gy=2.94595; h=2.34; hf=1.524; px=14.8477; py=10.7433; w=9.7; wx=13.5479; wy=7.79733}
! Header version: 2018
! Port assignment regex: !\s*Touchstone port\s*([0-9]+)\s*=\s*(CST MWS port|CST DS port)\s*([0-9]+|Zmin|Zmax)\s*\(\"(.*)\"\)(\s*mode\s*([0-9]+))?.*
! Touchstone port assignment:
! Touchstone port 1 = CST MWS port 1 ("")
# GHz S DB R 50
4.5                     -7.18794         102.502
4.52                    -7.00519         103.128
4.54                    -6.81722         103.464
4.56                    -6.60855         103.496
4.58                    -6.40152         103.121
4.6                     -6.21172         102.495
4.62                    -6.02344         101.644
4.64                    -5.84829          100.48
4.66                    -5.69901         99.1137
4.68                    -5.56158           97.58
4.7                     -5.44189         95.7931
4.72                    -5.35152         93.8223
4.74                    -5.27987         91.6946
4.76                    -5.23085         89.3263
4.78                    -5.21627         86.7474
4.8                     -5.23111         83.9739
4.82                    -5.27923         80.9207
4.84                    -5.37537          77.568
4.86                    -5.52403         73.9102
4.88                    -5.73408          69.842
4.9                     -6.03104         65.2679
4.92                     -6.4399         60.1164
4.94                    -6.99335         54.1867
4.96                    -7.75782         47.1796
4.98                    -8.83163            38.7
5                       -10.3636         27.8811
5.02                    -12.6191         12.5834
5.04                    -15.9051        -13.5235
5.06                    -18.4713        -66.4448
5.08                    -15.1699        -121.811
5.1                     -10.8537        -150.981
5.12                    -7.63533         -170.07
5.14                    -5.32859          173.88
5.16                    -3.83767         159.296
5.18                    -2.99564         147.001
5.2                     -2.50178           137.2
5.22                    -2.16662         129.201
5.24                    -1.91968         122.368
5.26                    -1.73686         116.342
5.28                    -1.60165         110.925
5.3                     -1.50225         105.959
5.32                    -1.43663         101.329
5.34                    -1.40498         96.9868
5.36                    -1.41092         92.9061
5.38                    -1.46927         89.2221
5.4                      -1.5271         86.4757
5.42                    -1.39034         83.9415
5.44                    -1.23151         80.2292
5.46                    -1.17007         76.2049
5.48                    -1.15545          72.265
5.5                      -1.1478         68.2039
5.52                    -1.17116         63.9422
5.54                    -1.21413         59.4212
5.56                    -1.27987         54.4073
5.58                     -1.3871         48.6083
5.6                     -1.56051         41.5439
5.62                    -1.85755          32.183
5.64                    -2.44245         18.2696
5.66                    -3.78896        -6.21461
5.68                     -6.9826        -62.9764
5.7                     -5.89873        -173.016
5.72                    -2.34298         127.859
5.74                    -1.21092         100.722
5.76                   -0.843257         85.5014
5.78                   -0.702005         75.5531
5.8                    -0.631625          68.213
5.82                   -0.603183           62.29
5.84                   -0.598018         57.3642
5.86                   -0.579892         53.0223
5.88                    -0.57707         48.8169
5.9                    -0.643543         44.8114
5.92                    -1.22693         42.9489
5.94                   -0.596356         40.1749
5.96                   -0.539612         36.5649
5.98                   -0.548658         33.2118
6                      -0.560209         30.2698
6.02                   -0.543211         27.3538
6.04                   -0.542326         24.3755
6.06                   -0.550201         21.5688
6.08                    -0.53854         18.7952
6.1                    -0.533725         15.9374
6.12                   -0.539931         13.1771
6.14                    -0.53104         10.4608
6.16                   -0.523676         7.65268
6.18                   -0.528971         4.89792
6.2                    -0.522428         2.20006
6.22                   -0.513166       -0.591718
6.24                   -0.517962        -3.36413
6.26                   -0.514008        -6.06526
6.28                   -0.503447        -8.85708
6.3                    -0.507869        -11.6605
6.32                   -0.507038        -14.3784
6.34                   -0.495761        -17.1775
6.36                   -0.499839          -20.02
6.38                   -0.502972         -22.763
6.4                    -0.491721        -25.5698
6.42                   -0.495312        -28.4546
6.44                   -0.503315        -31.2284
6.46                   -0.492956        -34.0392
6.48                   -0.495808        -36.9669
6.5                    -0.509873         -39.776
