! TOUCHSTONE file generated by CST MICROWAVE STUDIO
! Date and time: Sat Oct 29 23:15:24 2022
! Project name: L.cst
! Parameters = {Di=1.27; Epsilon_r=1.56; InnerDiameter=1.27; Length=2; Lf=10; Lg=60; OuterConductorThickness=0.2921; OuterDiameter=3.6; Wf=3; Wp=41.2; de=1.5; df=6.8; g=0.8; gx=1.40075; gy=2.57411; h=2.34; hf=1.524; px=10.9535; py=14.5308; w=9.7; wx=9.5528; wy=11.9567}
! Header version: 2018
! Port assignment regex: !\s*Touchstone port\s*([0-9]+)\s*=\s*(CST MWS port|CST DS port)\s*([0-9]+|Zmin|Zmax)\s*\(\"(.*)\"\)(\s*mode\s*([0-9]+))?.*
! Touchstone port assignment:
! Touchstone port 1 = CST MWS port 1 ("")
# GHz S DB R 50
4.5                     -1.19592         73.6538
4.52                    -1.25861          71.951
4.54                     -1.3047         70.1203
4.56                    -1.37566         68.2959
4.58                    -1.42881         66.4815
4.6                     -1.49932         64.5527
4.62                     -1.5663         62.7093
4.64                    -1.63432         60.7252
4.66                    -1.71442         58.7977
4.68                    -1.78506          56.793
4.7                     -1.87287         54.7599
4.72                    -1.95277         52.7294
4.74                    -2.04407         50.6034
4.76                    -2.13711         48.5157
4.78                     -2.2318          46.324
4.8                     -2.33768         44.1463
4.82                    -2.43923         41.9063
4.84                    -2.55513         39.6216
4.86                    -2.66852         37.3284
4.88                    -2.79181         34.9431
4.9                     -2.92041         32.5706
4.92                    -3.05142         30.1035
4.94                    -3.19517         27.6205
4.96                    -3.33784         25.0817
4.98                    -3.49436         22.4744
5                       -3.65346         19.8491
5.02                    -3.82163         17.1236
5.04                    -3.99954         14.3803
5.06                    -4.18155         11.5442
5.08                    -4.37816         8.65411
5.1                     -4.57839         5.69909
5.12                    -4.79308         2.64529
5.14                    -5.01599       -0.457727
5.16                    -5.24996        -3.68568
5.18                    -5.49884        -6.98033
5.2                     -5.75618        -10.3993
5.22                    -6.03313        -13.9362
5.24                    -6.32123        -17.5872
5.26                    -6.62941        -21.4158
5.28                     -6.9577         -25.377
5.3                     -7.30591        -29.5545
5.32                    -7.68547        -33.9355
5.34                    -8.09227        -38.5543
5.36                    -8.54056        -43.4762
5.38                    -9.03598        -48.6866
5.4                     -9.58711        -54.2798
5.42                    -10.2156        -60.2745
5.44                    -10.9312         -66.705
5.46                    -11.7612        -73.6862
5.48                     -12.737        -81.2172
5.5                     -13.8791        -89.4789
5.52                    -15.2545        -98.7413
5.54                    -16.9026        -109.339
5.56                    -18.9012        -122.725
5.58                    -21.3564        -141.181
5.6                     -23.7845        -170.583
5.62                    -24.2318         144.987
5.64                    -21.4449         105.882
5.66                    -17.5804         79.6044
5.68                    -13.9539         57.8905
5.7                     -10.5297         36.5291
5.72                    -7.39503         9.67646
5.74                    -5.45337        -23.3865
5.76                    -5.14794        -57.1005
5.78                    -6.05272        -85.3194
5.8                      -7.1372        -106.816
5.82                    -7.98462        -125.511
5.84                    -8.61075        -142.316
5.86                    -8.83465        -158.943
5.88                    -8.80559        -176.392
5.9                     -8.38207         164.719
5.92                    -7.64023         142.435
5.94                    -6.50198         114.912
5.96                    -5.42541         77.0532
5.98                    -5.52292         30.1168
6                        -7.1744        -17.9621
6.02                    -9.55087        -56.9547
6.04                     -10.777        -85.9925
6.06                    -11.2638        -112.535
6.08                    -11.3609        -131.161
6.1                     -10.5306         -148.82
6.12                    -10.1624        -165.353
6.14                     -9.3156        -177.331
6.16                    -8.52388         167.427
6.18                    -8.06959         156.697
6.2                     -6.95832         144.285
6.22                    -6.58184         130.891
6.24                    -5.56502         120.843
6.26                    -4.65946         103.009
6.28                    -4.22132         88.6569
6.3                     -2.53399         63.2665
6.32                    -3.53568         14.5797
6.34                    -12.2104        -62.6345
6.36                    -10.5371         116.485
6.38                    -7.62458          51.541
6.4                     -11.4961         18.1622
6.42                    -13.9939         9.42304
6.44                    -19.0242        -32.8778
6.46                    -29.8479         -154.49
6.48                    -19.0518        -178.024
6.5                     -10.5785         158.106
