! TOUCHSTONE file generated by CST MICROWAVE STUDIO
! Date and time: Fri Oct 28 17:55:05 2022
! Project name: L.cst
! Parameters = {Di=1.27; Epsilon_r=1.56; InnerDiameter=1.27; Length=2; Lf=10; Lg=60; OuterConductorThickness=0.2921; OuterDiameter=3.6; Wf=3; Wp=41.2; de=1.5; df=6.8; g=0.8; gx=0.839582; gy=1.17428; h=2.34; hf=1.524; px=11.5107; py=9.93344; w=9.7; wx=10.6711; wy=8.75916}
! Header version: 2018
! Port assignment regex: !\s*Touchstone port\s*([0-9]+)\s*=\s*(CST MWS port|CST DS port)\s*([0-9]+|Zmin|Zmax)\s*\(\"(.*)\"\)(\s*mode\s*([0-9]+))?.*
! Touchstone port assignment:
! Touchstone port 1 = CST MWS port 1 ("")
# GHz S DB R 50
4.5                     -5.81628         44.3113
4.52                    -6.26795         42.1977
4.54                    -6.74414         40.1832
4.56                    -7.24546         38.2623
4.58                    -7.77453         36.4329
4.6                     -8.33566         34.7022
4.62                    -8.93426         33.0927
4.64                    -9.57592         31.6456
4.66                    -10.2654         30.4221
4.68                    -11.0057         29.5033
4.7                     -11.7969         28.9877
4.72                    -12.6352         28.9886
4.74                     -13.512         29.6297
4.76                    -14.4128         31.0387
4.78                    -15.3154         33.3376
4.8                     -16.1889         36.6263
4.82                    -16.9925         40.9551
4.84                    -17.6763          46.283
4.86                    -18.1878         52.4297
4.88                    -18.4833         59.0496
4.9                     -18.5437         65.6687
4.92                    -18.3839         71.7942
4.94                    -18.0478         77.0426
4.96                    -17.5933         81.2103
4.98                    -17.0767          84.264
5                       -16.5426         86.2855
5.02                    -16.0223         87.4128
5.04                    -15.5352         87.7984
5.06                     -15.091         87.5845
5.08                    -14.6934         86.8916
5.1                     -14.3416         85.8145
5.12                    -14.0326         84.4216
5.14                    -13.7626         82.7575
5.16                    -13.5277         80.8471
5.18                    -13.3252         78.7003
5.2                     -13.1532         76.3168
5.22                    -13.0113         73.6911
5.24                    -12.8998         70.8162
5.26                    -12.8197         67.6854
5.28                    -12.7721         64.2926
5.3                     -12.7576         60.6314
5.32                    -12.7761         56.6931
5.34                    -12.8267          52.463
5.36                    -12.9073         47.9183
5.38                    -13.0151         43.0247
5.4                     -13.1459         37.7353
5.42                    -13.2946         31.9901
5.44                    -13.4549         25.7176
5.46                    -13.6183         18.8388
5.48                    -13.7738         11.2749
5.5                     -13.9064         2.95831
5.52                    -13.9974        -6.15021
5.54                    -14.0237        -16.0415
5.56                    -13.9611         -26.638
5.58                    -13.7881        -37.7832
5.6                     -13.4914        -49.2522
5.62                    -13.0707        -60.7861
5.64                    -12.5392        -72.1403
5.66                    -11.9199        -83.1249
5.68                    -11.2404        -93.6243
5.7                     -10.5276        -103.593
5.72                    -9.80461        -113.038
5.74                    -9.08946        -121.998
5.76                    -8.39554         -130.53
5.78                     -7.7324        -138.696
5.8                     -7.10684        -146.552
5.82                    -6.52374        -154.152
5.84                    -5.98675        -161.538
5.86                    -5.49868        -168.744
5.88                    -5.06178        -175.796
5.9                     -4.67781         177.291
5.92                    -4.34801         170.512
5.94                    -4.07306         163.869
5.96                     -3.8529         157.369
5.98                    -3.68657         151.028
6                       -3.57209         144.864
6.02                    -3.50629         138.896
6.04                     -3.4847         133.144
6.06                    -3.50159         127.623
6.08                    -3.55009          122.34
6.1                     -3.62255         117.292
6.12                    -3.71113         112.461
6.14                    -3.80857         107.815
6.16                    -3.90909         103.309
6.18                    -4.00916         98.8877
6.2                     -4.10798         94.4904
6.22                    -4.20752         90.0614
6.24                    -4.31201         85.5543
6.26                    -4.42704         80.9371
6.28                    -4.55851         76.1927
6.3                     -4.71158         71.3181
6.32                    -4.88983         66.3195
6.34                    -5.09473         61.2061
6.36                    -5.32552         55.9829
6.38                    -5.57937          50.644
6.4                     -5.85202         45.1657
6.42                    -6.13868         39.5024
6.44                    -6.43509         33.5847
6.46                    -6.73849         27.3219
6.48                    -7.04813          20.607
6.5                     -7.36506          13.325
