! TOUCHSTONE file generated by CST MICROWAVE STUDIO
! Date and time: Sat Oct 29 02:19:39 2022
! Project name: L.cst
! Parameters = {Di=1.27; Epsilon_r=1.56; InnerDiameter=1.27; Length=2; Lf=10; Lg=60; OuterConductorThickness=0.2921; OuterDiameter=3.6; Wf=3; Wp=41.2; de=1.5; df=6.8; g=0.8; gx=1.68445; gy=3.39135; h=2.34; hf=1.524; px=13.7178; py=10.2374; w=9.7; wx=12.0333; wy=6.84607}
! Header version: 2018
! Port assignment regex: !\s*Touchstone port\s*([0-9]+)\s*=\s*(CST MWS port|CST DS port)\s*([0-9]+|Zmin|Zmax)\s*\(\"(.*)\"\)(\s*mode\s*([0-9]+))?.*
! Touchstone port assignment:
! Touchstone port 1 = CST MWS port 1 ("")
# GHz S DB R 50
4.5                     -2.27717         76.2707
4.52                    -2.42155         74.4039
4.54                    -2.59194         72.5237
4.56                    -2.77057         70.5443
4.58                    -2.94646         68.5979
4.6                     -3.14019         66.7344
4.62                     -3.3568         64.8368
4.64                    -3.57743         62.8974
4.66                    -3.80426         61.0401
4.68                    -4.05391         59.2561
4.7                     -4.32125         57.4454
4.72                    -4.59313          55.668
4.74                    -4.87718         54.0183
4.76                    -5.18471         52.4371
4.78                    -5.50457         50.8824
4.8                     -5.82775         49.4413
4.82                    -6.16649          48.165
4.84                    -6.52277         46.9884
4.86                    -6.88162         45.9039
4.88                    -7.24049         45.0137
4.9                     -7.60826         44.3248
4.92                    -7.97924         43.7591
4.94                    -8.33731         43.3518
4.96                    -8.68188         43.1759
4.98                    -9.01909         43.1788
5                       -9.33574         43.2846
5.02                    -9.61703          43.517
5.04                    -9.86878         43.8947
5.06                    -10.0932         44.3106
5.08                    -10.2779          44.665
5.1                     -10.4186         44.9822
5.12                    -10.5271         45.2222
5.14                    -10.6104         45.2482
5.16                    -10.6612         45.0094
5.18                    -10.6864         44.5263
5.2                      -10.706         43.7514
5.22                    -10.7241         42.5778
5.24                    -10.7403         40.9962
5.26                    -10.7701         39.0478
5.28                    -10.8326         36.6539
5.3                      -10.933         33.7263
5.32                    -11.0793         30.2909
5.34                    -11.2993         26.3305
5.36                    -11.6216          21.714
5.38                    -12.0651         16.3643
5.4                     -12.6741         10.2758
5.42                    -13.5263         3.33783
5.44                    -14.7086        -4.66147
5.46                     -16.355        -13.8444
5.48                    -18.7415         -24.445
5.5                       -22.43        -37.7138
5.52                    -28.9706        -60.0694
5.54                     -36.565        -164.922
5.56                    -27.2435         138.209
5.58                    -23.1568         120.802
5.6                     -21.3549         108.069
5.62                    -20.9431         97.0102
5.64                    -21.8899         87.6475
5.66                     -25.048          82.092
5.68                    -34.2934         110.644
5.7                     -25.3108        -155.701
5.72                     -17.333        -158.484
5.74                    -12.4872        -169.787
5.76                    -9.11436         176.352
5.78                    -6.72086         161.466
5.8                     -5.07361         146.676
5.82                    -3.99823         132.784
5.84                    -3.33183         120.172
5.86                    -2.93826         108.878
5.88                    -2.72105         98.7408
5.9                     -2.62241         89.5246
5.92                       -2.63         80.8922
5.94                    -2.78328         72.2947
5.96                    -3.34939          63.556
5.98                    -4.29962         65.9211
6                        -2.9882           62.11
6.02                     -2.7918         53.5526
6.04                    -2.85816         45.4886
6.06                    -2.96231         37.5945
6.08                    -3.14592         29.6712
6.1                     -3.46961         20.8067
6.12                    -3.90408         10.1474
6.14                    -4.52276        -2.76581
6.16                    -5.61395        -20.0034
6.18                    -7.42242         -47.137
6.2                     -9.60897        -94.4519
6.22                    -8.97302        -164.264
6.24                    -5.48664         143.027
6.26                    -3.30156         110.766
6.28                    -2.26901         88.2667
6.3                     -1.67313         72.1695
6.32                    -1.40179         60.6494
6.34                    -1.35947         50.8446
6.36                     -1.2352         41.9777
6.38                     -1.0786         35.3732
6.4                     -1.19514         29.6072
6.42                    -1.32337         21.7774
6.44                    -0.98283         14.1241
6.46                   -0.897288         9.28178
6.48                    -7.07064        -18.9507
6.5                    -0.712971         30.5869
