! TOUCHSTONE file generated by CST MICROWAVE STUDIO
! Date and time: Thu Oct 27 10:49:46 2022
! Project name: L.cst
! Parameters = {Di=1.27; Epsilon_r=1.56; InnerDiameter=1.27; Length=2; Lf=10; Lg=60; OuterConductorThickness=0.2921; OuterDiameter=3.6; Wf=3; Wp=41.2; de=1.5; df=6.8; g=0.8; gx=4.08211; gy=0.912702; h=2.34; hf=1.524; px=8.95694; py=14.2236; w=9.7; wx=4.87483; wy=13.3109}
! Header version: 2018
! Port assignment regex: !\s*Touchstone port\s*([0-9]+)\s*=\s*(CST MWS port|CST DS port)\s*([0-9]+|Zmin|Zmax)\s*\(\"(.*)\"\)(\s*mode\s*([0-9]+))?.*
! Touchstone port assignment:
! Touchstone port 1 = CST MWS port 1 ("")
# GHz S DB R 50
4.5                    -0.650561         68.7571
4.52                   -0.736458         66.9365
4.54                   -0.730647         64.6658
4.56                   -0.755553          63.005
4.58                   -0.818621         60.7131
4.6                    -0.802149         58.6406
4.62                   -0.868765         56.6348
4.64                   -0.886198         54.1559
4.66                   -0.902081         52.1033
4.68                   -0.963417         49.6291
4.7                    -0.957854         47.1468
4.72                     -1.0061          44.778
4.74                    -1.02976         41.9366
4.76                    -1.03327         39.3282
4.78                    -1.07832         36.3783
4.8                     -1.06683         33.2207
4.82                    -1.08642         30.0766
4.84                    -1.09452         26.3638
4.86                    -1.07569         22.5908
4.88                     -1.0963         18.3193
4.9                     -1.07891         13.4946
4.92                    -1.09686         8.29759
4.94                    -1.13519         2.12473
4.96                    -1.18963         -4.7049
4.98                    -1.34302        -12.6822
5                       -1.56048        -21.9938
5.02                    -1.96405        -32.6518
5.04                    -2.60212        -45.3397
5.06                    -3.59234        -59.7149
5.08                    -5.12995        -76.3588
5.1                     -7.30177        -95.0049
5.12                    -10.4232        -116.477
5.14                    -14.4848        -144.235
5.16                    -19.1644         172.605
5.18                    -20.0478          112.72
5.2                     -18.0014         72.8692
5.22                    -16.2124         48.4111
5.24                    -15.4635         30.4554
5.26                    -15.3089         13.2965
5.28                    -15.7906        -3.18774
5.3                      -16.871        -23.7144
5.32                    -18.2167        -49.3678
5.34                    -19.2629        -86.7881
5.36                    -17.9744        -128.036
5.38                    -15.2799        -161.926
5.4                      -12.346         174.113
5.42                    -10.0122         154.792
5.44                    -8.03594         137.971
5.46                    -6.59506         122.728
5.48                    -5.47911         107.679
5.5                     -4.78922         93.3994
5.52                    -4.59314         77.9343
5.54                    -5.26898         62.1505
5.56                    -9.21271         51.8694
5.58                    -8.02976         98.9784
5.6                      -2.8325         81.7571
5.62                    -1.77676         61.8179
5.64                    -1.39416         45.4806
5.66                    -1.41237         31.1818
5.68                    -1.57915         15.2135
5.7                     -1.97471        -2.43102
5.72                    -2.98926        -27.6589
5.74                    -5.01098        -67.6656
5.76                    -7.93215        -149.802
5.78                    -5.14356         122.423
5.8                     -2.62912         73.2274
5.82                    -1.81561         43.3531
5.84                    -1.54421         15.1694
5.86                     -1.8404        -15.6049
5.88                    -3.76978        -87.5539
5.9                     -3.59206         138.966
5.92                    -1.38528         65.8544
5.94                    -1.04521         38.6264
5.96                    -0.99727         18.5299
5.98                   -0.851292         4.97999
6                       -1.03462        -8.24576
6.02                   -0.954044        -21.2593
6.04                    -1.10086        -34.0508
6.06                    -1.17119        -49.7993
6.08                    -1.24729        -67.1731
6.1                     -1.45202         -90.671
6.12                    -1.55864        -122.931
6.14                    -1.77158        -173.053
6.16                    -1.64365           106.5
6.18                    -1.02865         5.87913
6.2                     -0.68209        -82.9491
6.22                   -0.465413        -151.389
6.24                   -0.388005         155.666
6.26                   -0.387579         118.801
6.28                   -0.484802         90.9005
6.3                    -0.474266         71.2499
6.32                   -0.652498          55.293
6.34                   -0.593455         42.6015
6.36                   -0.746837         32.6767
6.38                   -0.758706         22.9536
6.4                    -0.766402         16.0332
6.42                   -0.919615         8.56561
6.44                   -0.811979         2.38154
6.46                    -0.97478        -2.72961
6.48                   -0.954996        -8.99521
6.5                    -0.932536        -12.8116
