! TOUCHSTONE file generated by CST MICROWAVE STUDIO
! Date and time: Thu Oct 27 20:14:58 2022
! Project name: L.cst
! Parameters = {Di=1.27; Epsilon_r=1.56; InnerDiameter=1.27; Length=2; Lf=10; Lg=60; OuterConductorThickness=0.2921; OuterDiameter=3.6; Wf=3; Wp=41.2; de=1.5; df=6.8; g=0.8; gx=3.07012; gy=1.01809; h=2.34; hf=1.524; px=14.8789; py=14.5059; w=9.7; wx=11.8088; wy=13.4879}
! Header version: 2018
! Port assignment regex: !\s*Touchstone port\s*([0-9]+)\s*=\s*(CST MWS port|CST DS port)\s*([0-9]+|Zmin|Zmax)\s*\(\"(.*)\"\)(\s*mode\s*([0-9]+))?.*
! Touchstone port assignment:
! Touchstone port 1 = CST MWS port 1 ("")
# GHz S DB R 50
4.5                     -6.81555         24.6258
4.52                    -7.55377         18.9345
4.54                    -8.42088         12.8118
4.56                    -9.46914         5.88754
4.58                    -10.7075        -2.28316
4.6                     -12.1469         -11.977
4.62                    -13.8582         -23.742
4.64                    -15.8843        -39.2645
4.66                    -17.9568        -61.3959
4.68                    -19.2139        -91.0287
4.7                     -18.8655        -122.025
4.72                    -17.3671        -146.887
4.74                    -15.6092        -164.505
4.76                    -14.0496        -177.048
4.78                    -12.7805         173.294
4.8                     -11.7443         165.247
4.82                    -10.8755         158.326
4.84                    -10.1532         152.274
4.86                    -9.57378         146.763
4.88                    -9.11762         141.499
4.9                     -8.76735          136.37
4.92                    -8.53888         131.398
4.94                    -8.47835         126.601
4.96                     -8.6455         122.096
4.98                     -9.1062         118.564
5                       -9.87639         117.856
5.02                    -10.6287          122.86
5.04                    -10.4097         132.707
5.06                    -8.98699         139.107
5.08                    -7.34311         138.872
5.1                     -6.00773         134.866
5.12                    -5.00461         129.383
5.14                    -4.24237         123.312
5.16                    -3.63648         116.876
5.18                    -3.13908         110.074
5.2                     -2.74069         102.791
5.22                    -2.45922         94.7846
5.24                    -2.33804         85.8005
5.26                    -2.46289         75.7594
5.28                    -2.98567         64.9758
5.3                     -4.10106         54.6149
5.32                    -5.90585         47.4253
5.34                    -8.03302         47.8488
5.36                    -9.19192         57.1315
5.38                    -8.51647         65.2224
5.4                     -7.04963         64.1122
5.42                    -5.65647         54.4438
5.44                    -4.60128         36.6565
5.46                    -4.29511         8.67384
5.48                    -5.62342        -30.7527
5.5                     -8.46715        -78.0229
5.52                    -10.2095        -128.329
5.54                    -9.28165        -170.956
5.56                    -6.96353         154.673
5.58                    -4.84566         113.786
5.6                     -8.12528         58.3689
5.62                    -23.7568         46.1663
5.64                    -16.5228         159.093
5.66                    -11.0441          149.65
5.68                    -8.23232         137.946
5.7                     -6.31087         125.003
5.72                    -5.22912         110.735
5.74                    -4.50505         95.8719
5.76                      -4.188         75.6029
5.78                    -5.20727         44.4415
5.8                     -10.4935        -10.1489
5.82                    -13.3346        -142.757
5.84                    -6.62151         160.735
5.86                    -3.36655         132.445
5.88                    -1.48364         106.262
5.9                     -1.30936          77.808
5.92                     -3.0496         53.6672
5.94                    -5.77514         35.1068
5.96                    -9.95016         15.2266
5.98                    -21.5866        -28.2029
6                       -13.3845         169.742
6.02                    -6.96434         140.846
6.04                    -4.55036         120.845
6.06                    -3.47754         105.983
6.08                    -2.91574         94.7348
6.1                     -2.61747         85.9846
6.12                    -2.51573         78.4652
6.14                    -2.53125         70.7855
6.16                    -2.71216         60.8881
6.18                    -3.54047         69.8885
6.2                       -2.232         59.9436
6.22                    -2.08859         54.6094
6.24                    -2.11812         49.9774
6.26                    -2.16214         45.0761
6.28                    -2.12951          40.234
6.3                     -2.06484          35.953
6.32                    -2.05286         32.0344
6.34                     -2.0875         27.9123
6.36                    -2.09179         23.5029
6.38                     -2.0438         19.2664
6.4                     -2.00895         15.3987
6.42                    -2.02802         11.5042
6.44                     -2.0494         7.24867
6.46                    -2.01508         2.91502
6.48                     -1.9609        -1.07412
6.5                     -1.95646        -4.89686
