! TOUCHSTONE file generated by CST MICROWAVE STUDIO
! Date and time: Thu Oct 27 12:51:58 2022
! Project name: L.cst
! Parameters = {Di=1.27; Epsilon_r=1.56; InnerDiameter=1.27; Length=2; Lf=10; Lg=60; OuterConductorThickness=0.2921; OuterDiameter=3.6; Wf=3; Wp=41.2; de=1.5; df=6.8; g=0.8; gx=4.66924; gy=1.25858; h=2.34; hf=1.524; px=13.8057; py=13.2371; w=9.7; wx=9.13645; wy=11.9785}
! Header version: 2018
! Port assignment regex: !\s*Touchstone port\s*([0-9]+)\s*=\s*(CST MWS port|CST DS port)\s*([0-9]+|Zmin|Zmax)\s*\(\"(.*)\"\)(\s*mode\s*([0-9]+))?.*
! Touchstone port assignment:
! Touchstone port 1 = CST MWS port 1 ("")
# GHz S DB R 50
4.5                     -1.04409         72.1547
4.52                     -1.1112         70.2282
4.54                    -1.11519         67.8635
4.56                    -1.18796         65.1191
4.58                     -1.2898         62.7492
4.6                     -1.32672         60.3266
4.62                    -1.37962          57.387
4.64                    -1.49198         54.5094
4.66                    -1.57339         51.8048
4.68                    -1.62968         48.6891
4.7                     -1.73923         45.3201
4.72                    -1.86144         42.1159
4.74                    -1.94668         38.7134
4.76                    -2.05628          34.875
4.78                    -2.20863         31.0029
4.8                     -2.34201         27.0936
4.82                    -2.46971         22.7402
4.84                    -2.64497         18.0823
4.86                    -2.83513         13.3846
4.88                    -3.00773         8.35052
4.9                      -3.2102         2.80104
4.92                    -3.45654        -2.97209
4.94                    -3.69924        -8.97962
4.96                    -3.94616        -15.5602
4.98                    -4.24164        -22.6363
5                       -4.56219        -29.9671
5.02                    -4.87123        -37.7619
5.04                    -5.20016        -46.2185
5.06                      -5.567        -55.0745
5.08                    -5.92304        -64.1911
5.1                     -6.24865        -73.8097
5.12                    -6.57907        -83.8843
5.14                    -6.90223        -94.0107
5.16                    -7.16292        -104.116
5.18                    -7.36835        -114.361
5.2                     -7.55844        -124.471
5.22                    -7.70754        -134.049
5.24                    -7.78171        -143.196
5.26                    -7.82372        -152.047
5.28                    -7.86663        -160.276
5.3                     -7.87021        -167.728
5.32                    -7.82766        -174.733
5.34                    -7.79419         178.672
5.36                    -7.76552         172.795
5.38                    -7.69351         167.484
5.4                      -7.6057         162.395
5.42                    -7.54106         157.719
5.44                    -7.45546         153.609
5.46                    -7.32878         149.691
5.48                    -7.21432         145.875
5.5                     -7.10623         142.487
5.52                    -6.95028         139.384
5.54                     -6.7728         136.236
5.56                    -6.60548         133.285
5.58                    -6.39002         130.663
5.6                     -6.10234         127.929
5.62                     -5.7915          124.96
5.64                    -5.44247         121.956
5.66                    -5.01567         118.573
5.68                     -4.5671         114.412
5.7                     -4.15049         109.691
5.72                    -3.73939         104.529
5.74                    -3.34039          98.604
5.76                    -3.01624         91.9177
5.78                    -2.77023         84.7826
5.8                     -2.56377         77.0534
5.82                    -2.43256         68.2961
5.84                    -2.45477         58.4917
5.86                    -2.65644         47.7267
5.88                    -3.08116         35.4707
5.9                     -3.95972         20.8855
5.92                     -5.8266         3.93742
5.94                    -9.87219        -12.7425
5.96                    -20.0938         2.83922
5.98                     -12.669         78.7753
6                       -6.81104         59.6069
6.02                     -4.5599         31.9472
6.04                    -4.15939         2.61676
6.06                    -4.84855        -27.2313
6.08                    -5.94776        -59.5916
6.1                     -6.80303         -99.634
6.12                    -6.76672        -149.901
6.14                    -5.68063         156.169
6.16                     -4.4914         105.406
6.18                    -4.04463         57.8263
6.2                     -4.53301         10.8968
6.22                    -5.68424        -37.9241
6.24                    -6.77623        -88.8765
6.26                    -7.04231        -136.214
6.28                     -6.3233        -173.226
6.3                     -4.63419         157.034
6.32                    -2.59194         125.003
6.34                    -1.33861          86.017
6.36                    -1.62245         38.7024
6.38                    -3.54349        -22.6755
6.4                     -4.49194        -106.237
6.42                    -1.99596          178.94
6.44                   -0.224713         127.183
6.46                   -0.222176         90.6217
6.48                     -1.0127         68.1141
6.5                     -1.08957         53.0359
