! TOUCHSTONE file generated by CST MICROWAVE STUDIO
! Date and time: Fri Oct 28 23:28:55 2022
! Project name: L.cst
! Parameters = {Di=1.27; Epsilon_r=1.56; InnerDiameter=1.27; Length=2; Lf=10; Lg=60; OuterConductorThickness=0.2921; OuterDiameter=3.6; Wf=3; Wp=41.2; de=1.5; df=6.8; g=0.8; gx=4.17663; gy=0.818835; h=2.34; hf=1.524; px=12.7259; py=8.28779; w=9.7; wx=8.5493; wy=7.46895}
! Header version: 2018
! Port assignment regex: !\s*Touchstone port\s*([0-9]+)\s*=\s*(CST MWS port|CST DS port)\s*([0-9]+|Zmin|Zmax)\s*\(\"(.*)\"\)(\s*mode\s*([0-9]+))?.*
! Touchstone port assignment:
! Touchstone port 1 = CST MWS port 1 ("")
# GHz S DB R 50
4.5                      -0.9188         69.8832
4.52                   -0.974218         67.7707
4.54                    -1.02847         65.6214
4.56                    -1.08165         63.4291
4.58                    -1.13396         61.1882
4.6                     -1.18569         58.8936
4.62                     -1.2372         56.5407
4.64                     -1.2889         54.1256
4.66                    -1.34122          51.645
4.68                    -1.39459         49.0962
4.7                     -1.44943          46.477
4.72                    -1.50612         43.7859
4.74                    -1.56501         41.0215
4.76                    -1.62641         38.1833
4.78                    -1.69054         35.2708
4.8                     -1.75758         32.2838
4.82                    -1.82765         29.2227
4.84                    -1.90078         26.0878
4.86                    -1.97694         22.8797
4.88                    -2.05604         19.5994
4.9                      -2.1379         16.2479
4.92                     -2.2223         12.8263
4.94                    -2.30894         9.33608
4.96                    -2.39746         5.77881
4.98                    -2.48746         2.15635
5                       -2.57846        -1.52923
5.02                    -2.66997        -5.27555
5.04                    -2.76144        -9.07997
5.06                    -2.85231        -12.9395
5.08                    -2.94196        -16.8507
5.1                     -3.02981        -20.8098
5.12                    -3.11524        -24.8128
5.14                    -3.19766         -28.855
5.16                     -3.2765        -32.9314
5.18                    -3.35121        -37.0368
5.2                     -3.42131        -41.1653
5.22                    -3.48635        -45.3109
5.24                    -3.54596        -49.4673
5.26                    -3.59983        -53.6279
5.28                    -3.64775         -57.786
5.3                     -3.68958         -61.935
5.32                    -3.72526         -66.068
5.34                    -3.75482        -70.1784
5.36                    -3.77836        -74.2599
5.38                    -3.79607        -78.3063
5.4                      -3.8082        -82.3117
5.42                    -3.81506        -86.2707
5.44                      -3.817        -90.1783
5.46                    -3.81441          -94.03
5.48                    -3.80771        -97.8218
5.5                     -3.79733         -101.55
5.52                    -3.78372        -105.212
5.54                     -3.7673        -108.804
5.56                     -3.7485        -112.326
5.58                    -3.72773        -115.775
5.6                     -3.70534         -119.15
5.62                    -3.68171         -122.45
5.64                    -3.65712        -125.675
5.66                    -3.63187        -128.825
5.68                    -3.60619          -131.9
5.7                     -3.58027          -134.9
5.72                     -3.5543        -137.827
5.74                    -3.52838        -140.681
5.76                    -3.50264        -143.464
5.78                    -3.47713        -146.178
5.8                     -3.45189        -148.823
5.82                    -3.42695        -151.402
5.84                    -3.40232        -153.917
5.86                    -3.37798         -156.37
5.88                    -3.35391        -158.764
5.9                     -3.33011        -161.101
5.92                    -3.30655        -163.384
5.94                    -3.28322        -165.615
5.96                    -3.26014        -167.797
5.98                     -3.2373        -169.933
6                       -3.21476        -172.026
6.02                    -3.19257        -174.078
6.04                    -3.17082        -176.093
6.06                    -3.14961        -178.073
6.08                    -3.12908          179.98
6.1                      -3.1094         178.063
6.12                    -3.09074         176.174
6.14                    -3.07332         174.312
6.16                    -3.05736         172.474
6.18                    -3.04311         170.659
6.2                      -3.0308         168.866
6.22                    -3.02068         167.096
6.24                      -3.013         165.346
6.26                    -3.00797         163.619
6.28                    -3.00579         161.913
6.3                     -3.00664         160.231
6.32                    -3.01061         158.572
6.34                    -3.01779         156.939
6.36                    -3.02815         155.333
6.38                    -3.04162         153.757
6.4                     -3.05803         152.212
6.42                     -3.0771           150.7
6.44                    -3.09847         149.224
6.46                    -3.12166         147.784
6.48                    -3.14609         146.381
6.5                     -3.17107         145.017
