! TOUCHSTONE file generated by CST MICROWAVE STUDIO
! Date and time: Sat Oct 29 04:31:44 2022
! Project name: L.cst
! Parameters = {Di=1.27; Epsilon_r=1.56; InnerDiameter=1.27; Length=2; Lf=10; Lg=60; OuterConductorThickness=0.2921; OuterDiameter=3.6; Wf=3; Wp=41.2; de=1.5; df=6.8; g=0.8; gx=1.48068; gy=3.72276; h=2.34; hf=1.524; px=14.8669; py=14.2417; w=9.7; wx=13.3862; wy=10.519}
! Header version: 2018
! Port assignment regex: !\s*Touchstone port\s*([0-9]+)\s*=\s*(CST MWS port|CST DS port)\s*([0-9]+|Zmin|Zmax)\s*\(\"(.*)\"\)(\s*mode\s*([0-9]+))?.*
! Touchstone port assignment:
! Touchstone port 1 = CST MWS port 1 ("")
# GHz S DB R 50
4.5                     -4.81245         88.6347
4.52                    -4.92378         88.5782
4.54                    -5.01463         88.6641
4.56                    -5.09394         88.6122
4.58                    -5.13198         88.5204
4.6                     -5.16597         88.3999
4.62                    -5.18145         88.0531
4.64                    -5.17625         87.6532
4.66                    -5.17996         87.0761
4.68                    -5.17002          86.286
4.7                     -5.16696         85.4071
4.72                     -5.1807         84.2816
4.74                    -5.19775         83.0035
4.76                    -5.24812          81.586
4.78                    -5.32576         79.9348
4.8                     -5.43875         78.1924
4.82                    -5.61536          76.291
4.84                     -5.8513         74.2774
4.86                    -6.18264         72.3131
4.88                    -6.63689         70.4284
4.9                     -7.23484         69.0204
4.92                    -8.02863         68.6417
4.94                    -8.99331          70.246
4.96                    -9.97257         75.4808
4.98                    -10.5173         84.8961
5                       -10.0862         95.2654
5.02                    -8.92252         101.508
5.04                    -7.73134         102.464
5.06                    -6.89605         100.361
5.08                     -6.5024         97.6582
5.1                     -6.41202         96.1252
5.12                    -6.34281         96.7162
5.14                     -6.0266         98.4884
5.16                    -5.41782         99.4816
5.18                    -4.71539          98.872
5.2                     -4.07136         96.9367
5.22                    -3.50466         94.2482
5.24                    -3.02497         91.0405
5.26                    -2.63409         87.3912
5.28                    -2.33232         83.5826
5.3                     -2.11426         79.7202
5.32                    -1.94885         75.8735
5.34                    -1.83099          72.082
5.36                    -1.74835         68.2299
5.38                    -1.68997         64.3278
5.4                     -1.66731          60.235
5.42                      -1.671         55.8099
5.44                    -1.73515         50.8913
5.46                    -1.92186          44.986
5.48                    -2.37409         39.5468
5.5                     -2.52966         32.6693
5.52                    -3.37453         18.5369
5.54                    -6.26347        -5.45461
5.56                    -22.1343        -97.4451
5.58                     -6.6976         120.147
5.6                     -3.12709          92.704
5.62                    -2.01691          77.853
5.64                    -1.57621         68.3587
5.66                    -1.34921         61.4276
5.68                    -1.21434         55.9661
5.7                      -1.1263         51.3613
5.72                    -1.06955         47.2354
5.74                    -1.01344         43.3538
5.76                   -0.985555         39.6902
5.78                    -1.15482         35.3383
5.8                     -1.32083          35.075
5.82                     -1.0005         32.2411
5.84                   -0.948549         29.2209
5.86                   -0.909164         26.0241
5.88                   -0.862482         23.1798
5.9                    -0.857891         20.3068
5.92                   -0.826932         17.3529
5.94                   -0.809345         14.6004
5.96                   -0.807147         11.6626
5.98                   -0.781514         8.77478
6                      -0.785818          5.9224
6.02                   -0.782721         2.85758
6.04                   -0.778243      -0.0948991
6.06                   -0.810407         -3.2293
6.08                   -0.838399         -6.5172
6.1                    -0.940135        -9.66272
6.12                    -1.10839        -12.3111
6.14                    -1.06465        -14.2689
6.16                   -0.998231        -17.4893
6.18                   -0.985942        -21.4396
6.2                     -1.04374        -25.3878
6.22                    -1.21186        -30.0433
6.24                    -1.46526        -35.3723
6.26                    -2.19002        -41.4005
6.28                    -4.31098        -45.7837
6.3                      -5.1951        -21.1085
6.32                     -2.1015        -21.5236
6.34                    -1.30814         -30.583
6.36                    -1.10078        -37.6074
6.38                    -1.09903        -43.4343
6.4                     -1.15293        -48.8262
6.42                    -1.27994        -53.9644
6.44                    -1.43297        -59.4077
6.46                    -1.63705        -64.6864
6.48                    -1.97586        -70.7806
6.5                     -2.31731        -77.3894
