! TOUCHSTONE file generated by CST MICROWAVE STUDIO
! Date and time: Sat Oct 29 23:46:50 2022
! Project name: L.cst
! Parameters = {Di=1.27; Epsilon_r=1.56; InnerDiameter=1.27; Length=2; Lf=10; Lg=60; OuterConductorThickness=0.2921; OuterDiameter=3.6; Wf=3; Wp=41.2; de=1.5; df=6.8; g=0.8; gx=3.26701; gy=4.08087; h=2.34; hf=1.524; px=11.3146; py=12.2057; w=9.7; wx=8.04762; wy=8.12487}
! Header version: 2018
! Port assignment regex: !\s*Touchstone port\s*([0-9]+)\s*=\s*(CST MWS port|CST DS port)\s*([0-9]+|Zmin|Zmax)\s*\(\"(.*)\"\)(\s*mode\s*([0-9]+))?.*
! Touchstone port assignment:
! Touchstone port 1 = CST MWS port 1 ("")
# GHz S DB R 50
4.5                    -0.409912         94.6108
4.52                   -0.421677         93.1669
4.54                   -0.433819          91.711
4.56                   -0.446359         90.2431
4.58                   -0.459308         88.7632
4.6                    -0.472674         87.2711
4.62                   -0.486461         85.7669
4.64                    -0.50067         84.2505
4.66                   -0.515301         82.7217
4.68                   -0.530349         81.1806
4.7                    -0.545812          79.627
4.72                   -0.561685         78.0607
4.74                   -0.577964         76.4816
4.76                   -0.594646         74.8896
4.78                   -0.611727         73.2844
4.8                    -0.629207         71.6659
4.82                   -0.647085          70.034
4.84                   -0.665362         68.3883
4.86                    -0.68404         66.7288
4.88                   -0.703124         65.0553
4.9                    -0.722617         63.3676
4.92                   -0.742528         61.6655
4.94                   -0.762863         59.9489
4.96                   -0.783632         58.2177
4.98                   -0.804842         56.4717
5                      -0.826505         54.7108
5.02                    -0.84863          52.935
5.04                   -0.871228         51.1441
5.06                    -0.89431         49.3381
5.08                   -0.917885         47.5169
5.1                    -0.941964         45.6806
5.12                   -0.966555         43.8292
5.14                   -0.991668         41.9626
5.16                    -1.01731          40.081
5.18                    -1.04349         38.1844
5.2                     -1.07021         36.2728
5.22                    -1.09747         34.3465
5.24                    -1.12528         32.4054
5.26                    -1.15365         30.4499
5.28                    -1.18256         28.4801
5.3                     -1.21202          26.496
5.32                    -1.24203         24.4981
5.34                    -1.27259         22.4865
5.36                    -1.30368         20.4614
5.38                     -1.3353         18.4233
5.4                     -1.36744         16.3723
5.42                    -1.40009         14.3088
5.44                    -1.43324         12.2331
5.46                    -1.46688         10.1456
5.48                    -1.50099         8.04677
5.5                     -1.53556         5.93691
5.52                    -1.57058         3.81647
5.54                    -1.60602          1.6859
5.56                    -1.64186       -0.454324
5.58                    -1.67809        -2.60372
5.6                      -1.7147        -4.76178
5.62                    -1.75164        -6.92797
5.64                    -1.78892        -9.10177
5.66                    -1.82649        -11.2826
5.68                    -1.86434        -13.4699
5.7                     -1.90245        -15.6631
5.72                    -1.94079        -17.8615
5.74                    -1.97934        -20.0646
5.76                    -2.01806        -22.2716
5.78                    -2.05694        -24.4821
5.8                     -2.09594        -26.6953
5.82                    -2.13505        -28.9105
5.84                    -2.17422        -31.1271
5.86                    -2.21344        -33.3445
5.88                    -2.25267        -35.5619
5.9                     -2.29188        -37.7787
5.92                    -2.33104        -39.9943
5.94                    -2.37013        -42.2079
5.96                     -2.4091         -44.419
5.98                    -2.44793        -46.6268
6                       -2.48658        -48.8309
6.02                    -2.52502        -51.0305
6.04                    -2.56322        -53.2252
6.06                    -2.60114        -55.4144
6.08                    -2.63875        -57.5975
6.1                     -2.67601        -59.7742
6.12                     -2.7129         -61.944
6.14                    -2.74938        -64.1064
6.16                    -2.78542        -66.2612
6.18                    -2.82099         -68.408
6.2                     -2.85608        -70.5467
6.22                    -2.89065        -72.6769
6.24                    -2.92469        -74.7986
6.26                    -2.95818        -76.9116
6.28                    -2.99113        -79.0161
6.3                     -3.02352        -81.1119
6.32                    -3.05536        -83.1992
6.34                    -3.08667         -85.278
6.36                    -3.11747        -87.3485
6.38                    -3.14779         -89.411
6.4                     -3.17767        -91.4656
6.42                    -3.20716        -93.5126
6.44                    -3.23633        -95.5523
6.46                    -3.26524        -97.5848
6.48                    -3.29399        -99.6105
6.5                     -3.32267         -101.63
