! TOUCHSTONE file generated by CST MICROWAVE STUDIO
! Date and time: Thu Oct 27 16:12:09 2022
! Project name: L.cst
! Parameters = {Di=1.27; Epsilon_r=1.56; InnerDiameter=1.27; Length=2; Lf=10; Lg=60; OuterConductorThickness=0.2921; OuterDiameter=3.6; Wf=3; Wp=41.2; de=1.5; df=6.8; g=0.8; gx=3.90802; gy=3.51541; h=2.34; hf=1.524; px=14.6816; py=10.1584; w=9.7; wx=10.7736; wy=6.64303}
! Header version: 2018
! Port assignment regex: !\s*Touchstone port\s*([0-9]+)\s*=\s*(CST MWS port|CST DS port)\s*([0-9]+|Zmin|Zmax)\s*\(\"(.*)\"\)(\s*mode\s*([0-9]+))?.*
! Touchstone port assignment:
! Touchstone port 1 = CST MWS port 1 ("")
# GHz S DB R 50
4.5                    -0.790986         88.5312
4.52                   -0.823421         86.7892
4.54                   -0.866663         85.0269
4.56                   -0.913746         83.2955
4.58                   -0.955904         81.5659
4.6                    -0.994872         79.7775
4.62                    -1.03933         77.9243
4.64                    -1.09234         76.0552
4.66                    -1.14798         74.1999
4.68                     -1.2006         72.3296
4.7                     -1.25272         70.4015
4.72                     -1.3109         68.4184
4.74                    -1.37648          66.419
4.76                    -1.44449         64.4203
4.78                    -1.51127         62.3954
4.8                     -1.57964         60.3134
4.82                    -1.65467         58.1818
4.84                    -1.73673         56.0321
4.86                    -1.82154         53.8735
4.88                    -1.90672         51.6807
4.9                     -1.99521         49.4307
4.92                    -2.09113         47.1336
4.94                    -2.19424         44.8161
4.96                    -2.30078         42.4823
4.98                    -2.40922         40.1083
5                       -2.52259         37.6763
5.02                    -2.64441         35.1986
5.04                    -2.77402         32.6988
5.06                    -2.90794         30.1779
5.08                    -3.04515         27.6124
5.1                     -3.18886         24.9879
5.12                    -3.34221         22.3186
5.14                    -3.50417         19.6269
5.16                     -3.6713         16.9112
5.18                    -3.84294         14.1475
5.2                     -4.02254         11.3232
5.22                    -4.21308         8.45484
5.24                    -4.41313          5.5651
5.26                    -4.61902         2.65012
5.28                    -4.83033        -0.31651
5.3                     -5.05093         -3.3466
5.32                    -5.28385        -6.41998
5.34                    -5.52702        -9.51206
5.36                    -5.77617        -12.6298
5.38                    -6.03101        -15.8048
5.4                     -6.29619        -19.0497
5.42                    -6.57503        -22.3389
5.44                    -6.86461        -25.6439
5.46                    -7.15945        -28.9759
5.48                     -7.4594        -32.3764
5.5                      -7.7705         -35.861
5.52                    -8.09682        -39.3956
5.54                    -8.43405        -42.9437
5.56                    -8.77469        -46.5243
5.58                    -9.11875        -50.1971
5.6                     -9.47503        -53.9844
5.62                    -9.84938        -57.8376
5.64                    -10.2355        -61.7045
5.66                    -10.6224        -65.6162
5.68                    -11.0106        -69.6661
5.7                     -11.4148        -73.8901
5.72                    -11.8452        -78.2105
5.74                    -12.2931        -82.5391
5.76                    -12.7415        -86.9209
5.78                    -13.1925        -91.5089
5.8                     -13.6734        -96.3609
5.82                     -14.207        -101.325
5.84                    -14.7812        -106.203
5.86                    -15.3648        -111.019
5.88                    -15.9587        -116.026
5.9                     -16.6169        -121.316
5.92                    -17.3906        -126.516
5.94                    -18.2543        -131.044
5.96                    -19.1126        -134.783
5.98                    -19.9295         -138.33
6                       -20.8242        -142.007
6.02                    -21.9284        -144.697
6.04                    -23.0925        -144.367
6.06                    -23.8276         -141.11
6.08                    -24.0023        -138.608
6.1                     -24.1587        -137.869
6.12                    -24.3926         -134.47
6.14                    -23.5738        -127.437
6.16                    -21.3265        -127.479
6.18                    -19.1053        -139.316
6.2                     -17.8005         -159.25
6.22                    -17.6625         175.794
6.24                    -18.8553          146.85
6.26                    -21.6773         112.347
6.28                    -26.3268         62.9272
6.3                     -28.4777         -15.652
6.32                    -25.6085        -69.1711
6.34                    -23.7232        -92.9437
6.36                    -22.2154        -101.432
6.38                    -19.9419        -106.607
6.4                     -17.5512         -116.61
6.42                    -15.8193        -129.766
6.44                    -14.7813        -142.094
6.46                    -13.9949        -151.289
6.48                    -12.9214        -158.683
6.5                     -11.5444        -167.917
